# vsim -coverage -voptargs="+acc" axi_tb_top -c -do "coverage save -onexit -directive -cvg -codeall axi_random_test.ucdb; run -all; exit" "+UVM_TESTNAME=axi_random_test" -l axi_random_test.log 
# Start time: 16:22:50 on May 06,2026
# ** Note: (vsim-8009) Loading existing optimized design _opt2
# //  Questa Sim-64
# //  Version 2023.4 linux_x86_64 Oct  9 2023
# //
# //  Copyright 1991-2023 Mentor Graphics Corporation
# //  All Rights Reserved.
# //
# //  QuestaSim and its associated documentation contain trade
# //  secrets and commercial or financial information that are the property of
# //  Mentor Graphics Corporation and are privileged, confidential,
# //  and exempt from disclosure under the Freedom of Information Act,
# //  5 U.S.C. Section 552. Furthermore, this information
# //  is prohibited from disclosure under the Trade Secrets Act,
# //  18 U.S.C. Section 1905.
# //
# Loading sv_std.std
# Loading work.axi_s_inf(fast)
# Loading work.axi_m_inf(fast)
# Loading mtiUvm.uvm_pkg(fast)
# Loading work.axi_s_agent_pkg(fast)
# Loading work.axi_m_agent_pkg(fast)
# Loading work.axi_env_pkg(fast)
# Loading work.axi_test_pkg(fast)
# Loading mtiUvm.questa_uvm_pkg(fast)
# Loading work.axi_tb_top(fast)
# Loading work.axi_m_inf(fast__2)
# Loading work.axi_s_inf(fast__2)
# ** Warning: (vsim-8441) Clocking block output s_vif.s_drv_cb.RDATA is not legal in this
# or another expression.
#    Time: 0 ns  Iteration: 0  Region: /axi_s_agent_pkg::axi_s_drv #(32, 32) File: ../env/s_agent/axi_s_drv.sv Line: 113
# ** Warning: (vsim-8441) Clocking block output s_vif.s_drv_cb.RVALID is not legal in this
# or another expression.
#    Time: 0 ns  Iteration: 0  Region: /axi_s_agent_pkg::axi_s_drv #(32, 32) File: ../env/s_agent/axi_s_drv.sv Line: 115
# ** Warning: (vsim-8441) Clocking block output s_vif.s_drv_cb.RLAST is not legal in this
# or another expression.
#    Time: 0 ns  Iteration: 0  Region: /axi_s_agent_pkg::axi_s_drv #(32, 32) File: ../env/s_agent/axi_s_drv.sv Line: 116
# ** Warning: (vsim-8441) Clocking block output s_vif.s_drv_cb.RDATA is not legal in this
# or another expression.
#    Time: 0 ns  Iteration: 0  Region: /axi_s_agent_pkg::axi_s_drv #(32, 32) File: ../env/s_agent/axi_s_drv.sv Line: 113
# ** Warning: (vsim-8441) Clocking block output s_vif.s_drv_cb.RLAST is not legal in this
# or another expression.
#    Time: 0 ns  Iteration: 0  Region: /axi_s_agent_pkg::axi_s_drv #(32, 32) File: ../env/s_agent/axi_s_drv.sv Line: 116
# ** Warning: (vsim-8441) Clocking block output s_vif.s_drv_cb.RVALID is not legal in this
# or another expression.
#    Time: 0 ns  Iteration: 0  Region: /axi_s_agent_pkg::axi_s_drv #(32, 32) File: ../env/s_agent/axi_s_drv.sv Line: 115
# ** Warning: (vsim-8441) Clocking block output s_vif.s_drv_cb.RVALID is not legal in this
# or another expression.
#    Time: 0 ns  Iteration: 0  Region: /axi_s_agent_pkg::axi_s_drv #(32, 32) File: ../env/s_agent/axi_s_drv.sv Line: 115
# ** Warning: (vsim-8441) Clocking block output s_vif.s_drv_cb.RLAST is not legal in this
# or another expression.
#    Time: 0 ns  Iteration: 0  Region: /axi_s_agent_pkg::axi_s_drv #(32, 32) File: ../env/s_agent/axi_s_drv.sv Line: 116
# ** Warning: (vsim-8441) Clocking block output m_vif.m_drv_cb.WID is not legal in this
# or another expression.
#    Time: 0 ns  Iteration: 0  Region: /axi_m_agent_pkg::axi_m_drv #(32, 32) File: ../env/m_agent/axi_m_drv.sv Line: 96
# ** Warning: (vsim-8441) Clocking block output m_vif.m_drv_cb.WID is not legal in this
# or another expression.
#    Time: 0 ns  Iteration: 0  Region: /axi_m_agent_pkg::axi_m_drv #(32, 32) File: ../env/m_agent/axi_m_drv.sv Line: 96
# ** Warning: (vsim-8441) Clocking block output m_vif.m_drv_cb.WLAST is not legal in this
# or another expression.
#    Time: 0 ns  Iteration: 0  Region: /axi_m_agent_pkg::axi_m_drv #(32, 32) File: ../env/m_agent/axi_m_drv.sv Line: 101
# ** Warning: (vsim-8441) Clocking block output m_vif.m_drv_cb.WLAST is not legal in this
# or another expression.
#    Time: 0 ns  Iteration: 0  Region: /axi_m_agent_pkg::axi_m_drv #(32, 32) File: ../env/m_agent/axi_m_drv.sv Line: 101
# ** Warning: (vsim-8441) Clocking block output m_vif.m_drv_cb.WLAST is not legal in this
# or another expression.
#    Time: 0 ns  Iteration: 0  Region: /axi_m_agent_pkg::axi_m_drv #(32, 32) File: ../env/m_agent/axi_m_drv.sv Line: 101
# ** Warning: (vsim-8441) Clocking block output m_vif.m_drv_cb.WLAST is not legal in this
# or another expression.
#    Time: 0 ns  Iteration: 0  Region: /axi_m_agent_pkg::axi_m_drv #(32, 32) File: ../env/m_agent/axi_m_drv.sv Line: 101
# Loading /tools/mentor/questa/2023.4/questasim/uvm-1.1d/linux_x86_64/uvm_dpi.so
# coverage save -onexit -directive -cvg -codeall axi_random_test.ucdb
#  run -all
# ----------------------------------------------------------------
# UVM-1.1d
# (C) 2007-2013 Mentor Graphics Corporation
# (C) 2007-2013 Cadence Design Systems, Inc.
# (C) 2006-2013 Synopsys, Inc.
# (C) 2011-2013 Cypress Semiconductor Corp.
# ----------------------------------------------------------------
# 
#   ***********       IMPORTANT RELEASE NOTES         ************
# 
#   You are using a version of the UVM library that has been compiled
#   with `UVM_NO_DEPRECATED undefined.
#   See http://www.eda.org/svdb/view.php?id=3313 for more details.
# 
#   You are using a version of the UVM library that has been compiled
#   with `UVM_OBJECT_MUST_HAVE_CONSTRUCTOR undefined.
#   See http://www.eda.org/svdb/view.php?id=3770 for more details.
# 
#       (Specify +UVM_NO_RELNOTES to turn off this notice)
# 
# UVM_INFO verilog_src/questa_uvm_pkg-1.2/src/questa_uvm_pkg.sv(277) @ 0: reporter [Questa UVM] QUESTA_UVM-1.2.3
# UVM_INFO verilog_src/questa_uvm_pkg-1.2/src/questa_uvm_pkg.sv(278) @ 0: reporter [Questa UVM]  questa_uvm::init(+struct)
# UVM_INFO @ 0: reporter [RNTST] Running test axi_random_test...
# ** Warning: (vsim-8474) A higher value '8' is found in bin 'single_byte' of Coverpoint 'cp_wstrb'. It is invalid and will be ignored.
#    Time: 0 ns  Iteration: 7  Process: /uvm_pkg::uvm_phase::m_run_phases/#FORK#1847_7fefec463f4 File: ../env/axi_coverage.sv Line: 56
# ** Warning: (vsim-8474) A higher value '12' is found in bin 'single_byte' of Coverpoint 'cp_wstrb'. It is invalid and will be ignored.
#    Time: 0 ns  Iteration: 7  Process: /uvm_pkg::uvm_phase::m_run_phases/#FORK#1847_7fefec463f4 File: ../env/axi_coverage.sv Line: 56
# ** Warning: (vsim-8474) A higher value '14' is found in bin 'single_byte' of Coverpoint 'cp_wstrb'. It is invalid and will be ignored.
#    Time: 0 ns  Iteration: 7  Process: /uvm_pkg::uvm_phase::m_run_phases/#FORK#1847_7fefec463f4 File: ../env/axi_coverage.sv Line: 56
# ** Warning: (vsim-8549) After dropping the illegal, ignore or invalid values, the values list associated with scalar bin 'single_byte' in Coverpoint 'cp_wstrb' of Covergroup instance '\/axi_env_pkg::axi_coverage::write_cov ' has converged to empty list. The bin will be taken out of coverage calculation.
#    Time: 0 ns  Iteration: 7  Region: /uvm_pkg::uvm_phase::m_run_phases
# ** Warning: (vsim-8474) A higher value '15' is found in bin 'all_bytes' of Coverpoint 'cp_wstrb'. It is invalid and will be ignored.
#    Time: 0 ns  Iteration: 7  Process: /uvm_pkg::uvm_phase::m_run_phases/#FORK#1847_7fefec463f4 File: ../env/axi_coverage.sv Line: 57
# ** Warning: (vsim-8549) After dropping the illegal, ignore or invalid values, the values list associated with scalar bin 'all_bytes' in Coverpoint 'cp_wstrb' of Covergroup instance '\/axi_env_pkg::axi_coverage::write_cov ' has converged to empty list. The bin will be taken out of coverage calculation.
#    Time: 0 ns  Iteration: 7  Region: /uvm_pkg::uvm_phase::m_run_phases
# UVM_INFO ../env/s_agent/axi_s_seqr.sv(25) @ 0: uvm_test_top.env_h.s_uvc_h.s_agent_h[0].s_seqr_h [Data in s seqr] Data got in slave seqr
# UVM_INFO @ 0: reporter [UVMTOP] UVM testbench topology:
# --------------------------------------------------------------------------------
# Name                             Type                                Size  Value
# --------------------------------------------------------------------------------
# uvm_test_top                     axi_random_test                     -     @479 
#   env_h                          axi_env                             -     @491 
#     m_uvc_h                      uvm_agent                           -     @513 
#       m_agent_h[0]               uvm_agent                           -     @693 
#         m_drv_h                  uvm_driver #(REQ,RSP)               -     @814 
#           rsp_port               uvm_analysis_port                   -     @829 
#           seq_item_port          uvm_seq_item_pull_port              -     @821 
#         m_mon_h                  axi_m_mon#(ADDR_WIDTH, DATA_WIDTH)  -     @837 
#           s_port                 uvm_analysis_port                   -     @844 
#         m_seqr_h                 uvm_sequencer                       -     @705 
#           rsp_export             uvm_analysis_export                 -     @712 
#           seq_item_export        uvm_seq_item_pull_imp               -     @806 
#           arbitration_queue      array                               0     -    
#           lock_queue             array                               0     -    
#           num_last_reqs          integral                            32    'd1  
#           num_last_rsps          integral                            32    'd1  
#     ref_model_h                  axi_ref_model                       -     @558 
#       mon_imp                    uvm_analysis_imp                    -     @565 
#       sb_imp                     uvm_analysis_port                   -     @573 
#     s_uvc_h                      uvm_agent                           -     @520 
#       s_agent_h[0]               uvm_agent                           -     @860 
#         s_drv_h                  uvm_driver #(REQ,RSP)               -     @1036
#           rsp_port               uvm_analysis_port                   -     @1051
#           seq_item_port          uvm_seq_item_pull_port              -     @1043
#         s_mon_h                  axi_s_mon#(ADDR_WIDTH, DATA_WIDTH)  -     @1059
#           s_port                 uvm_analysis_port                   -     @1066
#         s_seqr_h                 uvm_sequencer                       -     @872 
#           item_collected_export  uvm_analysis_export                 -     @981 
#           item_req_fifo          uvm_tlm_analysis_fifo #(T)          -     @989 
#             analysis_export      uvm_analysis_imp                    -     @1028
#             get_ap               uvm_analysis_port                   -     @1020
#             get_peek_export      uvm_get_peek_imp                    -     @1004
#             put_ap               uvm_analysis_port                   -     @1012
#             put_export           uvm_put_imp                         -     @996 
#           rsp_export             uvm_analysis_export                 -     @879 
#           seq_item_export        uvm_seq_item_pull_imp               -     @973 
#           arbitration_queue      array                               0     -    
#           lock_queue             array                               0     -    
#           num_last_reqs          integral                            32    'd1  
#           num_last_rsps          integral                            32    'd1  
#     sb_h                         axi_sb                              -     @527 
#       anl_imp_m                  uvm_analysis_imp_m                  -     @534 
#       anl_imp_ref                uvm_analysis_imp_ref                -     @542 
#     vseqr_h                      axi_virtual_seqr                    -     @581 
#       rsp_export                 uvm_analysis_export                 -     @588 
#       seq_item_export            uvm_seq_item_pull_imp               -     @682 
#       arbitration_queue          array                               0     -    
#       lock_queue                 array                               0     -    
#       num_last_reqs              integral                            32    'd1  
#       num_last_rsps              integral                            32    'd1  
# --------------------------------------------------------------------------------
# 
# UVM_INFO ../env/axi_sb.sv(65) @ 0: uvm_test_top.env_h.sb_h [before event in sb] aaaa
# UVM_INFO ../env/m_agent/axi_m_mon.sv(29) @ 0: uvm_test_top.env_h.m_uvc_h.m_agent_h[0].m_mon_h [M MON RUN PHASE before] Inside master mon run phase
# UVM_INFO ../env/m_agent/axi_m_mon.sv(36) @ 0: uvm_test_top.env_h.m_uvc_h.m_agent_h[0].m_mon_h [M MON run PHASE after] Inside master mon
# UVM_INFO ../env/m_agent/axi_m_mon.sv(41) @ 0: uvm_test_top.env_h.m_uvc_h.m_agent_h[0].m_mon_h [M MON write addr PHASE before] Inside master mon
# UVM_INFO ../env/m_agent/axi_m_mon.sv(61) @ 0: uvm_test_top.env_h.m_uvc_h.m_agent_h[0].m_mon_h [M MON write data PHASE before] Inside master mon
# UVM_INFO ../env/m_agent/axi_m_mon.sv(86) @ 0: uvm_test_top.env_h.m_uvc_h.m_agent_h[0].m_mon_h [M MON read addr PHASE before] Inside master mon
# UVM_INFO ../env/m_agent/axi_m_mon.sv(108) @ 0: uvm_test_top.env_h.m_uvc_h.m_agent_h[0].m_mon_h [M MON read data PHASE before] Inside master mon
# Before AW CHANNEL
# Before W CHANNEL
# Before AR CHANNEL
# Before R CHANNEL
# AWLEN IN M DRV:11
# cnt : 1
# AWLEN IN M DRV:1
# cnt : 2
# AWLEN IN M DRV:8
# cnt : 3
# AWLEN IN M DRV:212
# cnt : 4
# AWLEN IN M DRV:15
# cnt : 5
# AWLEN IN M DRV:8
# cnt : 6
# AWLEN IN M DRV:7
# cnt : 7
# AWLEN IN M DRV:9
# cnt : 8
# AWLEN IN M DRV:1
# cnt : 9
# AWLEN IN M DRV:1
# cnt : 10
# AWLEN IN M DRV:1
# cnt : 11
# AWLEN IN M DRV:3
# cnt : 12
# AWLEN IN M DRV:1
# cnt : 13
# AWLEN IN M DRV:1
# cnt : 14
# AWLEN IN M DRV:159
# cnt : 15
# AWLEN IN M DRV:144
# cnt : 16
# AWLEN IN M DRV:197
# cnt : 17
# AWLEN IN M DRV:15
# cnt : 18
# AWLEN IN M DRV:228
# cnt : 19
# AWLEN IN M DRV:1
# cnt : 20
# AWLEN IN M DRV:0
# cnt : 21
# AWLEN IN M DRV:1
# cnt : 22
# AWLEN IN M DRV:21
# cnt : 23
# AWLEN IN M DRV:169
# cnt : 24
# AWLEN IN M DRV:1
# cnt : 25
# AWLEN IN M DRV:3
# cnt : 26
# AWLEN IN M DRV:7
# cnt : 27
# AWLEN IN M DRV:1
# cnt : 28
# AWLEN IN M DRV:1
# cnt : 29
# AWLEN IN M DRV:2
# cnt : 30
# AWLEN IN M DRV:1
# cnt : 31
# AWLEN IN M DRV:21
# cnt : 32
# AWLEN IN M DRV:2
# cnt : 33
# AWLEN IN M DRV:205
# cnt : 34
# AWLEN IN M DRV:7
# cnt : 35
# AWLEN IN M DRV:180
# cnt : 36
# AWLEN IN M DRV:1
# cnt : 37
# AWLEN IN M DRV:13
# cnt : 38
# AWLEN IN M DRV:4
# cnt : 39
# AWLEN IN M DRV:1
# cnt : 40
# AWLEN IN M DRV:15
# cnt : 41
# AWLEN IN M DRV:142
# cnt : 42
# AWLEN IN M DRV:3
# cnt : 43
# AWLEN IN M DRV:8
# cnt : 44
# AWLEN IN M DRV:91
# cnt : 45
# AWLEN IN M DRV:1
# cnt : 46
# AWLEN IN M DRV:236
# cnt : 47
# AWLEN IN M DRV:15
# cnt : 48
# AWLEN IN M DRV:15
# cnt : 49
# AWLEN IN M DRV:9
# cnt : 50
# AWLEN IN M DRV:194
# cnt : 51
# AWLEN IN M DRV:145
# cnt : 52
# AWLEN IN M DRV:28
# cnt : 53
# AWLEN IN M DRV:185
# cnt : 54
# AWLEN IN M DRV:12
# cnt : 55
# AWLEN IN M DRV:5
# cnt : 56
# AWLEN IN M DRV:175
# cnt : 57
# AWLEN IN M DRV:14
# cnt : 58
# AWLEN IN M DRV:221
# cnt : 59
# AWLEN IN M DRV:1
# cnt : 60
# AWLEN IN M DRV:14
# cnt : 61
# AWLEN IN M DRV:7
# cnt : 62
# AWLEN IN M DRV:25
# cnt : 63
# AWLEN IN M DRV:3
# cnt : 64
# AWLEN IN M DRV:15
# cnt : 65
# AWLEN IN M DRV:10
# cnt : 66
# AWLEN IN M DRV:12
# cnt : 67
# AWLEN IN M DRV:1
# cnt : 68
# AWLEN IN M DRV:15
# cnt : 69
# AWLEN IN M DRV:3
# cnt : 70
# AWLEN IN M DRV:148
# cnt : 71
# AWLEN IN M DRV:15
# cnt : 72
# AWLEN IN M DRV:5
# cnt : 73
# AWLEN IN M DRV:8
# cnt : 74
# AWLEN IN M DRV:1
# cnt : 75
# AWLEN IN M DRV:15
# cnt : 76
# AWLEN IN M DRV:15
# cnt : 77
# AWLEN IN M DRV:253
# cnt : 78
# AWLEN IN M DRV:10
# cnt : 79
# AWLEN IN M DRV:252
# cnt : 80
# AWLEN IN M DRV:1
# cnt : 81
# AWLEN IN M DRV:15
# cnt : 82
# AWLEN IN M DRV:1
# cnt : 83
# AWLEN IN M DRV:7
# cnt : 84
# AWLEN IN M DRV:0
# cnt : 85
# AWLEN IN M DRV:7
# cnt : 86
# AWLEN IN M DRV:3
# cnt : 87
# AWLEN IN M DRV:1
# cnt : 88
# AWLEN IN M DRV:5
# cnt : 89
# AWLEN IN M DRV:7
# cnt : 90
# AWLEN IN M DRV:7
# cnt : 91
# AWLEN IN M DRV:1
# cnt : 92
# AWLEN IN M DRV:9
# cnt : 93
# AWLEN IN M DRV:249
# cnt : 94
# AWLEN IN M DRV:15
# cnt : 95
# AWLEN IN M DRV:1
# cnt : 96
# AWLEN IN M DRV:1
# cnt : 97
# AWLEN IN M DRV:111
# cnt : 98
# AWLEN IN M DRV:15
# cnt : 99
# AWLEN IN M DRV:228
# cnt : 100
# WID: 48469 , AWID : 48469
# burst in s mon : 0
# awid in s mon : bd55 , awaddr : 7ccc5a51
#                   15wlast : 0
# WID: 48469 , AWID : 48469
# burst in s mon : 0
# awid in s mon : bf1c , awaddr : 737cdf4
# INIDE_SLAVE_MON_CTR=1
# arid in s mon : 60203
#                   25wlast : 0
# WID: 48469 , AWID : 48469
# m mon ar id : eb2b
# INIDE_SLAVE_MON_CTR=2
# arid in s mon : 59707
# burst in s mon : 2
# awid in s mon : 2b53 , awaddr : 3142d8e0
#                   35wlast : 0
# WID: 48469 , AWID : 48469
# m mon ar id : e93b
# burst in s mon : 2
# awid in s mon : a632 , awaddr : 29cb9c28
# INIDE_SLAVE_MON_CTR=3
# arid in s mon : 59859
#                   45wlast : 0
# WID: 48469 , AWID : 48469
# m mon ar id : e9d3
# INIDE_SLAVE_MON_CTR=4
# arid in s mon : 10426
# burst in s mon : 2
# awid in s mon : 8031 , awaddr : b02533fc
#                   55wlast : 0
# WID: 48469 , AWID : 48469
# m mon ar id : 28ba
# burst in s mon : 2
# awid in s mon : fb10 , awaddr : 549942cc
# INIDE_SLAVE_MON_CTR=5
# arid in s mon : 61524
#                   65wlast : 0
# WID: 48469 , AWID : 48469
# m mon ar id : f054
# INIDE_SLAVE_MON_CTR=6
# arid in s mon : 26459
# burst in s mon : 2
# awid in s mon : bbe1 , awaddr : b35c0b08
#                   75wlast : 0
# WID: 48469 , AWID : 48469
# m mon ar id : 675b
# burst in s mon : 1
# awid in s mon : bc15 , awaddr : 893b7737
# INIDE_SLAVE_MON_CTR=7
# arid in s mon : 22357
#                   85wlast : 0
# WID: 48469 , AWID : 48469
# m mon ar id : 5755
# INIDE_SLAVE_MON_CTR=8
# arid in s mon : 58966
# burst in s mon : 1
# awid in s mon : 5bc8 , awaddr : f07b6f3f
#                   95wlast : 0
# WID: 48469 , AWID : 48469
# m mon ar id : e656
# burst in s mon : 1
# awid in s mon : d167 , awaddr : cf9b5c4e
# INIDE_SLAVE_MON_CTR=9
# arid in s mon : 64759
#                  105wlast : 0
# WID: 48469 , AWID : 48469
# m mon ar id : fcf7
# INIDE_SLAVE_MON_CTR=10
# arid in s mon : 43156
# burst in s mon : 0
# awid in s mon : 43d7 , awaddr : 7ee471a9
#                  115wlast : 0
# WID: 48469 , AWID : 48469
# m mon ar id : a894
# abc : 1
# ref model mem : 2093767250
# abc : 2
# ref model mem : 2093767251
# abc : 3
# ref model mem : 2093767252
# abc : 4
# ref model mem : 2093767253
# abc : 5
# ref model mem : 2093767254
# abc : 6
# ref model mem : 2093767255
# abc : 7
# ref model mem : 2093767256
# abc : 8
# ref model mem : 2093767257
# abc : 9
# ref model mem : 2093767258
# abc : 10
# ref model mem : 2093767259
# abc : 11
# ref model mem : 2093767260
# abc : 12
# ref model mem : 2093767261
# xyz : 1
# xyz : 2
# xyz : 3
# xyz : 4
# xyz : 5
# xyz : 6
# ** Warning: (vsim-3829) Non-existent associative array entry. Returning default value.
#    Time: 125 ns  Iteration: 2  Process: /axi_s_agent_pkg::axi_s_mon #(32, 32)::monitor/#FORK#34_7fefec26b8e File: ../env/axi_ref_model.sv Line: 90
# xyz : 7
# ** Warning: (vsim-3829) Non-existent associative array entry. Returning default value.
#    Time: 125 ns  Iteration: 2  Process: /axi_s_agent_pkg::axi_s_mon #(32, 32)::monitor/#FORK#34_7fefec26b8e File: ../env/axi_ref_model.sv Line: 90
# xyz : 8
# burst in s mon : 1
# awid in s mon : 59e0 , awaddr : dfbac603
# INIDE_SLAVE_MON_CTR=11
# arid in s mon : 52439
#                  125wlast : 1
# AFFTER W CHANNEL
# WID: 48924 , AWID : 48924
# req kind_e : WRITE
# m mon ar id : ccd7
# match arid : 0 , rid : 0
# UVM_INFO ../env/s_agent/axi_s_drv.sv(31) @ 125: uvm_test_top.env_h.s_uvc_h.s_agent_h[0].s_drv_h [ID MATCH] aaaaa
# ** Warning: (vsim-3829) Non-existent associative array entry. Returning default value.
#    Time: 125 ns  Iteration: 8  Process: /uvm_pkg::uvm_sequence_base::start/#FORK#294_7fefec268bc File: ../env/s_agent/axi_base_s_seqs.sv Line: 117
# ** Warning: (vsim-3829) Non-existent associative array entry. Returning default value.
#    Time: 125 ns  Iteration: 8  Process: /uvm_pkg::uvm_sequence_base::start/#FORK#294_7fefec268bc File: ../env/s_agent/axi_base_s_seqs.sv Line: 117
# s seqs arid : 60203
# INIDE_SLAVE_SEQ_CTR=1
# match arid : eb2b , rid : eb2b
# UVM_INFO ../env/s_agent/axi_s_drv.sv(31) @ 125: uvm_test_top.env_h.s_uvc_h.s_agent_h[0].s_drv_h [ID MATCH] aaaaa
# rd data in s drv: e179b000 , len : 7 , last:0 , valid : 1
# INIDE_SLAVE_MON_CTR=12
# arid in s mon : 4905
# burst in s mon : 0
# awid in s mon : 7d1f , awaddr : cdcb00ff
#                  135wlast : 0
# WID: 48924 , AWID : 48924
# m mon ar id : 1329
# m mon rid : eb2b
# rd data in s drv: 55d992b7 , len : 7 , last:0 , valid : 1
# burst in s mon : 2
# awid in s mon : 3181 , awaddr : c43d0d0
# INIDE_SLAVE_MON_CTR=13
# arid in s mon : 35577
#                  145wlast : 0
# WID: 48924 , AWID : 48924
# m mon rid : eb2b
# m mon ar id : 8af9
# UVM_INFO ../env/m_agent/axi_base_m_seqs.sv(26) @ 145: uvm_test_top.env_h.m_uvc_h.m_agent_h[0].m_seqr_h@@vseqs_h.m_wseqs_h [IN V SEQS] Got B-channel response from driver
# rd data in s drv: 1b923475 , len : 7 , last:0 , valid : 1
# INIDE_SLAVE_MON_CTR=14
# arid in s mon : 25219
# burst in s mon : 2
# awid in s mon : 9de9 , awaddr : 5c10304e
#                  155wlast : 0
# WID: 48924 , AWID : 48924
# m mon ar id : 6283
# m mon rid : eb2b
# rd data in s drv: b7108ab , len : 7 , last:0 , valid : 1
# burst in s mon : 0
# awid in s mon : 870b , awaddr : cafeb4ad
# INIDE_SLAVE_MON_CTR=15
# arid in s mon : 47995
#                  165wlast : 0
# WID: 48924 , AWID : 48924
# m mon rid : eb2b
# m mon ar id : bb7b
# rd data in s drv: 4c64af6 , len : 7 , last:0 , valid : 1
# INIDE_SLAVE_MON_CTR=16
# arid in s mon : 51276
# burst in s mon : 0
# awid in s mon : de5 , awaddr : b3e89dca
#                  175wlast : 0
# WID: 48924 , AWID : 48924
# m mon ar id : c84c
# m mon rid : eb2b
# rd data in s drv: 969e6246 , len : 7 , last:0 , valid : 1
# burst in s mon : 2
# awid in s mon : 3595 , awaddr : 83ae8a90
# INIDE_SLAVE_MON_CTR=17
# arid in s mon : 44353
#                  185wlast : 0
# WID: 48924 , AWID : 48924
# m mon rid : eb2b
# m mon ar id : ad41
# rd data in s drv: 0 , len : 7 , last:0 , valid : 1
# INIDE_SLAVE_MON_CTR=18
# arid in s mon : 34273
# burst in s mon : 2
# awid in s mon : 2178 , awaddr : de554d3c
#                  195wlast : 0
# WID: 48924 , AWID : 48924
# m mon ar id : 85e1
# m mon rid : eb2b
# rd data in s drv: 0 , len : 7 , last:1 , valid : 1
# burst in s mon : 0
# awid in s mon : ad86 , awaddr : 77da16f2
# INIDE_SLAVE_MON_CTR=19
# arid in s mon : 40878
#                  205wlast : 0
# WID: 48924 , AWID : 48924
# req kind : READ
# m mon rid : eb2b
# m mon ar id : 9fae
# UVM_INFO ../env/axi_sb.sv(67) @ 205: uvm_test_top.env_h.sb_h [after event in sb] aaaa
# UVM_INFO ../env/axi_sb.sv(65) @ 205: uvm_test_top.env_h.sb_h [before event in sb] aaaa
# INIDE_SLAVE_MON_CTR=20
# arid in s mon : 65033
# burst in s mon : 2
# awid in s mon : fe69 , awaddr : e8f00120
# abc : 1
# ref model mem : 121097717
# abc : 2
# ref model mem : 121097718
# abc : 3
# ref model mem : 121097719
# abc : 4
# ref model mem : 121097720
# abc : 5
# ref model mem : 121097721
# abc : 6
# ref model mem : 121097722
# abc : 7
# ref model mem : 121097723
# abc : 8
# ref model mem : 121097724
# abc : 9
# ref model mem : 121097725
# xyz : 1
# xyz : 2
# xyz : 3
# xyz : 4
# xyz : 5
# ** Warning: (vsim-3829) Non-existent associative array entry. Returning default value.
#    Time: 215 ns  Iteration: 2  Process: /axi_s_agent_pkg::axi_s_mon #(32, 32)::monitor/#FORK#34_7fefec26b8e File: ../env/axi_ref_model.sv Line: 83
# xyz : 6
# ** Warning: (vsim-3829) Non-existent associative array entry. Returning default value.
#    Time: 215 ns  Iteration: 2  Process: /axi_s_agent_pkg::axi_s_mon #(32, 32)::monitor/#FORK#34_7fefec26b8e File: ../env/axi_ref_model.sv Line: 83
# xyz : 7
# ** Warning: (vsim-3829) Non-existent associative array entry. Returning default value.
#    Time: 215 ns  Iteration: 2  Process: /axi_s_agent_pkg::axi_s_mon #(32, 32)::monitor/#FORK#34_7fefec26b8e File: ../env/axi_ref_model.sv Line: 83
# xyz : 8
# ** Warning: (vsim-3829) Non-existent associative array entry. Returning default value.
#    Time: 215 ns  Iteration: 2  Process: /axi_s_agent_pkg::axi_s_mon #(32, 32)::monitor/#FORK#34_7fefec26b8e File: ../env/axi_ref_model.sv Line: 83
# xyz : 9
# ** Warning: (vsim-3829) Non-existent associative array entry. Returning default value.
#    Time: 215 ns  Iteration: 2  Process: /axi_s_agent_pkg::axi_s_mon #(32, 32)::monitor/#FORK#34_7fefec26b8e File: ../env/axi_ref_model.sv Line: 83
# xyz : 10
# ** Warning: (vsim-3829) Non-existent associative array entry. Returning default value.
#    Time: 215 ns  Iteration: 2  Process: /axi_s_agent_pkg::axi_s_mon #(32, 32)::monitor/#FORK#34_7fefec26b8e File: ../env/axi_ref_model.sv Line: 83
# xyz : 11
# ** Warning: (vsim-3829) Non-existent associative array entry. Returning default value.
#    Time: 215 ns  Iteration: 2  Process: /axi_s_agent_pkg::axi_s_mon #(32, 32)::monitor/#FORK#34_7fefec26b8e File: ../env/axi_ref_model.sv Line: 83
# xyz : 12
# ** Warning: (vsim-3829) Non-existent associative array entry. Returning default value.
#    Time: 215 ns  Iteration: 2  Process: /axi_s_agent_pkg::axi_s_mon #(32, 32)::monitor/#FORK#34_7fefec26b8e File: ../env/axi_ref_model.sv Line: 83
# xyz : 13
# ** Warning: (vsim-3829) Non-existent associative array entry. Returning default value.
#    Time: 215 ns  Iteration: 2  Process: /axi_s_agent_pkg::axi_s_mon #(32, 32)::monitor/#FORK#34_7fefec26b8e File: ../env/axi_ref_model.sv Line: 83
# xyz : 14
# ** Warning: (vsim-3829) Non-existent associative array entry. Returning default value.
#    Time: 215 ns  Iteration: 2  Process: /axi_s_agent_pkg::axi_s_mon #(32, 32)::monitor/#FORK#34_7fefec26b8e File: ../env/axi_ref_model.sv Line: 83
# xyz : 15
# ** Warning: (vsim-3829) Non-existent associative array entry. Returning default value.
#    Time: 215 ns  Iteration: 2  Process: /axi_s_agent_pkg::axi_s_mon #(32, 32)::monitor/#FORK#34_7fefec26b8e File: ../env/axi_ref_model.sv Line: 83
# xyz : 16
# ** Warning: (vsim-3829) Non-existent associative array entry. Returning default value.
#    Time: 215 ns  Iteration: 2  Process: /axi_s_agent_pkg::axi_s_mon #(32, 32)::monitor/#FORK#34_7fefec26b8e File: ../env/axi_ref_model.sv Line: 83
# xyz : 17
# ** Warning: (vsim-3829) Non-existent associative array entry. Returning default value.
#    Time: 215 ns  Iteration: 2  Process: /axi_s_agent_pkg::axi_s_mon #(32, 32)::monitor/#FORK#34_7fefec26b8e File: ../env/axi_ref_model.sv Line: 83
# xyz : 18
# ** Warning: (vsim-3829) Non-existent associative array entry. Returning default value.
#    Time: 215 ns  Iteration: 2  Process: /axi_s_agent_pkg::axi_s_mon #(32, 32)::monitor/#FORK#34_7fefec26b8e File: ../env/axi_ref_model.sv Line: 83
# xyz : 19
# ** Warning: (vsim-3829) Non-existent associative array entry. Returning default value.
#    Time: 215 ns  Iteration: 2  Process: /axi_s_agent_pkg::axi_s_mon #(32, 32)::monitor/#FORK#34_7fefec26b8e File: ../env/axi_ref_model.sv Line: 83
# xyz : 20
# ** Warning: (vsim-3829) Non-existent associative array entry. Returning default value.
#    Time: 215 ns  Iteration: 2  Process: /axi_s_agent_pkg::axi_s_mon #(32, 32)::monitor/#FORK#34_7fefec26b8e File: ../env/axi_ref_model.sv Line: 83
# xyz : 21
# ** Warning: (vsim-3829) Non-existent associative array entry. Returning default value.
#    Time: 215 ns  Iteration: 2  Process: /axi_s_agent_pkg::axi_s_mon #(32, 32)::monitor/#FORK#34_7fefec26b8e File: ../env/axi_ref_model.sv Line: 83
# xyz : 22
# ** Warning: (vsim-3829) Non-existent associative array entry. Returning default value.
#    Time: 215 ns  Iteration: 2  Process: /axi_s_agent_pkg::axi_s_mon #(32, 32)::monitor/#FORK#34_7fefec26b8e File: ../env/axi_ref_model.sv Line: 83
# xyz : 23
# ** Warning: (vsim-3829) Non-existent associative array entry. Returning default value.
#    Time: 215 ns  Iteration: 2  Process: /axi_s_agent_pkg::axi_s_mon #(32, 32)::monitor/#FORK#34_7fefec26b8e File: ../env/axi_ref_model.sv Line: 83
# xyz : 24
# ** Warning: (vsim-3829) Non-existent associative array entry. Returning default value.
#    Time: 215 ns  Iteration: 2  Process: /axi_s_agent_pkg::axi_s_mon #(32, 32)::monitor/#FORK#34_7fefec26b8e File: ../env/axi_ref_model.sv Line: 83
# xyz : 25
# ** Warning: (vsim-3829) Non-existent associative array entry. Returning default value.
#    Time: 215 ns  Iteration: 2  Process: /axi_s_agent_pkg::axi_s_mon #(32, 32)::monitor/#FORK#34_7fefec26b8e File: ../env/axi_ref_model.sv Line: 83
# xyz : 26
# ** Warning: (vsim-3829) Non-existent associative array entry. Returning default value.
#    Time: 215 ns  Iteration: 2  Process: /axi_s_agent_pkg::axi_s_mon #(32, 32)::monitor/#FORK#34_7fefec26b8e File: ../env/axi_ref_model.sv Line: 83
# xyz : 27
# ** Warning: (vsim-3829) Non-existent associative array entry. Returning default value.
#    Time: 215 ns  Iteration: 2  Process: /axi_s_agent_pkg::axi_s_mon #(32, 32)::monitor/#FORK#34_7fefec26b8e File: ../env/axi_ref_model.sv Line: 83
# xyz : 28
# ** Warning: (vsim-3829) Non-existent associative array entry. Returning default value.
#    Time: 215 ns  Iteration: 2  Process: /axi_s_agent_pkg::axi_s_mon #(32, 32)::monitor/#FORK#34_7fefec26b8e File: ../env/axi_ref_model.sv Line: 83
# xyz : 29
#                  215wlast : 1
# AFFTER W CHANNEL
# WID: 11091 , AWID : 11091
# m mon ar id : fe09
# req kind_e : WRITE
# match arid : 0 , rid : 0
# UVM_INFO ../env/s_agent/axi_s_drv.sv(31) @ 215: uvm_test_top.env_h.s_uvc_h.s_agent_h[0].s_drv_h [ID MATCH] aaaaa
# ** Warning: (vsim-3829) Non-existent associative array entry. Returning default value.
#    Time: 215 ns  Iteration: 8  Process: /uvm_pkg::uvm_sequence_base::start/#FORK#294_7fefec268bc File: ../env/s_agent/axi_base_s_seqs.sv Line: 108
# ** Warning: (vsim-3829) Non-existent associative array entry. Returning default value.
#    Time: 215 ns  Iteration: 8  Process: /uvm_pkg::uvm_sequence_base::start/#FORK#294_7fefec268bc File: ../env/s_agent/axi_base_s_seqs.sv Line: 108
# ** Warning: (vsim-3829) Non-existent associative array entry. Returning default value.
#    Time: 215 ns  Iteration: 8  Process: /uvm_pkg::uvm_sequence_base::start/#FORK#294_7fefec268bc File: ../env/s_agent/axi_base_s_seqs.sv Line: 108
# ** Warning: (vsim-3829) Non-existent associative array entry. Returning default value.
#    Time: 215 ns  Iteration: 8  Process: /uvm_pkg::uvm_sequence_base::start/#FORK#294_7fefec268bc File: ../env/s_agent/axi_base_s_seqs.sv Line: 108
# ** Warning: (vsim-3829) Non-existent associative array entry. Returning default value.
#    Time: 215 ns  Iteration: 8  Process: /uvm_pkg::uvm_sequence_base::start/#FORK#294_7fefec268bc File: ../env/s_agent/axi_base_s_seqs.sv Line: 108
# ** Warning: (vsim-3829) Non-existent associative array entry. Returning default value.
#    Time: 215 ns  Iteration: 8  Process: /uvm_pkg::uvm_sequence_base::start/#FORK#294_7fefec268bc File: ../env/s_agent/axi_base_s_seqs.sv Line: 108
# ** Warning: (vsim-3829) Non-existent associative array entry. Returning default value.
#    Time: 215 ns  Iteration: 8  Process: /uvm_pkg::uvm_sequence_base::start/#FORK#294_7fefec268bc File: ../env/s_agent/axi_base_s_seqs.sv Line: 108
# ** Warning: (vsim-3829) Non-existent associative array entry. Returning default value.
#    Time: 215 ns  Iteration: 8  Process: /uvm_pkg::uvm_sequence_base::start/#FORK#294_7fefec268bc File: ../env/s_agent/axi_base_s_seqs.sv Line: 108
# ** Warning: (vsim-3829) Non-existent associative array entry. Returning default value.
#    Time: 215 ns  Iteration: 8  Process: /uvm_pkg::uvm_sequence_base::start/#FORK#294_7fefec268bc File: ../env/s_agent/axi_base_s_seqs.sv Line: 108
# ** Warning: (vsim-3829) Non-existent associative array entry. Returning default value.
#    Time: 215 ns  Iteration: 8  Process: /uvm_pkg::uvm_sequence_base::start/#FORK#294_7fefec268bc File: ../env/s_agent/axi_base_s_seqs.sv Line: 108
# ** Warning: (vsim-3829) Non-existent associative array entry. Returning default value.
#    Time: 215 ns  Iteration: 8  Process: /uvm_pkg::uvm_sequence_base::start/#FORK#294_7fefec268bc File: ../env/s_agent/axi_base_s_seqs.sv Line: 108
# ** Warning: (vsim-3829) Non-existent associative array entry. Returning default value.
#    Time: 215 ns  Iteration: 8  Process: /uvm_pkg::uvm_sequence_base::start/#FORK#294_7fefec268bc File: ../env/s_agent/axi_base_s_seqs.sv Line: 108
# ** Warning: (vsim-3829) Non-existent associative array entry. Returning default value.
#    Time: 215 ns  Iteration: 8  Process: /uvm_pkg::uvm_sequence_base::start/#FORK#294_7fefec268bc File: ../env/s_agent/axi_base_s_seqs.sv Line: 108
# ** Warning: (vsim-3829) Non-existent associative array entry. Returning default value.
#    Time: 215 ns  Iteration: 8  Process: /uvm_pkg::uvm_sequence_base::start/#FORK#294_7fefec268bc File: ../env/s_agent/axi_base_s_seqs.sv Line: 108
# ** Warning: (vsim-3829) Non-existent associative array entry. Returning default value.
#    Time: 215 ns  Iteration: 8  Process: /uvm_pkg::uvm_sequence_base::start/#FORK#294_7fefec268bc File: ../env/s_agent/axi_base_s_seqs.sv Line: 108
# ** Warning: (vsim-3829) Non-existent associative array entry. Returning default value.
#    Time: 215 ns  Iteration: 8  Process: /uvm_pkg::uvm_sequence_base::start/#FORK#294_7fefec268bc File: ../env/s_agent/axi_base_s_seqs.sv Line: 108
# ** Warning: (vsim-3829) Non-existent associative array entry. Returning default value.
#    Time: 215 ns  Iteration: 8  Process: /uvm_pkg::uvm_sequence_base::start/#FORK#294_7fefec268bc File: ../env/s_agent/axi_base_s_seqs.sv Line: 108
# ** Warning: (vsim-3829) Non-existent associative array entry. Returning default value.
#    Time: 215 ns  Iteration: 8  Process: /uvm_pkg::uvm_sequence_base::start/#FORK#294_7fefec268bc File: ../env/s_agent/axi_base_s_seqs.sv Line: 108
# ** Warning: (vsim-3829) Non-existent associative array entry. Returning default value.
#    Time: 215 ns  Iteration: 8  Process: /uvm_pkg::uvm_sequence_base::start/#FORK#294_7fefec268bc File: ../env/s_agent/axi_base_s_seqs.sv Line: 108
# ** Warning: (vsim-3829) Non-existent associative array entry. Returning default value.
#    Time: 215 ns  Iteration: 8  Process: /uvm_pkg::uvm_sequence_base::start/#FORK#294_7fefec268bc File: ../env/s_agent/axi_base_s_seqs.sv Line: 108
# ** Warning: (vsim-3829) Non-existent associative array entry. Returning default value.
#    Time: 215 ns  Iteration: 8  Process: /uvm_pkg::uvm_sequence_base::start/#FORK#294_7fefec268bc File: ../env/s_agent/axi_base_s_seqs.sv Line: 108
# ** Warning: (vsim-3829) Non-existent associative array entry. Returning default value.
#    Time: 215 ns  Iteration: 8  Process: /uvm_pkg::uvm_sequence_base::start/#FORK#294_7fefec268bc File: ../env/s_agent/axi_base_s_seqs.sv Line: 108
# ** Warning: (vsim-3829) Non-existent associative array entry. Returning default value.
#    Time: 215 ns  Iteration: 8  Process: /uvm_pkg::uvm_sequence_base::start/#FORK#294_7fefec268bc File: ../env/s_agent/axi_base_s_seqs.sv Line: 108
# ** Warning: (vsim-3829) Non-existent associative array entry. Returning default value.
#    Time: 215 ns  Iteration: 8  Process: /uvm_pkg::uvm_sequence_base::start/#FORK#294_7fefec268bc File: ../env/s_agent/axi_base_s_seqs.sv Line: 108
# s seqs arid : 59707
# INIDE_SLAVE_SEQ_CTR=2
# match arid : e93b , rid : e93b
# UVM_INFO ../env/s_agent/axi_s_drv.sv(31) @ 215: uvm_test_top.env_h.s_uvc_h.s_agent_h[0].s_drv_h [ID MATCH] aaaaa
# rd data in s drv: 766d2096 , len : 28 , last:0 , valid : 1
# burst in s mon : 2
# awid in s mon : 177c , awaddr : 8e500c7c
# INIDE_SLAVE_MON_CTR=21
# arid in s mon : 39064
#                  225wlast : 0
# WID: 11091 , AWID : 11091
# m mon ar id : 9898
# m mon rid : e93b
# rd data in s drv: b8665e42 , len : 28 , last:0 , valid : 1
# INIDE_SLAVE_MON_CTR=22
# arid in s mon : 62773
# burst in s mon : 1
# awid in s mon : 661d , awaddr : 87200ca6
#                  235wlast : 0
# WID: 11091 , AWID : 11091
# m mon rid : e93b
# m mon ar id : f535
# UVM_INFO ../env/m_agent/axi_base_m_seqs.sv(26) @ 235: uvm_test_top.env_h.m_uvc_h.m_agent_h[0].m_seqr_h@@vseqs_h.m_wseqs_h [IN V SEQS] Got B-channel response from driver
# rd data in s drv: 74abeee2 , len : 28 , last:0 , valid : 1
# burst in s mon : 1
# awid in s mon : e79f , awaddr : f95c3676
# INIDE_SLAVE_MON_CTR=23
# arid in s mon : 60350
#                  245wlast : 0
# WID: 11091 , AWID : 11091
# m mon ar id : ebbe
# m mon rid : e93b
# rd data in s drv: 680aea50 , len : 28 , last:0 , valid : 1
# INIDE_SLAVE_MON_CTR=24
# arid in s mon : 45043
# burst in s mon : 2
# awid in s mon : 5d92 , awaddr : 214e44f0
#                  255wlast : 0
# WID: 11091 , AWID : 11091
# m mon rid : e93b
# m mon ar id : aff3
# rd data in s drv: 757fd52b , len : 28 , last:0 , valid : 1
# burst in s mon : 1
# awid in s mon : 74b6 , awaddr : cd190c3b
# INIDE_SLAVE_MON_CTR=25
# arid in s mon : 15796
#                  265wlast : 0
# WID: 11091 , AWID : 11091
# m mon ar id : 3db4
# m mon rid : e93b
# rd data in s drv: 0 , len : 28 , last:0 , valid : 1
# INIDE_SLAVE_MON_CTR=26
# arid in s mon : 64427
# burst in s mon : 1
# awid in s mon : 2a80 , awaddr : c4e3d2b8
#                  275wlast : 0
# WID: 11091 , AWID : 11091
# m mon rid : e93b
# m mon ar id : fbab
# rd data in s drv: 0 , len : 28 , last:0 , valid : 1
# burst in s mon : 0
# awid in s mon : 1ffb , awaddr : c13d1970
# INIDE_SLAVE_MON_CTR=27
# arid in s mon : 15132
#                  285wlast : 0
# WID: 11091 , AWID : 11091
# m mon ar id : 3b1c
# m mon rid : e93b
# rd data in s drv: 0 , len : 28 , last:0 , valid : 1
# INIDE_SLAVE_MON_CTR=28
# arid in s mon : 25003
# burst in s mon : 1
# awid in s mon : 4336 , awaddr : 473f6761
#                  295wlast : 0
# WID: 11091 , AWID : 11091
# m mon rid : e93b
# m mon ar id : 61ab
# rd data in s drv: 0 , len : 28 , last:0 , valid : 1
# burst in s mon : 1
# awid in s mon : 2877 , awaddr : f073ef5d
# INIDE_SLAVE_MON_CTR=29
# arid in s mon : 51408
#                  305wlast : 0
# WID: 11091 , AWID : 11091
# m mon ar id : c8d0
# m mon rid : e93b
# rd data in s drv: 0 , len : 28 , last:0 , valid : 1
# INIDE_SLAVE_MON_CTR=30
# arid in s mon : 29970
# burst in s mon : 0
# awid in s mon : 359 , awaddr : bfc0b8d3
#                  315wlast : 0
# WID: 11091 , AWID : 11091
# m mon rid : e93b
# m mon ar id : 7512
# rd data in s drv: 0 , len : 28 , last:0 , valid : 1
# burst in s mon : 1
# awid in s mon : 36be , awaddr : 186c31d8
# INIDE_SLAVE_MON_CTR=31
# arid in s mon : 11395
#                  325wlast : 0
# WID: 11091 , AWID : 11091
# m mon ar id : 2c83
# m mon rid : e93b
# rd data in s drv: 0 , len : 28 , last:0 , valid : 1
# INIDE_SLAVE_MON_CTR=32
# arid in s mon : 43166
# burst in s mon : 2
# awid in s mon : 3127 , awaddr : a79103e0
#                  335wlast : 0
# WID: 11091 , AWID : 11091
# m mon rid : e93b
# m mon ar id : a89e
# rd data in s drv: 0 , len : 28 , last:0 , valid : 1
# burst in s mon : 0
# awid in s mon : 5250 , awaddr : fef74024
# INIDE_SLAVE_MON_CTR=33
# arid in s mon : 11187
#                  345wlast : 0
# WID: 11091 , AWID : 11091
# m mon ar id : 2bb3
# m mon rid : e93b
# rd data in s drv: 0 , len : 28 , last:0 , valid : 1
# INIDE_SLAVE_MON_CTR=34
# arid in s mon : 5180
# burst in s mon : 0
# awid in s mon : 2eeb , awaddr : 24d7f00c
#                  355wlast : 0
# WID: 11091 , AWID : 11091
# m mon rid : e93b
# m mon ar id : 143c
# rd data in s drv: 0 , len : 28 , last:0 , valid : 1
# burst in s mon : 1
# awid in s mon : 2c50 , awaddr : 84432cac
# INIDE_SLAVE_MON_CTR=35
# arid in s mon : 33047
#                  365wlast : 0
# WID: 11091 , AWID : 11091
# m mon ar id : 8117
# m mon rid : e93b
# rd data in s drv: 0 , len : 28 , last:0 , valid : 1
# INIDE_SLAVE_MON_CTR=36
# arid in s mon : 41870
# burst in s mon : 0
# awid in s mon : 810c , awaddr : 606f0ea4
# abc : 1
# ref model mem : 826464480
# abc : 2
# ref model mem : 826464482
# abc : 3
# ref model mem : 826464484
# abc : 4
# ref model mem : 826464486
# abc : 5
# ref model mem : 826464488
# abc : 6
# ref model mem : 826464490
# abc : 7
# ref model mem : 826464492
# abc : 8
# ref model mem : 826464494
# abc : 9
# ref model mem : 826464496
# abc : 10
# ref model mem : 826464498
# abc : 11
# ref model mem : 826464500
# abc : 12
# ref model mem : 826464502
# abc : 13
# ref model mem : 826464504
# abc : 14
# ref model mem : 826464506
# abc : 15
# ref model mem : 826464508
# abc : 16
# ref model mem : 826464510
# xyz : 1
# ** Warning: (vsim-3829) Non-existent associative array entry. Returning default value.
#    Time: 375 ns  Iteration: 2  Process: /axi_s_agent_pkg::axi_s_mon #(32, 32)::monitor/#FORK#34_7fefec26b8e File: ../env/axi_ref_model.sv Line: 79
# xyz : 2
# xyz : 3
# ** Warning: (vsim-3829) Non-existent associative array entry. Returning default value.
#    Time: 375 ns  Iteration: 2  Process: /axi_s_agent_pkg::axi_s_mon #(32, 32)::monitor/#FORK#34_7fefec26b8e File: ../env/axi_ref_model.sv Line: 79
# xyz : 4
# xyz : 5
# ** Warning: (vsim-3829) Non-existent associative array entry. Returning default value.
#    Time: 375 ns  Iteration: 2  Process: /axi_s_agent_pkg::axi_s_mon #(32, 32)::monitor/#FORK#34_7fefec26b8e File: ../env/axi_ref_model.sv Line: 79
# xyz : 6
# xyz : 7
# ** Warning: (vsim-3829) Non-existent associative array entry. Returning default value.
#    Time: 375 ns  Iteration: 2  Process: /axi_s_agent_pkg::axi_s_mon #(32, 32)::monitor/#FORK#34_7fefec26b8e File: ../env/axi_ref_model.sv Line: 79
# xyz : 8
# xyz : 9
# ** Warning: (vsim-3829) Non-existent associative array entry. Returning default value.
#    Time: 375 ns  Iteration: 2  Process: /axi_s_agent_pkg::axi_s_mon #(32, 32)::monitor/#FORK#34_7fefec26b8e File: ../env/axi_ref_model.sv Line: 79
# xyz : 10
# xyz : 11
# ** Warning: (vsim-3829) Non-existent associative array entry. Returning default value.
#    Time: 375 ns  Iteration: 2  Process: /axi_s_agent_pkg::axi_s_mon #(32, 32)::monitor/#FORK#34_7fefec26b8e File: ../env/axi_ref_model.sv Line: 79
# xyz : 12
# xyz : 13
# ** Warning: (vsim-3829) Non-existent associative array entry. Returning default value.
#    Time: 375 ns  Iteration: 2  Process: /axi_s_agent_pkg::axi_s_mon #(32, 32)::monitor/#FORK#34_7fefec26b8e File: ../env/axi_ref_model.sv Line: 79
# xyz : 14
#                  375wlast : 1
# AFFTER W CHANNEL
# WID: 42546 , AWID : 42546
# m mon rid : e93b
# m mon ar id : a38e
# req kind_e : WRITE
# match arid : 0 , rid : 0
# UVM_INFO ../env/s_agent/axi_s_drv.sv(31) @ 375: uvm_test_top.env_h.s_uvc_h.s_agent_h[0].s_drv_h [ID MATCH] aaaaa
# ** Warning: (vsim-3829) Non-existent associative array entry. Returning default value.
#    Time: 375 ns  Iteration: 8  Process: /uvm_pkg::uvm_sequence_base::start/#FORK#294_7fefec268bc File: ../env/s_agent/axi_base_s_seqs.sv Line: 103
# ** Warning: (vsim-3829) Non-existent associative array entry. Returning default value.
#    Time: 375 ns  Iteration: 8  Process: /uvm_pkg::uvm_sequence_base::start/#FORK#294_7fefec268bc File: ../env/s_agent/axi_base_s_seqs.sv Line: 103
# ** Warning: (vsim-3829) Non-existent associative array entry. Returning default value.
#    Time: 375 ns  Iteration: 8  Process: /uvm_pkg::uvm_sequence_base::start/#FORK#294_7fefec268bc File: ../env/s_agent/axi_base_s_seqs.sv Line: 103
# ** Warning: (vsim-3829) Non-existent associative array entry. Returning default value.
#    Time: 375 ns  Iteration: 8  Process: /uvm_pkg::uvm_sequence_base::start/#FORK#294_7fefec268bc File: ../env/s_agent/axi_base_s_seqs.sv Line: 103
# ** Warning: (vsim-3829) Non-existent associative array entry. Returning default value.
#    Time: 375 ns  Iteration: 8  Process: /uvm_pkg::uvm_sequence_base::start/#FORK#294_7fefec268bc File: ../env/s_agent/axi_base_s_seqs.sv Line: 103
# ** Warning: (vsim-3829) Non-existent associative array entry. Returning default value.
#    Time: 375 ns  Iteration: 8  Process: /uvm_pkg::uvm_sequence_base::start/#FORK#294_7fefec268bc File: ../env/s_agent/axi_base_s_seqs.sv Line: 103
# ** Warning: (vsim-3829) Non-existent associative array entry. Returning default value.
#    Time: 375 ns  Iteration: 8  Process: /uvm_pkg::uvm_sequence_base::start/#FORK#294_7fefec268bc File: ../env/s_agent/axi_base_s_seqs.sv Line: 103
# s seqs arid : 59859
# INIDE_SLAVE_SEQ_CTR=3
# match arid : e9d3 , rid : e9d3
# UVM_INFO ../env/s_agent/axi_s_drv.sv(31) @ 375: uvm_test_top.env_h.s_uvc_h.s_agent_h[0].s_drv_h [ID MATCH] aaaaa
# rd data in s drv: 0 , len : 28 , last:0 , valid : 1
# burst in s mon : 2
# awid in s mon : cb7a , awaddr : 63830efc
# INIDE_SLAVE_MON_CTR=37
# arid in s mon : 14176
#                  385wlast : 0
# WID: 42546 , AWID : 42546
# m mon ar id : 3760
# m mon rid : e93b
# rd data in s drv: 0 , len : 28 , last:0 , valid : 1
# INIDE_SLAVE_MON_CTR=38
# arid in s mon : 15499
# burst in s mon : 2
# awid in s mon : 2afe , awaddr : 4ec75080
#                  395wlast : 0
# WID: 42546 , AWID : 42546
# m mon rid : e93b
# m mon ar id : 3c8b
# UVM_INFO ../env/m_agent/axi_base_m_seqs.sv(26) @ 395: uvm_test_top.env_h.m_uvc_h.m_agent_h[0].m_seqr_h@@vseqs_h.m_wseqs_h [IN V SEQS] Got B-channel response from driver
# rd data in s drv: 0 , len : 28 , last:0 , valid : 1
# burst in s mon : 0
# awid in s mon : 90ac , awaddr : e84e24d7
# INIDE_SLAVE_MON_CTR=39
# arid in s mon : 29379
#                  405wlast : 0
# WID: 42546 , AWID : 42546
# m mon ar id : 72c3
# m mon rid : e93b
# rd data in s drv: 0 , len : 28 , last:0 , valid : 1
# INIDE_SLAVE_MON_CTR=40
# arid in s mon : 11568
# burst in s mon : 2
# awid in s mon : b6ce , awaddr : f4d37222
#                  415wlast : 0
# WID: 42546 , AWID : 42546
# m mon rid : e93b
# m mon ar id : 2d30
# rd data in s drv: 0 , len : 28 , last:0 , valid : 1
# burst in s mon : 2
# awid in s mon : 6ad5 , awaddr : 478de5c8
# INIDE_SLAVE_MON_CTR=41
# arid in s mon : 16179
#                  425wlast : 0
# WID: 42546 , AWID : 42546
# m mon ar id : 3f33
# m mon rid : e93b
# rd data in s drv: 0 , len : 28 , last:0 , valid : 1
# INIDE_SLAVE_MON_CTR=42
# arid in s mon : 60092
# burst in s mon : 0
# awid in s mon : c8cc , awaddr : 54020a4c
#                  435wlast : 0
# WID: 42546 , AWID : 42546
# m mon rid : e93b
# m mon ar id : eabc
# rd data in s drv: 0 , len : 28 , last:0 , valid : 1
# burst in s mon : 0
# awid in s mon : 13d6 , awaddr : d4fc729b
# INIDE_SLAVE_MON_CTR=43
# arid in s mon : 36315
#                  445wlast : 0
# WID: 42546 , AWID : 42546
# m mon ar id : 8ddb
# m mon rid : e93b
# rd data in s drv: 0 , len : 28 , last:0 , valid : 1
# INIDE_SLAVE_MON_CTR=44
# arid in s mon : 5087
# burst in s mon : 0
# awid in s mon : 6a29 , awaddr : 21f4c60d
# abc : 1
# ref model mem : 701209640
# abc : 2
# ref model mem : 701209641
# abc : 3
# ref model mem : 701209642
# abc : 4
# ref model mem : 701209643
# abc : 5
# ref model mem : 701209644
# abc : 6
# ref model mem : 701209645
# abc : 7
# ref model mem : 701209646
# abc : 8
# ref model mem : 701209647
# xyz : 1
# xyz : 2
# xyz : 3
# xyz : 4
# xyz : 5
# xyz : 6
# xyz : 7
#                  455wlast : 1
# AFFTER W CHANNEL
# WID: 32817 , AWID : 32817
# m mon rid : e93b
# m mon ar id : 13df
# req kind_e : WRITE
# match arid : 0 , rid : 0
# UVM_INFO ../env/s_agent/axi_s_drv.sv(31) @ 455: uvm_test_top.env_h.s_uvc_h.s_agent_h[0].s_drv_h [ID MATCH] aaaaa
# s seqs arid : 10426
# INIDE_SLAVE_SEQ_CTR=4
# match arid : 28ba , rid : 28ba
# UVM_INFO ../env/s_agent/axi_s_drv.sv(31) @ 455: uvm_test_top.env_h.s_uvc_h.s_agent_h[0].s_drv_h [ID MATCH] aaaaa
# rd data in s drv: 0 , len : 28 , last:0 , valid : 1
# burst in s mon : 2
# awid in s mon : a989 , awaddr : 7870a80
# INIDE_SLAVE_MON_CTR=45
# arid in s mon : 47476
#                  465wlast : 0
# WID: 32817 , AWID : 32817
# m mon ar id : b974
# m mon rid : e93b
# rd data in s drv: 0 , len : 28 , last:0 , valid : 1
# INIDE_SLAVE_MON_CTR=46
# arid in s mon : 36504
# burst in s mon : 0
# awid in s mon : 98df , awaddr : 5a553b71
# abc : 1
# ref model mem : 2955228156
# abc : 2
# ref model mem : 2955228158
# xyz : 1
# ** Warning: (vsim-3829) Non-existent associative array entry. Returning default value.
#    Time: 475 ns  Iteration: 2  Process: /axi_s_agent_pkg::axi_s_mon #(32, 32)::monitor/#FORK#34_7fefec26b8e File: ../env/axi_ref_model.sv Line: 90
# xyz : 2
# ** Warning: (vsim-3829) Non-existent associative array entry. Returning default value.
#    Time: 475 ns  Iteration: 2  Process: /axi_s_agent_pkg::axi_s_mon #(32, 32)::monitor/#FORK#34_7fefec26b8e File: ../env/axi_ref_model.sv Line: 90
# xyz : 3
# ** Warning: (vsim-3829) Non-existent associative array entry. Returning default value.
#    Time: 475 ns  Iteration: 2  Process: /axi_s_agent_pkg::axi_s_mon #(32, 32)::monitor/#FORK#34_7fefec26b8e File: ../env/axi_ref_model.sv Line: 90
# xyz : 4
# ** Warning: (vsim-3829) Non-existent associative array entry. Returning default value.
#    Time: 475 ns  Iteration: 2  Process: /axi_s_agent_pkg::axi_s_mon #(32, 32)::monitor/#FORK#34_7fefec26b8e File: ../env/axi_ref_model.sv Line: 90
# xyz : 5
# ** Warning: (vsim-3829) Non-existent associative array entry. Returning default value.
#    Time: 475 ns  Iteration: 2  Process: /axi_s_agent_pkg::axi_s_mon #(32, 32)::monitor/#FORK#34_7fefec26b8e File: ../env/axi_ref_model.sv Line: 90
# xyz : 6
# ** Warning: (vsim-3829) Non-existent associative array entry. Returning default value.
#    Time: 475 ns  Iteration: 2  Process: /axi_s_agent_pkg::axi_s_mon #(32, 32)::monitor/#FORK#34_7fefec26b8e File: ../env/axi_ref_model.sv Line: 90
# xyz : 7
# ** Warning: (vsim-3829) Non-existent associative array entry. Returning default value.
#    Time: 475 ns  Iteration: 2  Process: /axi_s_agent_pkg::axi_s_mon #(32, 32)::monitor/#FORK#34_7fefec26b8e File: ../env/axi_ref_model.sv Line: 90
# xyz : 8
#                  475wlast : 1
# AFFTER W CHANNEL
# WID: 64272 , AWID : 64272
# m mon rid : e93b
# m mon ar id : 8e98
# req kind_e : WRITE
# UVM_INFO ../env/m_agent/axi_base_m_seqs.sv(26) @ 475: uvm_test_top.env_h.m_uvc_h.m_agent_h[0].m_seqr_h@@vseqs_h.m_wseqs_h [IN V SEQS] Got B-channel response from driver
# match arid : 0 , rid : 0
# UVM_INFO ../env/s_agent/axi_s_drv.sv(31) @ 475: uvm_test_top.env_h.s_uvc_h.s_agent_h[0].s_drv_h [ID MATCH] aaaaa
# ** Warning: (vsim-3829) Non-existent associative array entry. Returning default value.
#    Time: 475 ns  Iteration: 8  Process: /uvm_pkg::uvm_sequence_base::start/#FORK#294_7fefec268bc File: ../env/s_agent/axi_base_s_seqs.sv Line: 117
# ** Warning: (vsim-3829) Non-existent associative array entry. Returning default value.
#    Time: 475 ns  Iteration: 8  Process: /uvm_pkg::uvm_sequence_base::start/#FORK#294_7fefec268bc File: ../env/s_agent/axi_base_s_seqs.sv Line: 117
# ** Warning: (vsim-3829) Non-existent associative array entry. Returning default value.
#    Time: 475 ns  Iteration: 8  Process: /uvm_pkg::uvm_sequence_base::start/#FORK#294_7fefec268bc File: ../env/s_agent/axi_base_s_seqs.sv Line: 117
# ** Warning: (vsim-3829) Non-existent associative array entry. Returning default value.
#    Time: 475 ns  Iteration: 8  Process: /uvm_pkg::uvm_sequence_base::start/#FORK#294_7fefec268bc File: ../env/s_agent/axi_base_s_seqs.sv Line: 117
# ** Warning: (vsim-3829) Non-existent associative array entry. Returning default value.
#    Time: 475 ns  Iteration: 8  Process: /uvm_pkg::uvm_sequence_base::start/#FORK#294_7fefec268bc File: ../env/s_agent/axi_base_s_seqs.sv Line: 117
# ** Warning: (vsim-3829) Non-existent associative array entry. Returning default value.
#    Time: 475 ns  Iteration: 8  Process: /uvm_pkg::uvm_sequence_base::start/#FORK#294_7fefec268bc File: ../env/s_agent/axi_base_s_seqs.sv Line: 117
# ** Warning: (vsim-3829) Non-existent associative array entry. Returning default value.
#    Time: 475 ns  Iteration: 8  Process: /uvm_pkg::uvm_sequence_base::start/#FORK#294_7fefec268bc File: ../env/s_agent/axi_base_s_seqs.sv Line: 117
# s seqs arid : 61524
# INIDE_SLAVE_SEQ_CTR=5
# match arid : f054 , rid : f054
# UVM_INFO ../env/s_agent/axi_s_drv.sv(31) @ 475: uvm_test_top.env_h.s_uvc_h.s_agent_h[0].s_drv_h [ID MATCH] aaaaa
# rd data in s drv: 0 , len : 28 , last:0 , valid : 1
# burst in s mon : 2
# awid in s mon : 4b94 , awaddr : 50f267f0
# INIDE_SLAVE_MON_CTR=47
# arid in s mon : 22723
#                  485wlast : 0
# WID: 64272 , AWID : 64272
# m mon ar id : 58c3
# m mon rid : e93b
# rd data in s drv: 0 , len : 28 , last:0 , valid : 1
# INIDE_SLAVE_MON_CTR=48
# arid in s mon : 50465
# burst in s mon : 2
# awid in s mon : 4518 , awaddr : 64f0080
# abc : 1
# ref model mem : 1419330252
# abc : 2
# ref model mem : 1419330253
# xyz : 1
# xyz : 2
# ** Warning: (vsim-3829) Non-existent associative array entry. Returning default value.
#    Time: 495 ns  Iteration: 2  Process: /axi_s_agent_pkg::axi_s_mon #(32, 32)::monitor/#FORK#34_7fefec26b8e File: ../env/axi_ref_model.sv Line: 79
# xyz : 3
# ** Warning: (vsim-3829) Non-existent associative array entry. Returning default value.
#    Time: 495 ns  Iteration: 2  Process: /axi_s_agent_pkg::axi_s_mon #(32, 32)::monitor/#FORK#34_7fefec26b8e File: ../env/axi_ref_model.sv Line: 79
# xyz : 4
# ** Warning: (vsim-3829) Non-existent associative array entry. Returning default value.
#    Time: 495 ns  Iteration: 2  Process: /axi_s_agent_pkg::axi_s_mon #(32, 32)::monitor/#FORK#34_7fefec26b8e File: ../env/axi_ref_model.sv Line: 79
# xyz : 5
# ** Warning: (vsim-3829) Non-existent associative array entry. Returning default value.
#    Time: 495 ns  Iteration: 2  Process: /axi_s_agent_pkg::axi_s_mon #(32, 32)::monitor/#FORK#34_7fefec26b8e File: ../env/axi_ref_model.sv Line: 79
# xyz : 6
# ** Warning: (vsim-3829) Non-existent associative array entry. Returning default value.
#    Time: 495 ns  Iteration: 2  Process: /axi_s_agent_pkg::axi_s_mon #(32, 32)::monitor/#FORK#34_7fefec26b8e File: ../env/axi_ref_model.sv Line: 79
# xyz : 7
# ** Warning: (vsim-3829) Non-existent associative array entry. Returning default value.
#    Time: 495 ns  Iteration: 2  Process: /axi_s_agent_pkg::axi_s_mon #(32, 32)::monitor/#FORK#34_7fefec26b8e File: ../env/axi_ref_model.sv Line: 79
# xyz : 8
# ** Warning: (vsim-3829) Non-existent associative array entry. Returning default value.
#    Time: 495 ns  Iteration: 2  Process: /axi_s_agent_pkg::axi_s_mon #(32, 32)::monitor/#FORK#34_7fefec26b8e File: ../env/axi_ref_model.sv Line: 79
# xyz : 9
# ** Warning: (vsim-3829) Non-existent associative array entry. Returning default value.
#    Time: 495 ns  Iteration: 2  Process: /axi_s_agent_pkg::axi_s_mon #(32, 32)::monitor/#FORK#34_7fefec26b8e File: ../env/axi_ref_model.sv Line: 79
# xyz : 10
# ** Warning: (vsim-3829) Non-existent associative array entry. Returning default value.
#    Time: 495 ns  Iteration: 2  Process: /axi_s_agent_pkg::axi_s_mon #(32, 32)::monitor/#FORK#34_7fefec26b8e File: ../env/axi_ref_model.sv Line: 79
# xyz : 11
#                  495wlast : 1
# AFFTER W CHANNEL
# WID: 48097 , AWID : 48097
# m mon rid : e93b
# m mon ar id : c521
# req kind_e : WRITE
# UVM_INFO ../env/m_agent/axi_base_m_seqs.sv(26) @ 495: uvm_test_top.env_h.m_uvc_h.m_agent_h[0].m_seqr_h@@vseqs_h.m_wseqs_h [IN V SEQS] Got B-channel response from driver
# match arid : 0 , rid : 0
# UVM_INFO ../env/s_agent/axi_s_drv.sv(31) @ 495: uvm_test_top.env_h.s_uvc_h.s_agent_h[0].s_drv_h [ID MATCH] aaaaa
# ** Warning: (vsim-3829) Non-existent associative array entry. Returning default value.
#    Time: 495 ns  Iteration: 8  Process: /uvm_pkg::uvm_sequence_base::start/#FORK#294_7fefec268bc File: ../env/s_agent/axi_base_s_seqs.sv Line: 103
# ** Warning: (vsim-3829) Non-existent associative array entry. Returning default value.
#    Time: 495 ns  Iteration: 8  Process: /uvm_pkg::uvm_sequence_base::start/#FORK#294_7fefec268bc File: ../env/s_agent/axi_base_s_seqs.sv Line: 103
# ** Warning: (vsim-3829) Non-existent associative array entry. Returning default value.
#    Time: 495 ns  Iteration: 8  Process: /uvm_pkg::uvm_sequence_base::start/#FORK#294_7fefec268bc File: ../env/s_agent/axi_base_s_seqs.sv Line: 103
# ** Warning: (vsim-3829) Non-existent associative array entry. Returning default value.
#    Time: 495 ns  Iteration: 8  Process: /uvm_pkg::uvm_sequence_base::start/#FORK#294_7fefec268bc File: ../env/s_agent/axi_base_s_seqs.sv Line: 103
# ** Warning: (vsim-3829) Non-existent associative array entry. Returning default value.
#    Time: 495 ns  Iteration: 8  Process: /uvm_pkg::uvm_sequence_base::start/#FORK#294_7fefec268bc File: ../env/s_agent/axi_base_s_seqs.sv Line: 103
# ** Warning: (vsim-3829) Non-existent associative array entry. Returning default value.
#    Time: 495 ns  Iteration: 8  Process: /uvm_pkg::uvm_sequence_base::start/#FORK#294_7fefec268bc File: ../env/s_agent/axi_base_s_seqs.sv Line: 103
# ** Warning: (vsim-3829) Non-existent associative array entry. Returning default value.
#    Time: 495 ns  Iteration: 8  Process: /uvm_pkg::uvm_sequence_base::start/#FORK#294_7fefec268bc File: ../env/s_agent/axi_base_s_seqs.sv Line: 103
# ** Warning: (vsim-3829) Non-existent associative array entry. Returning default value.
#    Time: 495 ns  Iteration: 8  Process: /uvm_pkg::uvm_sequence_base::start/#FORK#294_7fefec268bc File: ../env/s_agent/axi_base_s_seqs.sv Line: 103
# ** Warning: (vsim-3829) Non-existent associative array entry. Returning default value.
#    Time: 495 ns  Iteration: 8  Process: /uvm_pkg::uvm_sequence_base::start/#FORK#294_7fefec268bc File: ../env/s_agent/axi_base_s_seqs.sv Line: 103
# s seqs arid : 26459
# INIDE_SLAVE_SEQ_CTR=6
# match arid : 675b , rid : 675b
# UVM_INFO ../env/s_agent/axi_s_drv.sv(31) @ 495: uvm_test_top.env_h.s_uvc_h.s_agent_h[0].s_drv_h [ID MATCH] aaaaa
# rd data in s drv: 0 , len : 28 , last:1 , valid : 1
# burst in s mon : 2
# awid in s mon : 4e73 , awaddr : 2b1310c0
# INIDE_SLAVE_MON_CTR=49
# arid in s mon : 9563
#                  505wlast : 0
# WID: 48097 , AWID : 48097
# m mon ar id : 255b
# req kind : READ
# m mon rid : e93b
# UVM_INFO ../env/axi_sb.sv(67) @ 505: uvm_test_top.env_h.sb_h [after event in sb] aaaa
# UVM_INFO ../env/axi_sb.sv(65) @ 505: uvm_test_top.env_h.sb_h [before event in sb] aaaa
# rd data in s drv: 4542837f , len : 13 , last:0 , valid : 1
# INIDE_SLAVE_MON_CTR=50
# arid in s mon : 12754
# abc : 1
# ref model mem : 3009153800
# abc : 2
# ref model mem : 3009153802
# xyz : 1
# xyz : 2
# ** Warning: (vsim-3829) Non-existent associative array entry. Returning default value.
#    Time: 515 ns  Iteration: 2  Process: /axi_s_agent_pkg::axi_s_mon #(32, 32)::monitor/#FORK#34_7fefec26b8e File: ../env/axi_ref_model.sv Line: 90
# xyz : 3
# ** Warning: (vsim-3829) Non-existent associative array entry. Returning default value.
#    Time: 515 ns  Iteration: 2  Process: /axi_s_agent_pkg::axi_s_mon #(32, 32)::monitor/#FORK#34_7fefec26b8e File: ../env/axi_ref_model.sv Line: 90
# xyz : 4
# ** Warning: (vsim-3829) Non-existent associative array entry. Returning default value.
#    Time: 515 ns  Iteration: 2  Process: /axi_s_agent_pkg::axi_s_mon #(32, 32)::monitor/#FORK#34_7fefec26b8e File: ../env/axi_ref_model.sv Line: 90
# xyz : 5
# ** Warning: (vsim-3829) Non-existent associative array entry. Returning default value.
#    Time: 515 ns  Iteration: 2  Process: /axi_s_agent_pkg::axi_s_mon #(32, 32)::monitor/#FORK#34_7fefec26b8e File: ../env/axi_ref_model.sv Line: 90
# xyz : 6
# ** Warning: (vsim-3829) Non-existent associative array entry. Returning default value.
#    Time: 515 ns  Iteration: 2  Process: /axi_s_agent_pkg::axi_s_mon #(32, 32)::monitor/#FORK#34_7fefec26b8e File: ../env/axi_ref_model.sv Line: 90
# xyz : 7
# ** Warning: (vsim-3829) Non-existent associative array entry. Returning default value.
#    Time: 515 ns  Iteration: 2  Process: /axi_s_agent_pkg::axi_s_mon #(32, 32)::monitor/#FORK#34_7fefec26b8e File: ../env/axi_ref_model.sv Line: 90
# xyz : 8
#                  515wlast : 1
# AFFTER W CHANNEL
# WID: 48149 , AWID : 48149
# m mon rid : e9d3
# m mon ar id : 31d2
# req kind_e : WRITE
# UVM_INFO ../env/m_agent/axi_base_m_seqs.sv(26) @ 515: uvm_test_top.env_h.m_uvc_h.m_agent_h[0].m_seqr_h@@vseqs_h.m_wseqs_h [IN V SEQS] Got B-channel response from driver
# match arid : 0 , rid : 0
# UVM_INFO ../env/s_agent/axi_s_drv.sv(31) @ 515: uvm_test_top.env_h.s_uvc_h.s_agent_h[0].s_drv_h [ID MATCH] aaaaa
# ** Warning: (vsim-3829) Non-existent associative array entry. Returning default value.
#    Time: 515 ns  Iteration: 8  Process: /uvm_pkg::uvm_sequence_base::start/#FORK#294_7fefec268bc File: ../env/s_agent/axi_base_s_seqs.sv Line: 117
# ** Warning: (vsim-3829) Non-existent associative array entry. Returning default value.
#    Time: 515 ns  Iteration: 8  Process: /uvm_pkg::uvm_sequence_base::start/#FORK#294_7fefec268bc File: ../env/s_agent/axi_base_s_seqs.sv Line: 117
# ** Warning: (vsim-3829) Non-existent associative array entry. Returning default value.
#    Time: 515 ns  Iteration: 8  Process: /uvm_pkg::uvm_sequence_base::start/#FORK#294_7fefec268bc File: ../env/s_agent/axi_base_s_seqs.sv Line: 117
# ** Warning: (vsim-3829) Non-existent associative array entry. Returning default value.
#    Time: 515 ns  Iteration: 8  Process: /uvm_pkg::uvm_sequence_base::start/#FORK#294_7fefec268bc File: ../env/s_agent/axi_base_s_seqs.sv Line: 117
# ** Warning: (vsim-3829) Non-existent associative array entry. Returning default value.
#    Time: 515 ns  Iteration: 8  Process: /uvm_pkg::uvm_sequence_base::start/#FORK#294_7fefec268bc File: ../env/s_agent/axi_base_s_seqs.sv Line: 117
# ** Warning: (vsim-3829) Non-existent associative array entry. Returning default value.
#    Time: 515 ns  Iteration: 8  Process: /uvm_pkg::uvm_sequence_base::start/#FORK#294_7fefec268bc File: ../env/s_agent/axi_base_s_seqs.sv Line: 117
# s seqs arid : 22357
# INIDE_SLAVE_SEQ_CTR=7
# match arid : 5755 , rid : 5755
# UVM_INFO ../env/s_agent/axi_s_drv.sv(31) @ 515: uvm_test_top.env_h.s_uvc_h.s_agent_h[0].s_drv_h [ID MATCH] aaaaa
# rd data in s drv: 0 , len : 13 , last:0 , valid : 1
#                  525wlast : 0
# WID: 48149 , AWID : 48149
# m mon rid : e9d3
# rd data in s drv: 3b27ee47 , len : 13 , last:0 , valid : 1
#                  535wlast : 0
# WID: 48149 , AWID : 48149
# m mon rid : e9d3
# UVM_INFO ../env/m_agent/axi_base_m_seqs.sv(26) @ 535: uvm_test_top.env_h.m_uvc_h.m_agent_h[0].m_seqr_h@@vseqs_h.m_wseqs_h [IN V SEQS] Got B-channel response from driver
# rd data in s drv: 0 , len : 13 , last:0 , valid : 1
#                  545wlast : 0
# WID: 48149 , AWID : 48149
# m mon rid : e9d3
# rd data in s drv: 549c6744 , len : 13 , last:0 , valid : 1
#                  555wlast : 0
# WID: 48149 , AWID : 48149
# m mon rid : e9d3
# rd data in s drv: 0 , len : 13 , last:0 , valid : 1
#                  565wlast : 0
# WID: 48149 , AWID : 48149
# m mon rid : e9d3
# rd data in s drv: 1bc5235 , len : 13 , last:0 , valid : 1
#                  575wlast : 0
# WID: 48149 , AWID : 48149
# m mon rid : e9d3
# rd data in s drv: 0 , len : 13 , last:0 , valid : 1
#                  585wlast : 0
# WID: 48149 , AWID : 48149
# m mon rid : e9d3
# rd data in s drv: 9970d9c9 , len : 13 , last:0 , valid : 1
#                  595wlast : 0
# WID: 48149 , AWID : 48149
# m mon rid : e9d3
# rd data in s drv: 0 , len : 13 , last:0 , valid : 1
#                  605wlast : 0
# WID: 48149 , AWID : 48149
# m mon rid : e9d3
# rd data in s drv: 97536c06 , len : 13 , last:0 , valid : 1
#                  615wlast : 0
# WID: 48149 , AWID : 48149
# m mon rid : e9d3
# rd data in s drv: 0 , len : 13 , last:0 , valid : 1
#                  625wlast : 0
# WID: 48149 , AWID : 48149
# m mon rid : e9d3
# rd data in s drv: 404873d8 , len : 13 , last:0 , valid : 1
#                  635wlast : 0
# WID: 48149 , AWID : 48149
# m mon rid : e9d3
# rd data in s drv: 0 , len : 13 , last:1 , valid : 1
#                  645wlast : 0
# WID: 48149 , AWID : 48149
# req kind : READ
# m mon rid : e9d3
# UVM_INFO ../env/axi_sb.sv(67) @ 645: uvm_test_top.env_h.sb_h [after event in sb] aaaa
# UVM_INFO ../env/axi_sb.sv(65) @ 645: uvm_test_top.env_h.sb_h [before event in sb] aaaa
# rd data in s drv: 7ef31ad8 , len : 6 , last:0 , valid : 1
#                  655wlast : 0
# WID: 48149 , AWID : 48149
# m mon rid : 28ba
# rd data in s drv: 400041b1 , len : 6 , last:0 , valid : 1
#                  665wlast : 0
# WID: 48149 , AWID : 48149
# m mon rid : 28ba
# rd data in s drv: 6f3347d9 , len : 6 , last:0 , valid : 1
#                  675wlast : 0
# WID: 48149 , AWID : 48149
# m mon rid : 28ba
# rd data in s drv: 761402a3 , len : 6 , last:0 , valid : 1
#                  685wlast : 0
# WID: 48149 , AWID : 48149
# m mon rid : 28ba
# rd data in s drv: c70ad1bf , len : 6 , last:0 , valid : 1
#                  695wlast : 0
# WID: 48149 , AWID : 48149
# m mon rid : 28ba
# rd data in s drv: bfddceeb , len : 6 , last:0 , valid : 1
#                  705wlast : 0
# WID: 48149 , AWID : 48149
# m mon rid : 28ba
# rd data in s drv: 855359f1 , len : 6 , last:1 , valid : 1
#                  715wlast : 0
# WID: 48149 , AWID : 48149
# req kind : READ
# m mon rid : 28ba
# UVM_INFO ../env/axi_sb.sv(67) @ 715: uvm_test_top.env_h.sb_h [after event in sb] aaaa
# UVM_INFO ../env/axi_sb.sv(65) @ 715: uvm_test_top.env_h.sb_h [before event in sb] aaaa
# rd data in s drv: 90e411e0 , len : 7 , last:0 , valid : 1
#                  725wlast : 0
# WID: 48149 , AWID : 48149
# m mon rid : f054
# rd data in s drv: 0 , len : 7 , last:0 , valid : 1
#                  735wlast : 0
# WID: 48149 , AWID : 48149
# m mon rid : f054
# rd data in s drv: 0 , len : 7 , last:0 , valid : 1
#                  745wlast : 0
# WID: 48149 , AWID : 48149
# m mon rid : f054
# rd data in s drv: 0 , len : 7 , last:0 , valid : 1
#                  755wlast : 0
# WID: 48149 , AWID : 48149
# m mon rid : f054
# rd data in s drv: 0 , len : 7 , last:0 , valid : 1
#                  765wlast : 0
# WID: 48149 , AWID : 48149
# m mon rid : f054
# rd data in s drv: 0 , len : 7 , last:0 , valid : 1
#                  775wlast : 0
# WID: 48149 , AWID : 48149
# m mon rid : f054
# rd data in s drv: 0 , len : 7 , last:0 , valid : 1
#                  785wlast : 0
# WID: 48149 , AWID : 48149
# m mon rid : f054
# rd data in s drv: 0 , len : 7 , last:1 , valid : 1
#                  795wlast : 0
# WID: 48149 , AWID : 48149
# req kind : READ
# m mon rid : f054
# UVM_INFO ../env/axi_sb.sv(67) @ 795: uvm_test_top.env_h.sb_h [after event in sb] aaaa
# UVM_INFO ../env/axi_sb.sv(65) @ 795: uvm_test_top.env_h.sb_h [before event in sb] aaaa
# rd data in s drv: e692a955 , len : 10 , last:0 , valid : 1
#                  805wlast : 0
# WID: 48149 , AWID : 48149
# m mon rid : 675b
# rd data in s drv: 5e5d6ae8 , len : 10 , last:0 , valid : 1
#                  815wlast : 0
# WID: 48149 , AWID : 48149
# m mon rid : 675b
# rd data in s drv: 0 , len : 10 , last:0 , valid : 1
#                  825wlast : 0
# WID: 48149 , AWID : 48149
# m mon rid : 675b
# rd data in s drv: 0 , len : 10 , last:0 , valid : 1
#                  835wlast : 0
# WID: 48149 , AWID : 48149
# m mon rid : 675b
# rd data in s drv: 0 , len : 10 , last:0 , valid : 1
#                  845wlast : 0
# WID: 48149 , AWID : 48149
# m mon rid : 675b
# rd data in s drv: 0 , len : 10 , last:0 , valid : 1
#                  855wlast : 0
# WID: 48149 , AWID : 48149
# m mon rid : 675b
# rd data in s drv: 0 , len : 10 , last:0 , valid : 1
#                  865wlast : 0
# WID: 48149 , AWID : 48149
# m mon rid : 675b
# rd data in s drv: 0 , len : 10 , last:0 , valid : 1
#                  875wlast : 0
# WID: 48149 , AWID : 48149
# m mon rid : 675b
# rd data in s drv: 0 , len : 10 , last:0 , valid : 1
#                  885wlast : 0
# WID: 48149 , AWID : 48149
# m mon rid : 675b
# rd data in s drv: 0 , len : 10 , last:0 , valid : 1
#                  895wlast : 0
# WID: 48149 , AWID : 48149
# m mon rid : 675b
# rd data in s drv: 0 , len : 10 , last:1 , valid : 1
#                  905wlast : 0
# WID: 48149 , AWID : 48149
# req kind : READ
# m mon rid : 675b
# UVM_INFO ../env/axi_sb.sv(67) @ 905: uvm_test_top.env_h.sb_h [after event in sb] aaaa
# UVM_INFO ../env/axi_sb.sv(65) @ 905: uvm_test_top.env_h.sb_h [before event in sb] aaaa
# rd data in s drv: 2b2d318 , len : 7 , last:0 , valid : 1
#                  915wlast : 0
# WID: 48149 , AWID : 48149
# m mon rid : 5755
# rd data in s drv: 372f0987 , len : 7 , last:0 , valid : 1
#                  925wlast : 0
# WID: 48149 , AWID : 48149
# m mon rid : 5755
# rd data in s drv: 0 , len : 7 , last:0 , valid : 1
#                  935wlast : 0
# WID: 48149 , AWID : 48149
# m mon rid : 5755
# rd data in s drv: 0 , len : 7 , last:0 , valid : 1
#                  945wlast : 0
# WID: 48149 , AWID : 48149
# m mon rid : 5755
# rd data in s drv: 0 , len : 7 , last:0 , valid : 1
#                  955wlast : 0
# WID: 48149 , AWID : 48149
# m mon rid : 5755
# rd data in s drv: 0 , len : 7 , last:0 , valid : 1
#                  965wlast : 0
# WID: 48149 , AWID : 48149
# m mon rid : 5755
# rd data in s drv: 0 , len : 7 , last:0 , valid : 1
#                  975wlast : 0
# WID: 48149 , AWID : 48149
# m mon rid : 5755
# rd data in s drv: 0 , len : 7 , last:1 , valid : 1
#                  985wlast : 0
# WID: 48149 , AWID : 48149
# req kind : READ
# m mon rid : 5755
# UVM_INFO ../env/axi_sb.sv(67) @ 985: uvm_test_top.env_h.sb_h [after event in sb] aaaa
# UVM_INFO ../env/axi_sb.sv(65) @ 985: uvm_test_top.env_h.sb_h [before event in sb] aaaa
#                  995wlast : 0
# WID: 48149 , AWID : 48149
#                 1005wlast : 0
# WID: 48149 , AWID : 48149
#                 1015wlast : 0
# WID: 48149 , AWID : 48149
#                 1025wlast : 0
# WID: 48149 , AWID : 48149
#                 1035wlast : 0
# WID: 48149 , AWID : 48149
#                 1045wlast : 0
# WID: 48149 , AWID : 48149
#                 1055wlast : 0
# WID: 48149 , AWID : 48149
#                 1065wlast : 0
# WID: 48149 , AWID : 48149
#                 1075wlast : 0
# WID: 48149 , AWID : 48149
#                 1085wlast : 0
# WID: 48149 , AWID : 48149
#                 1095wlast : 0
# WID: 48149 , AWID : 48149
#                 1105wlast : 0
# WID: 48149 , AWID : 48149
#                 1115wlast : 0
# WID: 48149 , AWID : 48149
#                 1125wlast : 0
# WID: 48149 , AWID : 48149
#                 1135wlast : 0
# WID: 48149 , AWID : 48149
#                 1145wlast : 0
# WID: 48149 , AWID : 48149
#                 1155wlast : 0
# WID: 48149 , AWID : 48149
#                 1165wlast : 0
# WID: 48149 , AWID : 48149
#                 1175wlast : 0
# WID: 48149 , AWID : 48149
#                 1185wlast : 0
# WID: 48149 , AWID : 48149
#                 1195wlast : 0
# WID: 48149 , AWID : 48149
#                 1205wlast : 0
# WID: 48149 , AWID : 48149
#                 1215wlast : 0
# WID: 48149 , AWID : 48149
#                 1225wlast : 0
# WID: 48149 , AWID : 48149
#                 1235wlast : 0
# WID: 48149 , AWID : 48149
#                 1245wlast : 0
# WID: 48149 , AWID : 48149
#                 1255wlast : 0
# WID: 48149 , AWID : 48149
#                 1265wlast : 0
# WID: 48149 , AWID : 48149
#                 1275wlast : 0
# WID: 48149 , AWID : 48149
#                 1285wlast : 0
# WID: 48149 , AWID : 48149
#                 1295wlast : 0
# WID: 48149 , AWID : 48149
#                 1305wlast : 0
# WID: 48149 , AWID : 48149
#                 1315wlast : 0
# WID: 48149 , AWID : 48149
#                 1325wlast : 0
# WID: 48149 , AWID : 48149
#                 1335wlast : 0
# WID: 48149 , AWID : 48149
#                 1345wlast : 0
# WID: 48149 , AWID : 48149
#                 1355wlast : 0
# WID: 48149 , AWID : 48149
#                 1365wlast : 0
# WID: 48149 , AWID : 48149
#                 1375wlast : 0
# WID: 48149 , AWID : 48149
#                 1385wlast : 0
# WID: 48149 , AWID : 48149
#                 1395wlast : 0
# WID: 48149 , AWID : 48149
#                 1405wlast : 0
# WID: 48149 , AWID : 48149
#                 1415wlast : 0
# WID: 48149 , AWID : 48149
#                 1425wlast : 0
# WID: 48149 , AWID : 48149
#                 1435wlast : 0
# WID: 48149 , AWID : 48149
#                 1445wlast : 0
# WID: 48149 , AWID : 48149
#                 1455wlast : 0
# WID: 48149 , AWID : 48149
#                 1465wlast : 0
# WID: 48149 , AWID : 48149
#                 1475wlast : 0
# WID: 48149 , AWID : 48149
#                 1485wlast : 0
# WID: 48149 , AWID : 48149
#                 1495wlast : 0
# WID: 48149 , AWID : 48149
#                 1505wlast : 0
# WID: 48149 , AWID : 48149
#                 1515wlast : 0
# WID: 48149 , AWID : 48149
#                 1525wlast : 0
# WID: 48149 , AWID : 48149
#                 1535wlast : 0
# WID: 48149 , AWID : 48149
#                 1545wlast : 0
# WID: 48149 , AWID : 48149
#                 1555wlast : 0
# WID: 48149 , AWID : 48149
#                 1565wlast : 0
# WID: 48149 , AWID : 48149
#                 1575wlast : 0
# WID: 48149 , AWID : 48149
#                 1585wlast : 0
# WID: 48149 , AWID : 48149
#                 1595wlast : 0
# WID: 48149 , AWID : 48149
#                 1605wlast : 0
# WID: 48149 , AWID : 48149
#                 1615wlast : 0
# WID: 48149 , AWID : 48149
#                 1625wlast : 0
# WID: 48149 , AWID : 48149
#                 1635wlast : 0
# WID: 48149 , AWID : 48149
#                 1645wlast : 0
# WID: 48149 , AWID : 48149
#                 1655wlast : 0
# WID: 48149 , AWID : 48149
#                 1665wlast : 0
# WID: 48149 , AWID : 48149
#                 1675wlast : 0
# WID: 48149 , AWID : 48149
#                 1685wlast : 0
# WID: 48149 , AWID : 48149
#                 1695wlast : 0
# WID: 48149 , AWID : 48149
#                 1705wlast : 0
# WID: 48149 , AWID : 48149
#                 1715wlast : 0
# WID: 48149 , AWID : 48149
#                 1725wlast : 0
# WID: 48149 , AWID : 48149
#                 1735wlast : 0
# WID: 48149 , AWID : 48149
#                 1745wlast : 0
# WID: 48149 , AWID : 48149
#                 1755wlast : 0
# WID: 48149 , AWID : 48149
#                 1765wlast : 0
# WID: 48149 , AWID : 48149
#                 1775wlast : 0
# WID: 48149 , AWID : 48149
#                 1785wlast : 0
# WID: 48149 , AWID : 48149
#                 1795wlast : 0
# WID: 48149 , AWID : 48149
#                 1805wlast : 0
# WID: 48149 , AWID : 48149
#                 1815wlast : 0
# WID: 48149 , AWID : 48149
#                 1825wlast : 0
# WID: 48149 , AWID : 48149
#                 1835wlast : 0
# WID: 48149 , AWID : 48149
#                 1845wlast : 0
# WID: 48149 , AWID : 48149
#                 1855wlast : 0
# WID: 48149 , AWID : 48149
#                 1865wlast : 0
# WID: 48149 , AWID : 48149
#                 1875wlast : 0
# WID: 48149 , AWID : 48149
#                 1885wlast : 0
# WID: 48149 , AWID : 48149
#                 1895wlast : 0
# WID: 48149 , AWID : 48149
#                 1905wlast : 0
# WID: 48149 , AWID : 48149
#                 1915wlast : 0
# WID: 48149 , AWID : 48149
#                 1925wlast : 0
# WID: 48149 , AWID : 48149
#                 1935wlast : 0
# WID: 48149 , AWID : 48149
#                 1945wlast : 0
# WID: 48149 , AWID : 48149
#                 1955wlast : 0
# WID: 48149 , AWID : 48149
#                 1965wlast : 0
# WID: 48149 , AWID : 48149
#                 1975wlast : 0
# WID: 48149 , AWID : 48149
#                 1985wlast : 0
# WID: 48149 , AWID : 48149
#                 1995wlast : 0
# WID: 48149 , AWID : 48149
#                 2005wlast : 0
# WID: 48149 , AWID : 48149
#                 2015wlast : 0
# WID: 48149 , AWID : 48149
#                 2025wlast : 0
# WID: 48149 , AWID : 48149
#                 2035wlast : 0
# WID: 48149 , AWID : 48149
#                 2045wlast : 0
# WID: 48149 , AWID : 48149
#                 2055wlast : 0
# WID: 48149 , AWID : 48149
#                 2065wlast : 0
# WID: 48149 , AWID : 48149
#                 2075wlast : 0
# WID: 48149 , AWID : 48149
#                 2085wlast : 0
# WID: 48149 , AWID : 48149
#                 2095wlast : 0
# WID: 48149 , AWID : 48149
#                 2105wlast : 0
# WID: 48149 , AWID : 48149
# abc : 1
# ref model mem : 2302375736
# abc : 2
# ref model mem : 2302375737
# abc : 3
# ref model mem : 2302375738
# abc : 4
# ref model mem : 2302375739
# abc : 5
# ref model mem : 2302375740
# abc : 6
# ref model mem : 2302375741
# abc : 7
# ref model mem : 2302375742
# abc : 8
# ref model mem : 2302375743
# abc : 9
# ref model mem : 2302375744
# abc : 10
# ref model mem : 2302375745
# abc : 11
# ref model mem : 2302375746
# abc : 12
# ref model mem : 2302375747
# abc : 13
# ref model mem : 2302375748
# abc : 14
# ref model mem : 2302375749
# abc : 15
# ref model mem : 2302375750
# abc : 16
# ref model mem : 2302375751
# abc : 17
# ref model mem : 2302375752
# abc : 18
# ref model mem : 2302375753
# abc : 19
# ref model mem : 2302375754
# abc : 20
# ref model mem : 2302375755
# abc : 21
# ref model mem : 2302375756
# abc : 22
# ref model mem : 2302375757
# abc : 23
# ref model mem : 2302375758
# abc : 24
# ref model mem : 2302375759
# abc : 25
# ref model mem : 2302375760
# abc : 26
# ref model mem : 2302375761
# abc : 27
# ref model mem : 2302375762
# abc : 28
# ref model mem : 2302375763
# abc : 29
# ref model mem : 2302375764
# abc : 30
# ref model mem : 2302375765
# abc : 31
# ref model mem : 2302375766
# abc : 32
# ref model mem : 2302375767
# abc : 33
# ref model mem : 2302375768
# abc : 34
# ref model mem : 2302375769
# abc : 35
# ref model mem : 2302375770
# abc : 36
# ref model mem : 2302375771
# abc : 37
# ref model mem : 2302375772
# abc : 38
# ref model mem : 2302375773
# abc : 39
# ref model mem : 2302375774
# abc : 40
# ref model mem : 2302375775
# abc : 41
# ref model mem : 2302375776
# abc : 42
# ref model mem : 2302375777
# abc : 43
# ref model mem : 2302375778
# abc : 44
# ref model mem : 2302375779
# abc : 45
# ref model mem : 2302375780
# abc : 46
# ref model mem : 2302375781
# abc : 47
# ref model mem : 2302375782
# abc : 48
# ref model mem : 2302375783
# abc : 49
# ref model mem : 2302375784
# abc : 50
# ref model mem : 2302375785
# abc : 51
# ref model mem : 2302375786
# abc : 52
# ref model mem : 2302375787
# abc : 53
# ref model mem : 2302375788
# abc : 54
# ref model mem : 2302375789
# abc : 55
# ref model mem : 2302375790
# abc : 56
# ref model mem : 2302375791
# abc : 57
# ref model mem : 2302375792
# abc : 58
# ref model mem : 2302375793
# abc : 59
# ref model mem : 2302375794
# abc : 60
# ref model mem : 2302375795
# abc : 61
# ref model mem : 2302375796
# abc : 62
# ref model mem : 2302375797
# abc : 63
# ref model mem : 2302375798
# abc : 64
# ref model mem : 2302375799
# abc : 65
# ref model mem : 2302375800
# abc : 66
# ref model mem : 2302375801
# abc : 67
# ref model mem : 2302375802
# abc : 68
# ref model mem : 2302375803
# abc : 69
# ref model mem : 2302375804
# abc : 70
# ref model mem : 2302375805
# abc : 71
# ref model mem : 2302375806
# abc : 72
# ref model mem : 2302375807
# abc : 73
# ref model mem : 2302375808
# abc : 74
# ref model mem : 2302375809
# abc : 75
# ref model mem : 2302375810
# abc : 76
# ref model mem : 2302375811
# abc : 77
# ref model mem : 2302375812
# abc : 78
# ref model mem : 2302375813
# abc : 79
# ref model mem : 2302375814
# abc : 80
# ref model mem : 2302375815
# abc : 81
# ref model mem : 2302375816
# abc : 82
# ref model mem : 2302375817
# abc : 83
# ref model mem : 2302375818
# abc : 84
# ref model mem : 2302375819
# abc : 85
# ref model mem : 2302375820
# abc : 86
# ref model mem : 2302375821
# abc : 87
# ref model mem : 2302375822
# abc : 88
# ref model mem : 2302375823
# abc : 89
# ref model mem : 2302375824
# abc : 90
# ref model mem : 2302375825
# abc : 91
# ref model mem : 2302375826
# abc : 92
# ref model mem : 2302375827
# abc : 93
# ref model mem : 2302375828
# abc : 94
# ref model mem : 2302375829
# abc : 95
# ref model mem : 2302375830
# abc : 96
# ref model mem : 2302375831
# abc : 97
# ref model mem : 2302375832
# abc : 98
# ref model mem : 2302375833
# abc : 99
# ref model mem : 2302375834
# abc : 100
# ref model mem : 2302375835
# abc : 101
# ref model mem : 2302375836
# abc : 102
# ref model mem : 2302375837
# abc : 103
# ref model mem : 2302375838
# abc : 104
# ref model mem : 2302375839
# abc : 105
# ref model mem : 2302375840
# abc : 106
# ref model mem : 2302375841
# abc : 107
# ref model mem : 2302375842
# abc : 108
# ref model mem : 2302375843
# abc : 109
# ref model mem : 2302375844
# abc : 110
# ref model mem : 2302375845
# abc : 111
# ref model mem : 2302375846
# abc : 112
# ref model mem : 2302375847
# abc : 113
# ref model mem : 2302375848
# abc : 114
# ref model mem : 2302375849
# abc : 115
# ref model mem : 2302375850
# abc : 116
# ref model mem : 2302375851
# abc : 117
# ref model mem : 2302375852
# abc : 118
# ref model mem : 2302375853
# abc : 119
# ref model mem : 2302375854
# abc : 120
# ref model mem : 2302375855
# abc : 121
# ref model mem : 2302375856
# abc : 122
# ref model mem : 2302375857
# abc : 123
# ref model mem : 2302375858
# abc : 124
# ref model mem : 2302375859
# abc : 125
# ref model mem : 2302375860
# abc : 126
# ref model mem : 2302375861
# abc : 127
# ref model mem : 2302375862
# abc : 128
# ref model mem : 2302375863
# abc : 129
# ref model mem : 2302375864
# abc : 130
# ref model mem : 2302375865
# abc : 131
# ref model mem : 2302375866
# abc : 132
# ref model mem : 2302375867
# abc : 133
# ref model mem : 2302375868
# abc : 134
# ref model mem : 2302375869
# abc : 135
# ref model mem : 2302375870
# abc : 136
# ref model mem : 2302375871
# abc : 137
# ref model mem : 2302375872
# abc : 138
# ref model mem : 2302375873
# abc : 139
# ref model mem : 2302375874
# abc : 140
# ref model mem : 2302375875
# abc : 141
# ref model mem : 2302375876
# abc : 142
# ref model mem : 2302375877
# abc : 143
# ref model mem : 2302375878
# abc : 144
# ref model mem : 2302375879
# abc : 145
# ref model mem : 2302375880
# abc : 146
# ref model mem : 2302375881
# abc : 147
# ref model mem : 2302375882
# abc : 148
# ref model mem : 2302375883
# abc : 149
# ref model mem : 2302375884
# abc : 150
# ref model mem : 2302375885
# abc : 151
# ref model mem : 2302375886
# abc : 152
# ref model mem : 2302375887
# abc : 153
# ref model mem : 2302375888
# abc : 154
# ref model mem : 2302375889
# abc : 155
# ref model mem : 2302375890
# abc : 156
# ref model mem : 2302375891
# abc : 157
# ref model mem : 2302375892
# abc : 158
# ref model mem : 2302375893
# abc : 159
# ref model mem : 2302375894
# abc : 160
# ref model mem : 2302375895
# xyz : 1
# xyz : 2
# xyz : 3
# xyz : 4
# xyz : 5
# xyz : 6
# xyz : 7
# xyz : 8
# xyz : 9
# xyz : 10
# xyz : 11
# xyz : 12
# xyz : 13
# xyz : 14
# xyz : 15
# xyz : 16
# xyz : 17
# xyz : 18
# xyz : 19
# xyz : 20
# xyz : 21
# xyz : 22
# xyz : 23
# xyz : 24
# xyz : 25
# xyz : 26
# xyz : 27
# xyz : 28
# xyz : 29
# xyz : 30
# xyz : 31
# xyz : 32
# xyz : 33
# xyz : 34
# xyz : 35
# xyz : 36
# xyz : 37
# xyz : 38
# xyz : 39
# xyz : 40
# ** Warning: (vsim-3829) Non-existent associative array entry. Returning default value.
#    Time: 2115 ns  Iteration: 2  Process: /axi_s_agent_pkg::axi_s_mon #(32, 32)::monitor/#FORK#34_7fefec26b8e File: ../env/axi_ref_model.sv Line: 83
# xyz : 41
# ** Warning: (vsim-3829) Non-existent associative array entry. Returning default value.
#    Time: 2115 ns  Iteration: 2  Process: /axi_s_agent_pkg::axi_s_mon #(32, 32)::monitor/#FORK#34_7fefec26b8e File: ../env/axi_ref_model.sv Line: 83
# xyz : 42
#                 2115wlast : 1
# AFFTER W CHANNEL
# WID: 23496 , AWID : 23496
# req kind_e : WRITE
# match arid : 0 , rid : 0
# UVM_INFO ../env/s_agent/axi_s_drv.sv(31) @ 2115: uvm_test_top.env_h.s_uvc_h.s_agent_h[0].s_drv_h [ID MATCH] aaaaa
# ** Warning: (vsim-3829) Non-existent associative array entry. Returning default value.
#    Time: 2115 ns  Iteration: 8  Process: /uvm_pkg::uvm_sequence_base::start/#FORK#294_7fefec268bc File: ../env/s_agent/axi_base_s_seqs.sv Line: 108
# ** Warning: (vsim-3829) Non-existent associative array entry. Returning default value.
#    Time: 2115 ns  Iteration: 8  Process: /uvm_pkg::uvm_sequence_base::start/#FORK#294_7fefec268bc File: ../env/s_agent/axi_base_s_seqs.sv Line: 108
# s seqs arid : 58966
# INIDE_SLAVE_SEQ_CTR=8
# match arid : e656 , rid : e656
# UVM_INFO ../env/s_agent/axi_s_drv.sv(31) @ 2115: uvm_test_top.env_h.s_uvc_h.s_agent_h[0].s_drv_h [ID MATCH] aaaaa
# rd data in s drv: d7000000 , len : 41 , last:0 , valid : 1
#                 2125wlast : 0
# WID: 23496 , AWID : 23496
# m mon rid : e656
# rd data in s drv: ed58a3a5 , len : 41 , last:0 , valid : 1
#                 2135wlast : 0
# WID: 23496 , AWID : 23496
# m mon rid : e656
# UVM_INFO ../env/m_agent/axi_base_m_seqs.sv(26) @ 2135: uvm_test_top.env_h.m_uvc_h.m_agent_h[0].m_seqr_h@@vseqs_h.m_wseqs_h [IN V SEQS] Got B-channel response from driver
# rd data in s drv: dd947ef8 , len : 41 , last:0 , valid : 1
#                 2145wlast : 0
# WID: 23496 , AWID : 23496
# m mon rid : e656
# rd data in s drv: 878b1739 , len : 41 , last:0 , valid : 1
#                 2155wlast : 0
# WID: 23496 , AWID : 23496
# m mon rid : e656
# rd data in s drv: 3e633c55 , len : 41 , last:0 , valid : 1
#                 2165wlast : 0
# WID: 23496 , AWID : 23496
# m mon rid : e656
# rd data in s drv: f77fc17 , len : 41 , last:0 , valid : 1
#                 2175wlast : 0
# WID: 23496 , AWID : 23496
# m mon rid : e656
# rd data in s drv: 42df9a0c , len : 41 , last:0 , valid : 1
#                 2185wlast : 0
# WID: 23496 , AWID : 23496
# m mon rid : e656
# rd data in s drv: f9f1b8b7 , len : 41 , last:0 , valid : 1
#                 2195wlast : 0
# WID: 23496 , AWID : 23496
# m mon rid : e656
# rd data in s drv: 28bbb617 , len : 41 , last:0 , valid : 1
#                 2205wlast : 0
# WID: 23496 , AWID : 23496
# m mon rid : e656
# rd data in s drv: 668784d0 , len : 41 , last:0 , valid : 1
#                 2215wlast : 0
# WID: 23496 , AWID : 23496
# m mon rid : e656
# rd data in s drv: 213a649c , len : 41 , last:0 , valid : 1
#                 2225wlast : 0
# WID: 23496 , AWID : 23496
# m mon rid : e656
# rd data in s drv: 393ba8bc , len : 41 , last:0 , valid : 1
#                 2235wlast : 0
# WID: 23496 , AWID : 23496
# m mon rid : e656
# rd data in s drv: aaa7b331 , len : 41 , last:0 , valid : 1
#                 2245wlast : 0
# WID: 23496 , AWID : 23496
# m mon rid : e656
# rd data in s drv: b27edb7b , len : 41 , last:0 , valid : 1
#                 2255wlast : 0
# WID: 23496 , AWID : 23496
# m mon rid : e656
# rd data in s drv: 3096d8e4 , len : 41 , last:0 , valid : 1
#                 2265wlast : 0
# WID: 23496 , AWID : 23496
# m mon rid : e656
# rd data in s drv: b1024fed , len : 41 , last:0 , valid : 1
#                 2275wlast : 0
# WID: 23496 , AWID : 23496
# m mon rid : e656
# rd data in s drv: 878b0950 , len : 41 , last:0 , valid : 1
#                 2285wlast : 0
# WID: 23496 , AWID : 23496
# m mon rid : e656
# rd data in s drv: 64446772 , len : 41 , last:0 , valid : 1
#                 2295wlast : 0
# WID: 23496 , AWID : 23496
# m mon rid : e656
# rd data in s drv: 3c2074b9 , len : 41 , last:0 , valid : 1
#                 2305wlast : 0
# WID: 23496 , AWID : 23496
# m mon rid : e656
# rd data in s drv: 57c530e5 , len : 41 , last:0 , valid : 1
#                 2315wlast : 0
# WID: 23496 , AWID : 23496
# m mon rid : e656
# rd data in s drv: 5066b82e , len : 41 , last:0 , valid : 1
#                 2325wlast : 0
# WID: 23496 , AWID : 23496
# m mon rid : e656
# rd data in s drv: 438c1c66 , len : 41 , last:0 , valid : 1
#                 2335wlast : 0
# WID: 23496 , AWID : 23496
# m mon rid : e656
# rd data in s drv: a4ad7c52 , len : 41 , last:0 , valid : 1
#                 2345wlast : 0
# WID: 23496 , AWID : 23496
# m mon rid : e656
# rd data in s drv: 71eb8d85 , len : 41 , last:0 , valid : 1
#                 2355wlast : 0
# WID: 23496 , AWID : 23496
# m mon rid : e656
# rd data in s drv: 8d49727a , len : 41 , last:0 , valid : 1
#                 2365wlast : 0
# WID: 23496 , AWID : 23496
# m mon rid : e656
# rd data in s drv: c3b93e3a , len : 41 , last:0 , valid : 1
#                 2375wlast : 0
# WID: 23496 , AWID : 23496
# m mon rid : e656
# rd data in s drv: a611f975 , len : 41 , last:0 , valid : 1
#                 2385wlast : 0
# WID: 23496 , AWID : 23496
# m mon rid : e656
# rd data in s drv: f2ac480a , len : 41 , last:0 , valid : 1
#                 2395wlast : 0
# WID: 23496 , AWID : 23496
# m mon rid : e656
# rd data in s drv: d45c6357 , len : 41 , last:0 , valid : 1
#                 2405wlast : 0
# WID: 23496 , AWID : 23496
# m mon rid : e656
# rd data in s drv: 7719ba78 , len : 41 , last:0 , valid : 1
#                 2415wlast : 0
# WID: 23496 , AWID : 23496
# m mon rid : e656
# rd data in s drv: b33adf8a , len : 41 , last:0 , valid : 1
#                 2425wlast : 0
# WID: 23496 , AWID : 23496
# m mon rid : e656
# rd data in s drv: b89a11b3 , len : 41 , last:0 , valid : 1
#                 2435wlast : 0
# WID: 23496 , AWID : 23496
# m mon rid : e656
# rd data in s drv: 86999d6d , len : 41 , last:0 , valid : 1
#                 2445wlast : 0
# WID: 23496 , AWID : 23496
# m mon rid : e656
# rd data in s drv: d59a20f6 , len : 41 , last:0 , valid : 1
#                 2455wlast : 0
# WID: 23496 , AWID : 23496
# m mon rid : e656
# rd data in s drv: 92557b95 , len : 41 , last:0 , valid : 1
#                 2465wlast : 0
# WID: 23496 , AWID : 23496
# m mon rid : e656
# rd data in s drv: b5cfd3f9 , len : 41 , last:0 , valid : 1
#                 2475wlast : 0
# WID: 23496 , AWID : 23496
# m mon rid : e656
# rd data in s drv: e47a5e99 , len : 41 , last:0 , valid : 1
#                 2485wlast : 0
# WID: 23496 , AWID : 23496
# m mon rid : e656
# rd data in s drv: 423f63fa , len : 41 , last:0 , valid : 1
#                 2495wlast : 0
# WID: 23496 , AWID : 23496
# m mon rid : e656
# rd data in s drv: 7858a1d2 , len : 41 , last:0 , valid : 1
#                 2505wlast : 0
# WID: 23496 , AWID : 23496
# m mon rid : e656
# rd data in s drv: 20e822e , len : 41 , last:0 , valid : 1
#                 2515wlast : 0
# WID: 23496 , AWID : 23496
# m mon rid : e656
# rd data in s drv: 0 , len : 41 , last:0 , valid : 1
#                 2525wlast : 0
# WID: 23496 , AWID : 23496
# m mon rid : e656
# rd data in s drv: 0 , len : 41 , last:1 , valid : 1
#                 2535wlast : 0
# WID: 23496 , AWID : 23496
# req kind : READ
# m mon rid : e656
# UVM_INFO ../env/axi_sb.sv(67) @ 2535: uvm_test_top.env_h.sb_h [after event in sb] aaaa
# UVM_INFO ../env/axi_sb.sv(65) @ 2535: uvm_test_top.env_h.sb_h [before event in sb] aaaa
#                 2545wlast : 0
# WID: 23496 , AWID : 23496
#                 2555wlast : 0
# WID: 23496 , AWID : 23496
#                 2565wlast : 0
# WID: 23496 , AWID : 23496
#                 2575wlast : 0
# WID: 23496 , AWID : 23496
#                 2585wlast : 0
# WID: 23496 , AWID : 23496
#                 2595wlast : 0
# WID: 23496 , AWID : 23496
#                 2605wlast : 0
# WID: 23496 , AWID : 23496
#                 2615wlast : 0
# WID: 23496 , AWID : 23496
#                 2625wlast : 0
# WID: 23496 , AWID : 23496
#                 2635wlast : 0
# WID: 23496 , AWID : 23496
#                 2645wlast : 0
# WID: 23496 , AWID : 23496
#                 2655wlast : 0
# WID: 23496 , AWID : 23496
#                 2665wlast : 0
# WID: 23496 , AWID : 23496
#                 2675wlast : 0
# WID: 23496 , AWID : 23496
#                 2685wlast : 0
# WID: 23496 , AWID : 23496
#                 2695wlast : 0
# WID: 23496 , AWID : 23496
#                 2705wlast : 0
# WID: 23496 , AWID : 23496
#                 2715wlast : 0
# WID: 23496 , AWID : 23496
#                 2725wlast : 0
# WID: 23496 , AWID : 23496
#                 2735wlast : 0
# WID: 23496 , AWID : 23496
#                 2745wlast : 0
# WID: 23496 , AWID : 23496
#                 2755wlast : 0
# WID: 23496 , AWID : 23496
#                 2765wlast : 0
# WID: 23496 , AWID : 23496
#                 2775wlast : 0
# WID: 23496 , AWID : 23496
#                 2785wlast : 0
# WID: 23496 , AWID : 23496
#                 2795wlast : 0
# WID: 23496 , AWID : 23496
#                 2805wlast : 0
# WID: 23496 , AWID : 23496
#                 2815wlast : 0
# WID: 23496 , AWID : 23496
#                 2825wlast : 0
# WID: 23496 , AWID : 23496
#                 2835wlast : 0
# WID: 23496 , AWID : 23496
#                 2845wlast : 0
# WID: 23496 , AWID : 23496
#                 2855wlast : 0
# WID: 23496 , AWID : 23496
#                 2865wlast : 0
# WID: 23496 , AWID : 23496
#                 2875wlast : 0
# WID: 23496 , AWID : 23496
#                 2885wlast : 0
# WID: 23496 , AWID : 23496
#                 2895wlast : 0
# WID: 23496 , AWID : 23496
#                 2905wlast : 0
# WID: 23496 , AWID : 23496
#                 2915wlast : 0
# WID: 23496 , AWID : 23496
#                 2925wlast : 0
# WID: 23496 , AWID : 23496
#                 2935wlast : 0
# WID: 23496 , AWID : 23496
#                 2945wlast : 0
# WID: 23496 , AWID : 23496
#                 2955wlast : 0
# WID: 23496 , AWID : 23496
#                 2965wlast : 0
# WID: 23496 , AWID : 23496
#                 2975wlast : 0
# WID: 23496 , AWID : 23496
#                 2985wlast : 0
# WID: 23496 , AWID : 23496
#                 2995wlast : 0
# WID: 23496 , AWID : 23496
#                 3005wlast : 0
# WID: 23496 , AWID : 23496
#                 3015wlast : 0
# WID: 23496 , AWID : 23496
#                 3025wlast : 0
# WID: 23496 , AWID : 23496
#                 3035wlast : 0
# WID: 23496 , AWID : 23496
#                 3045wlast : 0
# WID: 23496 , AWID : 23496
#                 3055wlast : 0
# WID: 23496 , AWID : 23496
#                 3065wlast : 0
# WID: 23496 , AWID : 23496
#                 3075wlast : 0
# WID: 23496 , AWID : 23496
#                 3085wlast : 0
# WID: 23496 , AWID : 23496
#                 3095wlast : 0
# WID: 23496 , AWID : 23496
#                 3105wlast : 0
# WID: 23496 , AWID : 23496
#                 3115wlast : 0
# WID: 23496 , AWID : 23496
#                 3125wlast : 0
# WID: 23496 , AWID : 23496
#                 3135wlast : 0
# WID: 23496 , AWID : 23496
#                 3145wlast : 0
# WID: 23496 , AWID : 23496
#                 3155wlast : 0
# WID: 23496 , AWID : 23496
#                 3165wlast : 0
# WID: 23496 , AWID : 23496
#                 3175wlast : 0
# WID: 23496 , AWID : 23496
#                 3185wlast : 0
# WID: 23496 , AWID : 23496
#                 3195wlast : 0
# WID: 23496 , AWID : 23496
#                 3205wlast : 0
# WID: 23496 , AWID : 23496
#                 3215wlast : 0
# WID: 23496 , AWID : 23496
#                 3225wlast : 0
# WID: 23496 , AWID : 23496
#                 3235wlast : 0
# WID: 23496 , AWID : 23496
#                 3245wlast : 0
# WID: 23496 , AWID : 23496
#                 3255wlast : 0
# WID: 23496 , AWID : 23496
#                 3265wlast : 0
# WID: 23496 , AWID : 23496
#                 3275wlast : 0
# WID: 23496 , AWID : 23496
#                 3285wlast : 0
# WID: 23496 , AWID : 23496
#                 3295wlast : 0
# WID: 23496 , AWID : 23496
#                 3305wlast : 0
# WID: 23496 , AWID : 23496
#                 3315wlast : 0
# WID: 23496 , AWID : 23496
#                 3325wlast : 0
# WID: 23496 , AWID : 23496
#                 3335wlast : 0
# WID: 23496 , AWID : 23496
#                 3345wlast : 0
# WID: 23496 , AWID : 23496
#                 3355wlast : 0
# WID: 23496 , AWID : 23496
#                 3365wlast : 0
# WID: 23496 , AWID : 23496
#                 3375wlast : 0
# WID: 23496 , AWID : 23496
#                 3385wlast : 0
# WID: 23496 , AWID : 23496
#                 3395wlast : 0
# WID: 23496 , AWID : 23496
#                 3405wlast : 0
# WID: 23496 , AWID : 23496
#                 3415wlast : 0
# WID: 23496 , AWID : 23496
#                 3425wlast : 0
# WID: 23496 , AWID : 23496
#                 3435wlast : 0
# WID: 23496 , AWID : 23496
#                 3445wlast : 0
# WID: 23496 , AWID : 23496
#                 3455wlast : 0
# WID: 23496 , AWID : 23496
#                 3465wlast : 0
# WID: 23496 , AWID : 23496
#                 3475wlast : 0
# WID: 23496 , AWID : 23496
#                 3485wlast : 0
# WID: 23496 , AWID : 23496
#                 3495wlast : 0
# WID: 23496 , AWID : 23496
#                 3505wlast : 0
# WID: 23496 , AWID : 23496
#                 3515wlast : 0
# WID: 23496 , AWID : 23496
#                 3525wlast : 0
# WID: 23496 , AWID : 23496
#                 3535wlast : 0
# WID: 23496 , AWID : 23496
#                 3545wlast : 0
# WID: 23496 , AWID : 23496
#                 3555wlast : 0
# WID: 23496 , AWID : 23496
#                 3565wlast : 0
# WID: 23496 , AWID : 23496
#                 3575wlast : 0
# WID: 23496 , AWID : 23496
#                 3585wlast : 0
# WID: 23496 , AWID : 23496
#                 3595wlast : 0
# WID: 23496 , AWID : 23496
#                 3605wlast : 0
# WID: 23496 , AWID : 23496
#                 3615wlast : 0
# WID: 23496 , AWID : 23496
#                 3625wlast : 0
# WID: 23496 , AWID : 23496
#                 3635wlast : 0
# WID: 23496 , AWID : 23496
#                 3645wlast : 0
# WID: 23496 , AWID : 23496
#                 3655wlast : 0
# WID: 23496 , AWID : 23496
#                 3665wlast : 0
# WID: 23496 , AWID : 23496
#                 3675wlast : 0
# WID: 23496 , AWID : 23496
#                 3685wlast : 0
# WID: 23496 , AWID : 23496
#                 3695wlast : 0
# WID: 23496 , AWID : 23496
#                 3705wlast : 0
# WID: 23496 , AWID : 23496
#                 3715wlast : 0
# WID: 23496 , AWID : 23496
#                 3725wlast : 0
# WID: 23496 , AWID : 23496
#                 3735wlast : 0
# WID: 23496 , AWID : 23496
#                 3745wlast : 0
# WID: 23496 , AWID : 23496
#                 3755wlast : 0
# WID: 23496 , AWID : 23496
#                 3765wlast : 0
# WID: 23496 , AWID : 23496
#                 3775wlast : 0
# WID: 23496 , AWID : 23496
#                 3785wlast : 0
# WID: 23496 , AWID : 23496
#                 3795wlast : 0
# WID: 23496 , AWID : 23496
#                 3805wlast : 0
# WID: 23496 , AWID : 23496
#                 3815wlast : 0
# WID: 23496 , AWID : 23496
#                 3825wlast : 0
# WID: 23496 , AWID : 23496
#                 3835wlast : 0
# WID: 23496 , AWID : 23496
#                 3845wlast : 0
# WID: 23496 , AWID : 23496
#                 3855wlast : 0
# WID: 23496 , AWID : 23496
#                 3865wlast : 0
# WID: 23496 , AWID : 23496
#                 3875wlast : 0
# WID: 23496 , AWID : 23496
#                 3885wlast : 0
# WID: 23496 , AWID : 23496
#                 3895wlast : 0
# WID: 23496 , AWID : 23496
#                 3905wlast : 0
# WID: 23496 , AWID : 23496
#                 3915wlast : 0
# WID: 23496 , AWID : 23496
#                 3925wlast : 0
# WID: 23496 , AWID : 23496
#                 3935wlast : 0
# WID: 23496 , AWID : 23496
#                 3945wlast : 0
# WID: 23496 , AWID : 23496
#                 3955wlast : 0
# WID: 23496 , AWID : 23496
#                 3965wlast : 0
# WID: 23496 , AWID : 23496
#                 3975wlast : 0
# WID: 23496 , AWID : 23496
#                 3985wlast : 0
# WID: 23496 , AWID : 23496
#                 3995wlast : 0
# WID: 23496 , AWID : 23496
#                 4005wlast : 0
# WID: 23496 , AWID : 23496
#                 4015wlast : 0
# WID: 23496 , AWID : 23496
#                 4025wlast : 0
# WID: 23496 , AWID : 23496
#                 4035wlast : 0
# WID: 23496 , AWID : 23496
#                 4045wlast : 0
# WID: 23496 , AWID : 23496
