# vsim -coverage -voptargs="+acc" axi_tb_top -c -do "coverage save -onexit -directive -cvg -codeall axi_b2b_test.ucdb; run -all; exit" "+UVM_TESTNAME=axi_b2b_test" -l axi_b2b_test.log 
# Start time: 14:36:54 on May 07,2026
# ** Note: (vsim-8009) Loading existing optimized design _opt1
# //  Questa Sim-64
# //  Version 2023.4 linux_x86_64 Oct  9 2023
# //
# //  Copyright 1991-2023 Mentor Graphics Corporation
# //  All Rights Reserved.
# //
# //  QuestaSim and its associated documentation contain trade
# //  secrets and commercial or financial information that are the property of
# //  Mentor Graphics Corporation and are privileged, confidential,
# //  and exempt from disclosure under the Freedom of Information Act,
# //  5 U.S.C. Section 552. Furthermore, this information
# //  is prohibited from disclosure under the Trade Secrets Act,
# //  18 U.S.C. Section 1905.
# //
# Loading sv_std.std
# Loading work.axi_s_inf(fast)
# Loading work.axi_m_inf(fast)
# Loading mtiUvm.uvm_pkg(fast)
# Loading work.axi_s_agent_pkg(fast)
# Loading work.axi_m_agent_pkg(fast)
# Loading work.axi_env_pkg(fast)
# Loading work.axi_test_pkg(fast)
# Loading mtiUvm.questa_uvm_pkg(fast)
# Loading work.axi_tb_top(fast)
# Loading work.axi_m_inf(fast__2)
# Loading work.axi_s_inf(fast__2)
# ** Warning: (vsim-8441) Clocking block output s_vif.s_drv_cb.RDATA is not legal in this
# or another expression.
#    Time: 0 ns  Iteration: 0  Region: /axi_s_agent_pkg::axi_s_drv #(32, 32) File: ../env/s_agent/axi_s_drv.sv Line: 113
# ** Warning: (vsim-8441) Clocking block output s_vif.s_drv_cb.RVALID is not legal in this
# or another expression.
#    Time: 0 ns  Iteration: 0  Region: /axi_s_agent_pkg::axi_s_drv #(32, 32) File: ../env/s_agent/axi_s_drv.sv Line: 115
# ** Warning: (vsim-8441) Clocking block output s_vif.s_drv_cb.RLAST is not legal in this
# or another expression.
#    Time: 0 ns  Iteration: 0  Region: /axi_s_agent_pkg::axi_s_drv #(32, 32) File: ../env/s_agent/axi_s_drv.sv Line: 116
# ** Warning: (vsim-8441) Clocking block output s_vif.s_drv_cb.RDATA is not legal in this
# or another expression.
#    Time: 0 ns  Iteration: 0  Region: /axi_s_agent_pkg::axi_s_drv #(32, 32) File: ../env/s_agent/axi_s_drv.sv Line: 113
# ** Warning: (vsim-8441) Clocking block output s_vif.s_drv_cb.RLAST is not legal in this
# or another expression.
#    Time: 0 ns  Iteration: 0  Region: /axi_s_agent_pkg::axi_s_drv #(32, 32) File: ../env/s_agent/axi_s_drv.sv Line: 116
# ** Warning: (vsim-8441) Clocking block output s_vif.s_drv_cb.RVALID is not legal in this
# or another expression.
#    Time: 0 ns  Iteration: 0  Region: /axi_s_agent_pkg::axi_s_drv #(32, 32) File: ../env/s_agent/axi_s_drv.sv Line: 115
# ** Warning: (vsim-8441) Clocking block output s_vif.s_drv_cb.RVALID is not legal in this
# or another expression.
#    Time: 0 ns  Iteration: 0  Region: /axi_s_agent_pkg::axi_s_drv #(32, 32) File: ../env/s_agent/axi_s_drv.sv Line: 115
# ** Warning: (vsim-8441) Clocking block output s_vif.s_drv_cb.RLAST is not legal in this
# or another expression.
#    Time: 0 ns  Iteration: 0  Region: /axi_s_agent_pkg::axi_s_drv #(32, 32) File: ../env/s_agent/axi_s_drv.sv Line: 116
# Loading /tools/mentor/questa/2023.4/questasim/uvm-1.1d/linux_x86_64/uvm_dpi.so
# coverage save -onexit -directive -cvg -codeall axi_b2b_test.ucdb
#  run -all
# ----------------------------------------------------------------
# UVM-1.1d
# (C) 2007-2013 Mentor Graphics Corporation
# (C) 2007-2013 Cadence Design Systems, Inc.
# (C) 2006-2013 Synopsys, Inc.
# (C) 2011-2013 Cypress Semiconductor Corp.
# ----------------------------------------------------------------
# 
#   ***********       IMPORTANT RELEASE NOTES         ************
# 
#   You are using a version of the UVM library that has been compiled
#   with `UVM_NO_DEPRECATED undefined.
#   See http://www.eda.org/svdb/view.php?id=3313 for more details.
# 
#   You are using a version of the UVM library that has been compiled
#   with `UVM_OBJECT_MUST_HAVE_CONSTRUCTOR undefined.
#   See http://www.eda.org/svdb/view.php?id=3770 for more details.
# 
#       (Specify +UVM_NO_RELNOTES to turn off this notice)
# 
# UVM_INFO verilog_src/questa_uvm_pkg-1.2/src/questa_uvm_pkg.sv(277) @ 0: reporter [Questa UVM] QUESTA_UVM-1.2.3
# UVM_INFO verilog_src/questa_uvm_pkg-1.2/src/questa_uvm_pkg.sv(278) @ 0: reporter [Questa UVM]  questa_uvm::init(+struct)
# UVM_INFO @ 0: reporter [RNTST] Running test axi_b2b_test...
# ** Warning: (vsim-8474) A higher value '4294967295' is found in bin 'all_ones' of Coverpoint 'cp_wdata'. It is invalid and will be ignored.
#    Time: 0 ns  Iteration: 7  Process: /uvm_pkg::uvm_phase::m_run_phases/#FORK#1847_7fefec463ba File: ../env/axi_coverage.sv Line: 49
# ** Warning: (vsim-8549) After dropping the illegal, ignore or invalid values, the values list associated with scalar bin 'all_ones' in Coverpoint 'cp_wdata' of Covergroup instance '\/axi_env_pkg::axi_coverage::write_cov ' has converged to empty list. The bin will be taken out of coverage calculation.
#    Time: 0 ns  Iteration: 7  Region: /uvm_pkg::uvm_phase::m_run_phases
# ** Warning: (vsim-8474) A higher value '1431655765' is found in bin 'toggle_01' of Coverpoint 'cp_wdata'. It is invalid and will be ignored.
#    Time: 0 ns  Iteration: 7  Process: /uvm_pkg::uvm_phase::m_run_phases/#FORK#1847_7fefec463ba File: ../env/axi_coverage.sv Line: 50
# ** Warning: (vsim-8474) A higher value '2863311530' is found in bin 'toggle_01' of Coverpoint 'cp_wdata'. It is invalid and will be ignored.
#    Time: 0 ns  Iteration: 7  Process: /uvm_pkg::uvm_phase::m_run_phases/#FORK#1847_7fefec463ba File: ../env/axi_coverage.sv Line: 50
# ** Warning: (vsim-8549) After dropping the illegal, ignore or invalid values, the values list associated with scalar bin 'toggle_01' in Coverpoint 'cp_wdata' of Covergroup instance '\/axi_env_pkg::axi_coverage::write_cov ' has converged to empty list. The bin will be taken out of coverage calculation.
#    Time: 0 ns  Iteration: 7  Region: /uvm_pkg::uvm_phase::m_run_phases
# ** Warning: (vsim-3881) ../env/axi_coverage.sv(51): Width conversion applied in bin 'other_data' for Coverpoint 'cp_wdata'. Value '1' changed to ' (maximum)' value.
#    Time: 0 ns  Iteration: 7  Region: /uvm_pkg::uvm_phase::m_run_phases
# ** Warning: (vsim-3881) ../env/axi_coverage.sv(51): Width conversion applied in bin 'other_data' for Coverpoint 'cp_wdata'. Value '4294901759' changed to ' (maximum)' value.
#    Time: 0 ns  Iteration: 7  Region: /uvm_pkg::uvm_phase::m_run_phases
# ** Warning: (vsim-8475) The invalid value range [1 : 4294901759] is found in bin 'other_data' of Coverpoint 'cp_wdata'. It will be ignored.
#    Time: 0 ns  Iteration: 7  Process: /uvm_pkg::uvm_phase::m_run_phases/#FORK#1847_7fefec463ba File: ../env/axi_coverage.sv Line: 51
# ** Warning: (vsim-8549) After dropping the illegal, ignore or invalid values, the values list associated with array bin 'other_data' in Coverpoint 'cp_wdata' of Covergroup instance '\/axi_env_pkg::axi_coverage::write_cov ' has converged to empty list. The bin will be taken out of coverage calculation.
#    Time: 0 ns  Iteration: 7  Region: /uvm_pkg::uvm_phase::m_run_phases
# ** Warning: (vsim-8474) A higher value '8' is found in bin 'single_byte' of Coverpoint 'cp_wstrb'. It is invalid and will be ignored.
#    Time: 0 ns  Iteration: 7  Process: /uvm_pkg::uvm_phase::m_run_phases/#FORK#1847_7fefec463ba File: ../env/axi_coverage.sv Line: 72
# ** Warning: (vsim-8474) A higher value '12' is found in bin 'single_byte' of Coverpoint 'cp_wstrb'. It is invalid and will be ignored.
#    Time: 0 ns  Iteration: 7  Process: /uvm_pkg::uvm_phase::m_run_phases/#FORK#1847_7fefec463ba File: ../env/axi_coverage.sv Line: 72
# ** Warning: (vsim-8474) A higher value '14' is found in bin 'single_byte' of Coverpoint 'cp_wstrb'. It is invalid and will be ignored.
#    Time: 0 ns  Iteration: 7  Process: /uvm_pkg::uvm_phase::m_run_phases/#FORK#1847_7fefec463ba File: ../env/axi_coverage.sv Line: 72
# ** Warning: (vsim-8549) After dropping the illegal, ignore or invalid values, the values list associated with scalar bin 'single_byte' in Coverpoint 'cp_wstrb' of Covergroup instance '\/axi_env_pkg::axi_coverage::write_cov ' has converged to empty list. The bin will be taken out of coverage calculation.
#    Time: 0 ns  Iteration: 7  Region: /uvm_pkg::uvm_phase::m_run_phases
# ** Warning: (vsim-8474) A higher value '15' is found in bin 'all_bytes' of Coverpoint 'cp_wstrb'. It is invalid and will be ignored.
#    Time: 0 ns  Iteration: 7  Process: /uvm_pkg::uvm_phase::m_run_phases/#FORK#1847_7fefec463ba File: ../env/axi_coverage.sv Line: 73
# ** Warning: (vsim-8549) After dropping the illegal, ignore or invalid values, the values list associated with scalar bin 'all_bytes' in Coverpoint 'cp_wstrb' of Covergroup instance '\/axi_env_pkg::axi_coverage::write_cov ' has converged to empty list. The bin will be taken out of coverage calculation.
#    Time: 0 ns  Iteration: 7  Region: /uvm_pkg::uvm_phase::m_run_phases
# ** Warning: (vsim-8554) The expression 'binsof(cp_wstrb.single_byte)' inside the select expression of Bin 'invalid_wrap' of Cross 'STRB_CP' in Covergroup instance '\/axi_env_pkg::axi_coverage::write_cov ' is an empty user bin. The binsof expression will result in an empty set.
#    Time: 0 ns  Iteration: 7  Region: /uvm_pkg::uvm_phase::m_run_phases
# ** Warning: (vsim-8474) A higher value '4294967295' is found in bin 'all_ones' of Coverpoint 'cp_rdata'. It is invalid and will be ignored.
#    Time: 0 ns  Iteration: 7  Process: /uvm_pkg::uvm_phase::m_run_phases/#FORK#1847_7fefec463ba File: ../env/axi_coverage.sv Line: 141
# ** Warning: (vsim-8549) After dropping the illegal, ignore or invalid values, the values list associated with scalar bin 'all_ones' in Coverpoint 'cp_rdata' of Covergroup instance '\/axi_env_pkg::axi_coverage::read_cov ' has converged to empty list. The bin will be taken out of coverage calculation.
#    Time: 0 ns  Iteration: 7  Region: /uvm_pkg::uvm_phase::m_run_phases
# ** Warning: (vsim-8474) A higher value '1431655765' is found in bin 'toggle_01' of Coverpoint 'cp_rdata'. It is invalid and will be ignored.
#    Time: 0 ns  Iteration: 7  Process: /uvm_pkg::uvm_phase::m_run_phases/#FORK#1847_7fefec463ba File: ../env/axi_coverage.sv Line: 142
# ** Warning: (vsim-8474) A higher value '2863311530' is found in bin 'toggle_01' of Coverpoint 'cp_rdata'. It is invalid and will be ignored.
#    Time: 0 ns  Iteration: 7  Process: /uvm_pkg::uvm_phase::m_run_phases/#FORK#1847_7fefec463ba File: ../env/axi_coverage.sv Line: 142
# ** Warning: (vsim-8549) After dropping the illegal, ignore or invalid values, the values list associated with scalar bin 'toggle_01' in Coverpoint 'cp_rdata' of Covergroup instance '\/axi_env_pkg::axi_coverage::read_cov ' has converged to empty list. The bin will be taken out of coverage calculation.
#    Time: 0 ns  Iteration: 7  Region: /uvm_pkg::uvm_phase::m_run_phases
# ** Warning: (vsim-3881) ../env/axi_coverage.sv(143): Width conversion applied in bin 'other_data' for Coverpoint 'cp_rdata'. Value '1' changed to ' (maximum)' value.
#    Time: 0 ns  Iteration: 7  Region: /uvm_pkg::uvm_phase::m_run_phases
# ** Warning: (vsim-3881) ../env/axi_coverage.sv(143): Width conversion applied in bin 'other_data' for Coverpoint 'cp_rdata'. Value '4294901759' changed to ' (maximum)' value.
#    Time: 0 ns  Iteration: 7  Region: /uvm_pkg::uvm_phase::m_run_phases
# ** Warning: (vsim-8475) The invalid value range [1 : 4294901759] is found in bin 'other_data' of Coverpoint 'cp_rdata'. It will be ignored.
#    Time: 0 ns  Iteration: 7  Process: /uvm_pkg::uvm_phase::m_run_phases/#FORK#1847_7fefec463ba File: ../env/axi_coverage.sv Line: 143
# ** Warning: (vsim-8549) After dropping the illegal, ignore or invalid values, the values list associated with array bin 'other_data' in Coverpoint 'cp_rdata' of Covergroup instance '\/axi_env_pkg::axi_coverage::read_cov ' has converged to empty list. The bin will be taken out of coverage calculation.
#    Time: 0 ns  Iteration: 7  Region: /uvm_pkg::uvm_phase::m_run_phases
# UVM_INFO ../env/s_agent/axi_s_seqr.sv(25) @ 0: uvm_test_top.env_h.s_uvc_h.s_agent_h[0].s_seqr_h [Data in s seqr] Data got in slave seqr
# UVM_INFO @ 0: reporter [UVMTOP] UVM testbench topology:
# --------------------------------------------------------------------------------
# Name                             Type                                Size  Value
# --------------------------------------------------------------------------------
# uvm_test_top                     axi_b2b_test                        -     @479 
#   env_h                          axi_env                             -     @491 
#     m_uvc_h                      uvm_agent                           -     @513 
#       m_agent_h[0]               uvm_agent                           -     @693 
#         m_drv_h                  uvm_driver #(REQ,RSP)               -     @814 
#           rsp_port               uvm_analysis_port                   -     @829 
#           seq_item_port          uvm_seq_item_pull_port              -     @821 
#         m_mon_h                  axi_m_mon#(ADDR_WIDTH, DATA_WIDTH)  -     @837 
#           s_port                 uvm_analysis_port                   -     @844 
#         m_seqr_h                 uvm_sequencer                       -     @705 
#           rsp_export             uvm_analysis_export                 -     @712 
#           seq_item_export        uvm_seq_item_pull_imp               -     @806 
#           arbitration_queue      array                               0     -    
#           lock_queue             array                               0     -    
#           num_last_reqs          integral                            32    'd1  
#           num_last_rsps          integral                            32    'd1  
#     ref_model_h                  axi_ref_model                       -     @558 
#       mon_imp                    uvm_analysis_imp                    -     @565 
#       sb_imp                     uvm_analysis_port                   -     @573 
#     s_uvc_h                      uvm_agent                           -     @520 
#       s_agent_h[0]               uvm_agent                           -     @860 
#         s_drv_h                  uvm_driver #(REQ,RSP)               -     @1036
#           rsp_port               uvm_analysis_port                   -     @1051
#           seq_item_port          uvm_seq_item_pull_port              -     @1043
#         s_mon_h                  axi_s_mon#(ADDR_WIDTH, DATA_WIDTH)  -     @1059
#           s_port                 uvm_analysis_port                   -     @1066
#         s_seqr_h                 uvm_sequencer                       -     @872 
#           item_collected_export  uvm_analysis_export                 -     @981 
#           item_req_fifo          uvm_tlm_analysis_fifo #(T)          -     @989 
#             analysis_export      uvm_analysis_imp                    -     @1028
#             get_ap               uvm_analysis_port                   -     @1020
#             get_peek_export      uvm_get_peek_imp                    -     @1004
#             put_ap               uvm_analysis_port                   -     @1012
#             put_export           uvm_put_imp                         -     @996 
#           rsp_export             uvm_analysis_export                 -     @879 
#           seq_item_export        uvm_seq_item_pull_imp               -     @973 
#           arbitration_queue      array                               0     -    
#           lock_queue             array                               0     -    
#           num_last_reqs          integral                            32    'd1  
#           num_last_rsps          integral                            32    'd1  
#     sb_h                         axi_sb                              -     @527 
#       anl_imp_m                  uvm_analysis_imp_m                  -     @534 
#       anl_imp_ref                uvm_analysis_imp_ref                -     @542 
#     vseqr_h                      axi_virtual_seqr                    -     @581 
#       rsp_export                 uvm_analysis_export                 -     @588 
#       seq_item_export            uvm_seq_item_pull_imp               -     @682 
#       arbitration_queue          array                               0     -    
#       lock_queue                 array                               0     -    
#       num_last_reqs              integral                            32    'd1  
#       num_last_rsps              integral                            32    'd1  
# --------------------------------------------------------------------------------
# 
# UVM_INFO ../env/axi_sb.sv(76) @ 0: uvm_test_top.env_h.sb_h [before event in sb] aaaa
# UVM_INFO ../env/m_agent/axi_m_mon.sv(28) @ 0: uvm_test_top.env_h.m_uvc_h.m_agent_h[0].m_mon_h [M MON RUN PHASE before] Inside master mon run phase
# UVM_INFO ../env/m_agent/axi_m_mon.sv(36) @ 0: uvm_test_top.env_h.m_uvc_h.m_agent_h[0].m_mon_h [M MON run PHASE after] Inside master mon
# UVM_INFO ../env/m_agent/axi_m_mon.sv(41) @ 0: uvm_test_top.env_h.m_uvc_h.m_agent_h[0].m_mon_h [M MON write addr PHASE before] Inside master mon
# UVM_INFO ../env/m_agent/axi_m_mon.sv(60) @ 0: uvm_test_top.env_h.m_uvc_h.m_agent_h[0].m_mon_h [M MON write data PHASE before] Inside master mon
# UVM_INFO ../env/m_agent/axi_m_mon.sv(99) @ 0: uvm_test_top.env_h.m_uvc_h.m_agent_h[0].m_mon_h [M MON read addr PHASE before] Inside master mon
# UVM_INFO ../env/m_agent/axi_m_mon.sv(118) @ 0: uvm_test_top.env_h.m_uvc_h.m_agent_h[0].m_mon_h [M MON read data PHASE before] Inside master mon
# Before AW CHANNEL
# Before W CHANNEL
# Before AR CHANNEL
# Before R CHANNEL
# AWLEN IN M DRV:38
# cnt : 1
# AWLEN IN M DRV:141
# cnt : 2
# AWLEN IN M DRV:7
# cnt : 3
# AWLEN IN M DRV:185
# cnt : 4
# AWLEN IN M DRV:96
# cnt : 5
# AWLEN IN M DRV:197
# cnt : 6
# AWLEN IN M DRV:34
# cnt : 7
# AWLEN IN M DRV:153
# cnt : 8
# AWLEN IN M DRV:35
# cnt : 9
# AWLEN IN M DRV:44
# cnt : 10
# AWLEN IN M DRV:86
# cnt : 11
# AWLEN IN M DRV:119
# cnt : 12
# AWLEN IN M DRV:34
# cnt : 13
# AWLEN IN M DRV:11
# cnt : 14
# AWLEN IN M DRV:78
# cnt : 15
# AWLEN IN M DRV:168
# cnt : 16
# AWLEN IN M DRV:13
# cnt : 17
# AWLEN IN M DRV:215
# cnt : 18
# AWLEN IN M DRV:50
# cnt : 19
# AWLEN IN M DRV:173
# cnt : 20
# AWLEN IN M DRV:35
# cnt : 21
# AWLEN IN M DRV:126
# cnt : 22
# AWLEN IN M DRV:88
# cnt : 23
# AWLEN IN M DRV:228
# cnt : 24
# AWLEN IN M DRV:51
# cnt : 25
# AWLEN IN M DRV:126
# cnt : 26
# AWLEN IN M DRV:43
# cnt : 27
# AWLEN IN M DRV:26
# cnt : 28
# AWLEN IN M DRV:85
# cnt : 29
# AWLEN IN M DRV:170
# cnt : 30
# AWLEN IN M DRV:46
# cnt : 31
# AWLEN IN M DRV:142
# cnt : 32
# AWLEN IN M DRV:70
# cnt : 33
# AWLEN IN M DRV:171
# cnt : 34
# AWLEN IN M DRV:78
# cnt : 35
# AWLEN IN M DRV:11
# cnt : 36
# AWLEN IN M DRV:40
# cnt : 37
# AWLEN IN M DRV:23
# cnt : 38
# AWLEN IN M DRV:66
# cnt : 39
# AWLEN IN M DRV:1
# cnt : 40
# AWLEN IN M DRV:21
# cnt : 41
# AWLEN IN M DRV:188
# cnt : 42
# AWLEN IN M DRV:45
# cnt : 43
# AWLEN IN M DRV:128
# cnt : 44
# AWLEN IN M DRV:58
# cnt : 45
# AWLEN IN M DRV:231
# cnt : 46
# AWLEN IN M DRV:85
# cnt : 47
# AWLEN IN M DRV:177
# cnt : 48
# AWLEN IN M DRV:0
# cnt : 49
# AWLEN IN M DRV:16
# cnt : 50
# AWLEN IN M DRV:84
# cnt : 51
# AWLEN IN M DRV:157
# cnt : 52
# AWLEN IN M DRV:3
# cnt : 53
# AWLEN IN M DRV:116
# cnt : 54
# AWLEN IN M DRV:48
# cnt : 55
# AWLEN IN M DRV:87
# cnt : 56
# AWLEN IN M DRV:62
# cnt : 57
# AWLEN IN M DRV:236
# cnt : 58
# AWLEN IN M DRV:66
# cnt : 59
# AWLEN IN M DRV:96
# cnt : 60
# AWLEN IN M DRV:73
# cnt : 61
# AWLEN IN M DRV:245
# cnt : 62
# AWLEN IN M DRV:64
# cnt : 63
# AWLEN IN M DRV:227
# cnt : 64
# AWLEN IN M DRV:26
# cnt : 65
# AWLEN IN M DRV:73
# cnt : 66
# AWLEN IN M DRV:66
# cnt : 67
# AWLEN IN M DRV:25
# cnt : 68
# AWLEN IN M DRV:16
# cnt : 69
# AWLEN IN M DRV:221
# cnt : 70
# AWLEN IN M DRV:61
# cnt : 71
# AWLEN IN M DRV:9
# cnt : 72
# AWLEN IN M DRV:95
# cnt : 73
# AWLEN IN M DRV:226
# cnt : 74
# AWLEN IN M DRV:89
# cnt : 75
# AWLEN IN M DRV:117
# cnt : 76
# AWLEN IN M DRV:32
# cnt : 77
# AWLEN IN M DRV:132
# cnt : 78
# AWLEN IN M DRV:81
# cnt : 79
# AWLEN IN M DRV:208
# cnt : 80
# AWLEN IN M DRV:74
# cnt : 81
# AWLEN IN M DRV:117
# cnt : 82
# AWLEN IN M DRV:80
# cnt : 83
# AWLEN IN M DRV:70
# cnt : 84
# AWLEN IN M DRV:47
# cnt : 85
# AWLEN IN M DRV:61
# cnt : 86
# AWLEN IN M DRV:83
# cnt : 87
# AWLEN IN M DRV:122
# cnt : 88
# AWLEN IN M DRV:70
# cnt : 89
# AWLEN IN M DRV:191
# cnt : 90
# AWLEN IN M DRV:78
# cnt : 91
# AWLEN IN M DRV:124
# cnt : 92
# AWLEN IN M DRV:72
# cnt : 93
# AWLEN IN M DRV:189
# cnt : 94
# AWLEN IN M DRV:80
# cnt : 95
# AWLEN IN M DRV:205
# cnt : 96
# AWLEN IN M DRV:84
# cnt : 97
# AWLEN IN M DRV:176
# cnt : 98
# AWLEN IN M DRV:20
# cnt : 99
# AWLEN IN M DRV:132
# cnt : 100
# AWLEN IN M DRV:65
# cnt : 101
# AWLEN IN M DRV:230
# cnt : 102
# AWLEN IN M DRV:12
# cnt : 103
# AWLEN IN M DRV:185
# cnt : 104
# AWLEN IN M DRV:8
# cnt : 105
# AWLEN IN M DRV:14
# cnt : 106
# AWLEN IN M DRV:75
# cnt : 107
# AWLEN IN M DRV:187
# cnt : 108
# AWLEN IN M DRV:50
# cnt : 109
# AWLEN IN M DRV:129
# cnt : 110
# AWLEN IN M DRV:81
# cnt : 111
# AWLEN IN M DRV:217
# cnt : 112
# AWLEN IN M DRV:8
# cnt : 113
# AWLEN IN M DRV:183
# cnt : 114
# AWLEN IN M DRV:41
# cnt : 115
# AWLEN IN M DRV:89
# cnt : 116
# AWLEN IN M DRV:63
# cnt : 117
# AWLEN IN M DRV:204
# cnt : 118
# AWLEN IN M DRV:64
# cnt : 119
# AWLEN IN M DRV:93
# cnt : 120
# AWLEN IN M DRV:17
# cnt : 121
# AWLEN IN M DRV:185
# cnt : 122
# AWLEN IN M DRV:8
# cnt : 123
# AWLEN IN M DRV:45
# cnt : 124
# AWLEN IN M DRV:61
# cnt : 125
# AWLEN IN M DRV:243
# cnt : 126
# AWLEN IN M DRV:63
# cnt : 127
# AWLEN IN M DRV:125
# cnt : 128
# AWLEN IN M DRV:26
# cnt : 129
# AWLEN IN M DRV:162
# cnt : 130
# AWLEN IN M DRV:34
# cnt : 131
# AWLEN IN M DRV:217
# cnt : 132
# AWLEN IN M DRV:83
# cnt : 133
# AWLEN IN M DRV:138
# cnt : 134
# AWLEN IN M DRV:96
# cnt : 135
# AWLEN IN M DRV:72
# cnt : 136
# AWLEN IN M DRV:14
# cnt : 137
# AWLEN IN M DRV:50
# cnt : 138
# AWLEN IN M DRV:94
# cnt : 139
# AWLEN IN M DRV:24
# cnt : 140
# AWLEN IN M DRV:26
# cnt : 141
# AWLEN IN M DRV:168
# cnt : 142
# AWLEN IN M DRV:62
# cnt : 143
# AWLEN IN M DRV:166
# cnt : 144
# AWLEN IN M DRV:47
# cnt : 145
# AWLEN IN M DRV:203
# cnt : 146
# AWLEN IN M DRV:68
# cnt : 147
# AWLEN IN M DRV:192
# cnt : 148
# AWLEN IN M DRV:74
# cnt : 149
# AWLEN IN M DRV:12
# cnt : 150
# AWLEN IN M DRV:57
# cnt : 151
# AWLEN IN M DRV:255
# cnt : 152
# AWLEN IN M DRV:45
# cnt : 153
# AWLEN IN M DRV:239
# cnt : 154
# AWLEN IN M DRV:23
# cnt : 155
# AWLEN IN M DRV:26
# cnt : 156
# AWLEN IN M DRV:75
# cnt : 157
# AWLEN IN M DRV:228
# cnt : 158
# AWLEN IN M DRV:25
# cnt : 159
# AWLEN IN M DRV:2
# cnt : 160
# AWLEN IN M DRV:95
# cnt : 161
# AWLEN IN M DRV:54
# cnt : 162
# AWLEN IN M DRV:27
# cnt : 163
# AWLEN IN M DRV:14
# cnt : 164
# AWLEN IN M DRV:74
# cnt : 165
# AWLEN IN M DRV:207
# cnt : 166
# AWLEN IN M DRV:53
# cnt : 167
# AWLEN IN M DRV:106
# cnt : 168
# AWLEN IN M DRV:8
# cnt : 169
# AWLEN IN M DRV:144
# cnt : 170
# AWLEN IN M DRV:9
# cnt : 171
# AWLEN IN M DRV:48
# cnt : 172
# AWLEN IN M DRV:45
# cnt : 173
# AWLEN IN M DRV:40
# cnt : 174
# AWLEN IN M DRV:18
# cnt : 175
# AWLEN IN M DRV:141
# cnt : 176
# AWLEN IN M DRV:87
# cnt : 177
# AWLEN IN M DRV:62
# cnt : 178
# AWLEN IN M DRV:41
# cnt : 179
# AWLEN IN M DRV:1
# cnt : 180
# AWLEN IN M DRV:63
# cnt : 181
# AWLEN IN M DRV:245
# cnt : 182
# AWLEN IN M DRV:87
# cnt : 183
# AWLEN IN M DRV:76
# cnt : 184
# AWLEN IN M DRV:0
# cnt : 185
# AWLEN IN M DRV:151
# cnt : 186
# AWLEN IN M DRV:90
# cnt : 187
# AWLEN IN M DRV:238
# cnt : 188
# AWLEN IN M DRV:39
# cnt : 189
# AWLEN IN M DRV:145
# cnt : 190
# AWLEN IN M DRV:35
# cnt : 191
# AWLEN IN M DRV:35
# cnt : 192
# AWLEN IN M DRV:51
# cnt : 193
# AWLEN IN M DRV:90
# cnt : 194
# AWLEN IN M DRV:31
# cnt : 195
# AWLEN IN M DRV:33
# cnt : 196
# AWLEN IN M DRV:41
# cnt : 197
# AWLEN IN M DRV:16
# cnt : 198
# AWLEN IN M DRV:11
# cnt : 199
# AWLEN IN M DRV:127
# cnt : 200
# INIDE_SLAVE_MON_CTR=1
# arid in s mon : 31282
# m mon ar id : 7a32
# INIDE_SLAVE_MON_CTR=2
# arid in s mon : 28936
# m mon ar id : 7108
# INIDE_SLAVE_MON_CTR=3
# arid in s mon : 35198
# m mon ar id : 897e
# INIDE_SLAVE_MON_CTR=4
# arid in s mon : 7915
# m mon ar id : 1eeb
# INIDE_SLAVE_MON_CTR=5
# arid in s mon : 29180
# m mon ar id : 71fc
# INIDE_SLAVE_MON_CTR=6
# arid in s mon : 21255
# m mon ar id : 5307
# INIDE_SLAVE_MON_CTR=7
# arid in s mon : 21001
# m mon ar id : 5209
# INIDE_SLAVE_MON_CTR=8
# arid in s mon : 47319
# m mon ar id : b8d7
# INIDE_SLAVE_MON_CTR=9
# arid in s mon : 20867
# m mon ar id : 5183
# INIDE_SLAVE_MON_CTR=10
# arid in s mon : 45911
# m mon ar id : b357
# INIDE_SLAVE_MON_CTR=11
# arid in s mon : 31203
# m mon ar id : 79e3
# INIDE_SLAVE_MON_CTR=12
# arid in s mon : 27690
# m mon ar id : 6c2a
# INIDE_SLAVE_MON_CTR=13
# arid in s mon : 25703
# m mon ar id : 6467
# INIDE_SLAVE_MON_CTR=14
# arid in s mon : 2783
# m mon ar id : adf
# INIDE_SLAVE_MON_CTR=15
# arid in s mon : 17876
# m mon ar id : 45d4
# INIDE_SLAVE_MON_CTR=16
# arid in s mon : 46526
# m mon ar id : b5be
# INIDE_SLAVE_MON_CTR=17
# arid in s mon : 37930
# m mon ar id : 942a
# INIDE_SLAVE_MON_CTR=18
# arid in s mon : 1641
# m mon ar id : 669
# INIDE_SLAVE_MON_CTR=19
# arid in s mon : 33626
# m mon ar id : 835a
# INIDE_SLAVE_MON_CTR=20
# arid in s mon : 36471
# m mon ar id : 8e77
# INIDE_SLAVE_MON_CTR=21
# arid in s mon : 36064
# m mon ar id : 8ce0
# INIDE_SLAVE_MON_CTR=22
# arid in s mon : 52252
# m mon ar id : cc1c
# INIDE_SLAVE_MON_CTR=23
# arid in s mon : 6879
# m mon ar id : 1adf
# INIDE_SLAVE_MON_CTR=24
# arid in s mon : 38572
# m mon ar id : 96ac
# INIDE_SLAVE_MON_CTR=25
# arid in s mon : 48852
# m mon ar id : bed4
# INIDE_SLAVE_MON_CTR=26
# arid in s mon : 7841
# m mon ar id : 1ea1
# INIDE_SLAVE_MON_CTR=27
# arid in s mon : 32659
# m mon ar id : 7f93
# INIDE_SLAVE_MON_CTR=28
# arid in s mon : 62872
# m mon ar id : f598
# INIDE_SLAVE_MON_CTR=29
# arid in s mon : 49979
# m mon ar id : c33b
# INIDE_SLAVE_MON_CTR=30
# arid in s mon : 61088
# m mon ar id : eea0
# INIDE_SLAVE_MON_CTR=31
# arid in s mon : 53904
# m mon ar id : d290
# INIDE_SLAVE_MON_CTR=32
# arid in s mon : 273
# m mon ar id : 111
# INIDE_SLAVE_MON_CTR=33
# arid in s mon : 40358
# m mon ar id : 9da6
# INIDE_SLAVE_MON_CTR=34
# arid in s mon : 58276
# m mon ar id : e3a4
# INIDE_SLAVE_MON_CTR=35
# arid in s mon : 1351
# m mon ar id : 547
# INIDE_SLAVE_MON_CTR=36
# arid in s mon : 26158
# m mon ar id : 662e
# INIDE_SLAVE_MON_CTR=37
# arid in s mon : 55326
# m mon ar id : d81e
# INIDE_SLAVE_MON_CTR=38
# arid in s mon : 31454
# abc : 1
# ref model mem : 481
# abc : 2
# ref model mem : 489
# abc : 3
# ref model mem : 497
# abc : 4
# ref model mem : 505
# abc : 5
# ref model mem : 513
# abc : 6
# ref model mem : 521
# abc : 7
# ref model mem : 529
# abc : 8
# ref model mem : 537
# abc : 9
# ref model mem : 545
# abc : 10
# ref model mem : 553
# abc : 11
# ref model mem : 561
# abc : 12
# ref model mem : 569
# abc : 13
# ref model mem : 577
# abc : 14
# ref model mem : 585
# abc : 15
# ref model mem : 593
# abc : 16
# ref model mem : 601
# abc : 17
# ref model mem : 609
# abc : 18
# ref model mem : 617
# abc : 19
# ref model mem : 625
# abc : 20
# ref model mem : 633
# abc : 21
# ref model mem : 641
# abc : 22
# ref model mem : 649
# abc : 23
# ref model mem : 657
# abc : 24
# ref model mem : 665
# abc : 25
# ref model mem : 673
# abc : 26
# ref model mem : 681
# abc : 27
# ref model mem : 689
# abc : 28
# ref model mem : 697
# abc : 29
# ref model mem : 705
# abc : 30
# ref model mem : 713
# abc : 31
# ref model mem : 721
# abc : 32
# ref model mem : 729
# abc : 33
# ref model mem : 737
# abc : 34
# ref model mem : 745
# abc : 35
# ref model mem : 753
# abc : 36
# ref model mem : 761
# abc : 37
# ref model mem : 769
# abc : 38
# ref model mem : 777
# abc : 39
# ref model mem : 785
# xyz : 1
# xyz : 2
# xyz : 3
# xyz : 4
# xyz : 5
# xyz : 6
# xyz : 7
# xyz : 8
# xyz : 9
# xyz : 10
# xyz : 11
# xyz : 12
# xyz : 13
# xyz : 14
# xyz : 15
# xyz : 16
# xyz : 17
# xyz : 18
# xyz : 19
# xyz : 20
# xyz : 21
# xyz : 22
# xyz : 23
# xyz : 24
# xyz : 25
# xyz : 26
# xyz : 27
# AFFTER W CHANNEL
# m mon ar id : 7ade
# match arid : 0 , rid : 0
# UVM_INFO ../env/s_agent/axi_s_drv.sv(31) @ 395: uvm_test_top.env_h.s_uvc_h.s_agent_h[0].s_drv_h [ID MATCH] aaaaa
# s seqs arid : 31282
# INIDE_SLAVE_SEQ_CTR=1
# match arid : 7a32 , rid : 7a32
# UVM_INFO ../env/s_agent/axi_s_drv.sv(31) @ 395: uvm_test_top.env_h.s_uvc_h.s_agent_h[0].s_drv_h [ID MATCH] aaaaa
# s seqs arid : 17876
# INIDE_SLAVE_SEQ_CTR=2
# match arid : 45d4 , rid : 45d4
# UVM_INFO ../env/s_agent/axi_s_drv.sv(31) @ 395: uvm_test_top.env_h.s_uvc_h.s_agent_h[0].s_drv_h [ID MATCH] aaaaa
# s seqs arid : 49979
# INIDE_SLAVE_SEQ_CTR=3
# match arid : c33b , rid : c33b
# UVM_INFO ../env/s_agent/axi_s_drv.sv(31) @ 395: uvm_test_top.env_h.s_uvc_h.s_agent_h[0].s_drv_h [ID MATCH] aaaaa
# rd data in s drv: 0 , len : 9 , last:0 , valid : 1
# INIDE_SLAVE_MON_CTR=39
# arid in s mon : 34905
# xyz : 1
# xyz : 2
# xyz : 3
# xyz : 4
# xyz : 5
# xyz : 6
# m mon ar id : 8859
# m mon rid : 7a32
# s seqs arid : 34905
# INIDE_SLAVE_SEQ_CTR=4
# match arid : 8859 , rid : 8859
# UVM_INFO ../env/s_agent/axi_s_drv.sv(31) @ 405: uvm_test_top.env_h.s_uvc_h.s_agent_h[0].s_drv_h [ID MATCH] aaaaa
# rd data in s drv: 0 , len : 9 , last:0 , valid : 1
# INIDE_SLAVE_MON_CTR=40
# arid in s mon : 56093
# m mon rid : 7a32
# m mon ar id : db1d
# req wid : 26408 , bid:26408
# UVM_INFO ../env/m_agent/axi_base_m_seqs.sv(26) @ 415: uvm_test_top.env_h.m_uvc_h.m_agent_h[0].m_seqr_h@@vseqs_h.m_wseqs_h [IN V SEQS] Got B-channel response from driver
# rd data in s drv: 0 , len : 9 , last:0 , valid : 1
# INIDE_SLAVE_MON_CTR=41
# arid in s mon : 8173
# m mon ar id : 1fed
# m mon rid : 7a32
# rd data in s drv: 0 , len : 9 , last:0 , valid : 1
# INIDE_SLAVE_MON_CTR=42
# arid in s mon : 48675
# m mon rid : 7a32
# m mon ar id : be23
# rd data in s drv: 0 , len : 9 , last:0 , valid : 1
# INIDE_SLAVE_MON_CTR=43
# arid in s mon : 42563
# m mon ar id : a643
# m mon rid : 7a32
# rd data in s drv: 0 , len : 9 , last:0 , valid : 1
# INIDE_SLAVE_MON_CTR=44
# arid in s mon : 56402
# m mon rid : 7a32
# m mon ar id : dc52
# rd data in s drv: 0 , len : 9 , last:0 , valid : 1
# INIDE_SLAVE_MON_CTR=45
# arid in s mon : 19394
# m mon ar id : 4bc2
# m mon rid : 7a32
# rd data in s drv: 0 , len : 9 , last:0 , valid : 1
# INIDE_SLAVE_MON_CTR=46
# arid in s mon : 59561
# abc : 1
# ref model mem : 570
# abc : 2
# ref model mem : 578
# abc : 3
# ref model mem : 586
# abc : 4
# ref model mem : 594
# abc : 5
# ref model mem : 602
# abc : 6
# ref model mem : 610
# abc : 7
# ref model mem : 618
# abc : 8
# ref model mem : 626
# xyz : 1
# xyz : 2
# xyz : 3
# xyz : 4
# xyz : 5
# AFFTER W CHANNEL
# m mon rid : 7a32
# m mon ar id : e8a9
# match arid : 0 , rid : 0
# UVM_INFO ../env/s_agent/axi_s_drv.sv(31) @ 475: uvm_test_top.env_h.s_uvc_h.s_agent_h[0].s_drv_h [ID MATCH] aaaaa
# s seqs arid : 28936
# INIDE_SLAVE_SEQ_CTR=5
# match arid : 7108 , rid : 7108
# UVM_INFO ../env/s_agent/axi_s_drv.sv(31) @ 475: uvm_test_top.env_h.s_uvc_h.s_agent_h[0].s_drv_h [ID MATCH] aaaaa
# rd data in s drv: 0 , len : 9 , last:0 , valid : 1
# INIDE_SLAVE_MON_CTR=47
# arid in s mon : 43967
# m mon ar id : abbf
# m mon rid : 7a32
# rd data in s drv: 0 , len : 9 , last:1 , valid : 1
# INIDE_SLAVE_MON_CTR=48
# arid in s mon : 44769
# req kind : READ
# m mon rid : 7a32
# m mon ar id : aee1
# req wid : 6816 , bid:6816
# UVM_INFO ../env/m_agent/axi_base_m_seqs.sv(26) @ 495: uvm_test_top.env_h.m_uvc_h.m_agent_h[0].m_seqr_h@@vseqs_h.m_wseqs_h [IN V SEQS] Got B-channel response from driver
# UVM_INFO ../env/axi_sb.sv(78) @ 495: uvm_test_top.env_h.sb_h [after event in sb] aaaa
# UVM_INFO ../env/axi_sb.sv(76) @ 495: uvm_test_top.env_h.sb_h [before event in sb] aaaa
# rd data in s drv: 0 , len : 9 , last:0 , valid : 1
# INIDE_SLAVE_MON_CTR=49
# arid in s mon : 52972
# m mon ar id : ceec
# m mon rid : 45d4
# rd data in s drv: 0 , len : 9 , last:0 , valid : 1
# INIDE_SLAVE_MON_CTR=50
# arid in s mon : 6355
# m mon rid : 45d4
# m mon ar id : 18d3
# rd data in s drv: 0 , len : 9 , last:0 , valid : 1
# INIDE_SLAVE_MON_CTR=51
# arid in s mon : 48262
# m mon ar id : bc86
# m mon rid : 45d4
# rd data in s drv: 0 , len : 9 , last:0 , valid : 1
# INIDE_SLAVE_MON_CTR=52
# arid in s mon : 2685
# m mon rid : 45d4
# m mon ar id : a7d
# rd data in s drv: 0 , len : 9 , last:0 , valid : 1
# INIDE_SLAVE_MON_CTR=53
# arid in s mon : 42269
# m mon ar id : a51d
# m mon rid : 45d4
# rd data in s drv: 0 , len : 9 , last:0 , valid : 1
# INIDE_SLAVE_MON_CTR=54
# arid in s mon : 27503
# m mon rid : 45d4
# m mon ar id : 6b6f
# rd data in s drv: 0 , len : 9 , last:0 , valid : 1
# INIDE_SLAVE_MON_CTR=55
# arid in s mon : 34515
# m mon ar id : 86d3
# m mon rid : 45d4
# rd data in s drv: 0 , len : 9 , last:0 , valid : 1
# INIDE_SLAVE_MON_CTR=56
# arid in s mon : 40717
# m mon rid : 45d4
# m mon ar id : 9f0d
# rd data in s drv: 0 , len : 9 , last:0 , valid : 1
# INIDE_SLAVE_MON_CTR=57
# arid in s mon : 13078
# m mon ar id : 3316
# m mon rid : 45d4
# rd data in s drv: 0 , len : 9 , last:1 , valid : 1
# INIDE_SLAVE_MON_CTR=58
# arid in s mon : 32216
# req kind : READ
# m mon rid : 45d4
# m mon ar id : 7dd8
# UVM_INFO ../env/axi_sb.sv(78) @ 595: uvm_test_top.env_h.sb_h [after event in sb] aaaa
# UVM_INFO ../env/axi_sb.sv(76) @ 595: uvm_test_top.env_h.sb_h [before event in sb] aaaa
# rd data in s drv: 0 , len : 6 , last:0 , valid : 1
# INIDE_SLAVE_MON_CTR=59
# arid in s mon : 36317
# m mon ar id : 8ddd
# m mon rid : c33b
# rd data in s drv: 0 , len : 6 , last:0 , valid : 1
# INIDE_SLAVE_MON_CTR=60
# arid in s mon : 33691
# m mon rid : c33b
# m mon ar id : 839b
# rd data in s drv: 0 , len : 6 , last:0 , valid : 1
# INIDE_SLAVE_MON_CTR=61
# arid in s mon : 17906
# m mon ar id : 45f2
# m mon rid : c33b
# rd data in s drv: 0 , len : 6 , last:0 , valid : 1
# INIDE_SLAVE_MON_CTR=62
# arid in s mon : 31200
# m mon rid : c33b
# m mon ar id : 79e0
# rd data in s drv: 0 , len : 6 , last:0 , valid : 1
# INIDE_SLAVE_MON_CTR=63
# arid in s mon : 54887
# m mon ar id : d667
# m mon rid : c33b
# rd data in s drv: 0 , len : 6 , last:0 , valid : 1
# INIDE_SLAVE_MON_CTR=64
# arid in s mon : 60217
# m mon rid : c33b
# m mon ar id : eb39
# rd data in s drv: 0 , len : 6 , last:1 , valid : 1
# INIDE_SLAVE_MON_CTR=65
# arid in s mon : 15306
# m mon ar id : 3bca
# req kind : READ
# m mon rid : c33b
# UVM_INFO ../env/axi_sb.sv(78) @ 665: uvm_test_top.env_h.sb_h [after event in sb] aaaa
# UVM_INFO ../env/axi_sb.sv(76) @ 665: uvm_test_top.env_h.sb_h [before event in sb] aaaa
# rd data in s drv: 0 , len : 5 , last:0 , valid : 1
# INIDE_SLAVE_MON_CTR=66
# arid in s mon : 19842
# m mon rid : 8859
# m mon ar id : 4d82
# rd data in s drv: 0 , len : 5 , last:0 , valid : 1
# INIDE_SLAVE_MON_CTR=67
# arid in s mon : 42698
# m mon ar id : a6ca
# m mon rid : 8859
# rd data in s drv: 0 , len : 5 , last:0 , valid : 1
# INIDE_SLAVE_MON_CTR=68
# arid in s mon : 45363
# m mon rid : 8859
# m mon ar id : b133
# rd data in s drv: 0 , len : 5 , last:0 , valid : 1
# INIDE_SLAVE_MON_CTR=69
# arid in s mon : 44591
# m mon ar id : ae2f
# m mon rid : 8859
# rd data in s drv: 0 , len : 5 , last:0 , valid : 1
# INIDE_SLAVE_MON_CTR=70
# arid in s mon : 23906
# m mon rid : 8859
# m mon ar id : 5d62
# rd data in s drv: 0 , len : 5 , last:1 , valid : 1
# INIDE_SLAVE_MON_CTR=71
# arid in s mon : 19496
# m mon ar id : 4c28
# req kind : READ
# m mon rid : 8859
# UVM_INFO ../env/axi_sb.sv(78) @ 725: uvm_test_top.env_h.sb_h [after event in sb] aaaa
# UVM_INFO ../env/axi_sb.sv(76) @ 725: uvm_test_top.env_h.sb_h [before event in sb] aaaa
# rd data in s drv: 0 , len : 4 , last:0 , valid : 1
# INIDE_SLAVE_MON_CTR=72
# arid in s mon : 25780
# m mon rid : 7108
# m mon ar id : 64b4
# rd data in s drv: 0 , len : 4 , last:0 , valid : 1
# INIDE_SLAVE_MON_CTR=73
# arid in s mon : 33351
# m mon ar id : 8247
# m mon rid : 7108
# rd data in s drv: 0 , len : 4 , last:0 , valid : 1
# INIDE_SLAVE_MON_CTR=74
# arid in s mon : 41754
# m mon rid : 7108
# m mon ar id : a31a
# rd data in s drv: 0 , len : 4 , last:0 , valid : 1
# INIDE_SLAVE_MON_CTR=75
# arid in s mon : 20854
# m mon ar id : 5176
# m mon rid : 7108
# rd data in s drv: 0 , len : 4 , last:1 , valid : 1
# INIDE_SLAVE_MON_CTR=76
# arid in s mon : 8855
# req kind : READ
# m mon rid : 7108
# m mon ar id : 2297
# UVM_INFO ../env/axi_sb.sv(78) @ 775: uvm_test_top.env_h.sb_h [after event in sb] aaaa
# UVM_INFO ../env/axi_sb.sv(76) @ 775: uvm_test_top.env_h.sb_h [before event in sb] aaaa
# INIDE_SLAVE_MON_CTR=77
# arid in s mon : 53040
# xyz : 1
# m mon ar id : cf30
# s seqs arid : 53040
# INIDE_SLAVE_SEQ_CTR=6
# match arid : cf30 , rid : cf30
# UVM_INFO ../env/s_agent/axi_s_drv.sv(31) @ 785: uvm_test_top.env_h.s_uvc_h.s_agent_h[0].s_drv_h [ID MATCH] aaaaa
# rd data in s drv: 0 , len : 0 , last:1 , valid : 1
# INIDE_SLAVE_MON_CTR=78
# arid in s mon : 52605
# m mon ar id : cd7d
# req kind : READ
# m mon rid : cf30
# UVM_INFO ../env/axi_sb.sv(78) @ 795: uvm_test_top.env_h.sb_h [after event in sb] aaaa
# UVM_INFO ../env/axi_sb.sv(76) @ 795: uvm_test_top.env_h.sb_h [before event in sb] aaaa
# INIDE_SLAVE_MON_CTR=79
# arid in s mon : 56265
# m mon ar id : dbc9
# INIDE_SLAVE_MON_CTR=80
# arid in s mon : 31238
# m mon ar id : 7a06
# INIDE_SLAVE_MON_CTR=81
# arid in s mon : 61693
# m mon ar id : f0fd
# INIDE_SLAVE_MON_CTR=82
# arid in s mon : 62795
# m mon ar id : f54b
# INIDE_SLAVE_MON_CTR=83
# arid in s mon : 54123
# m mon ar id : d36b
# INIDE_SLAVE_MON_CTR=84
# arid in s mon : 30610
# m mon ar id : 7792
# INIDE_SLAVE_MON_CTR=85
# arid in s mon : 27708
# m mon ar id : 6c3c
# INIDE_SLAVE_MON_CTR=86
# arid in s mon : 31298
# m mon ar id : 7a42
# INIDE_SLAVE_MON_CTR=87
# arid in s mon : 26663
# m mon ar id : 6827
# INIDE_SLAVE_MON_CTR=88
# arid in s mon : 27406
# m mon ar id : 6b0e
# INIDE_SLAVE_MON_CTR=89
# arid in s mon : 5462
# m mon ar id : 1556
# INIDE_SLAVE_MON_CTR=90
# arid in s mon : 48932
# m mon ar id : bf24
# INIDE_SLAVE_MON_CTR=91
# arid in s mon : 5592
# m mon ar id : 15d8
# INIDE_SLAVE_MON_CTR=92
# arid in s mon : 12460
# m mon ar id : 30ac
# INIDE_SLAVE_MON_CTR=93
# arid in s mon : 7732
# m mon ar id : 1e34
# INIDE_SLAVE_MON_CTR=94
# arid in s mon : 37020
# m mon ar id : 909c
# INIDE_SLAVE_MON_CTR=95
# arid in s mon : 12475
# xyz : 1
# xyz : 2
# xyz : 3
# xyz : 4
# m mon ar id : 30bb
# s seqs arid : 12475
# INIDE_SLAVE_SEQ_CTR=7
# match arid : 30bb , rid : 30bb
# UVM_INFO ../env/s_agent/axi_s_drv.sv(31) @ 965: uvm_test_top.env_h.s_uvc_h.s_agent_h[0].s_drv_h [ID MATCH] aaaaa
# rd data in s drv: 0 , len : 3 , last:0 , valid : 1
# INIDE_SLAVE_MON_CTR=96
# arid in s mon : 12814
# m mon ar id : 320e
# m mon rid : 30bb
# rd data in s drv: 0 , len : 3 , last:0 , valid : 1
# INIDE_SLAVE_MON_CTR=97
# arid in s mon : 53371
# m mon rid : 30bb
# m mon ar id : d07b
# rd data in s drv: 0 , len : 3 , last:0 , valid : 1
# INIDE_SLAVE_MON_CTR=98
# arid in s mon : 58560
# xyz : 1
# xyz : 2
# xyz : 3
# xyz : 4
# xyz : 5
# xyz : 6
# xyz : 7
# xyz : 8
# xyz : 9
# m mon ar id : e4c0
# m mon rid : 30bb
# s seqs arid : 58560
# INIDE_SLAVE_SEQ_CTR=8
# match arid : e4c0 , rid : e4c0
# UVM_INFO ../env/s_agent/axi_s_drv.sv(31) @ 995: uvm_test_top.env_h.s_uvc_h.s_agent_h[0].s_drv_h [ID MATCH] aaaaa
# rd data in s drv: 0 , len : 3 , last:1 , valid : 1
# INIDE_SLAVE_MON_CTR=99
# arid in s mon : 14820
# req kind : READ
# m mon rid : 30bb
# m mon ar id : 39e4
# UVM_INFO ../env/axi_sb.sv(78) @ 1005: uvm_test_top.env_h.sb_h [after event in sb] aaaa
# UVM_INFO ../env/axi_sb.sv(76) @ 1005: uvm_test_top.env_h.sb_h [before event in sb] aaaa
# rd data in s drv: 0 , len : 8 , last:0 , valid : 1
# INIDE_SLAVE_MON_CTR=100
# arid in s mon : 19785
# m mon ar id : 4d49
# m mon rid : e4c0
# rd data in s drv: 0 , len : 8 , last:0 , valid : 1
# m mon rid : e4c0
# rd data in s drv: 0 , len : 8 , last:0 , valid : 1
# m mon rid : e4c0
# rd data in s drv: 0 , len : 8 , last:0 , valid : 1
# m mon rid : e4c0
# rd data in s drv: 0 , len : 8 , last:0 , valid : 1
# m mon rid : e4c0
# rd data in s drv: 0 , len : 8 , last:0 , valid : 1
# m mon rid : e4c0
# rd data in s drv: 0 , len : 8 , last:0 , valid : 1
# m mon rid : e4c0
# rd data in s drv: 0 , len : 8 , last:0 , valid : 1
# m mon rid : e4c0
# rd data in s drv: 0 , len : 8 , last:1 , valid : 1
# req kind : READ
# m mon rid : e4c0
# UVM_INFO ../env/axi_sb.sv(78) @ 1095: uvm_test_top.env_h.sb_h [after event in sb] aaaa
# UVM_INFO ../env/axi_sb.sv(76) @ 1095: uvm_test_top.env_h.sb_h [before event in sb] aaaa
# abc : 1
# ref model mem : 496
# abc : 2
# ref model mem : 504
# abc : 3
# ref model mem : 512
# abc : 4
# ref model mem : 520
# abc : 5
# ref model mem : 528
# abc : 6
# ref model mem : 536
# abc : 7
# ref model mem : 544
# abc : 8
# ref model mem : 552
# abc : 9
# ref model mem : 560
# abc : 10
# ref model mem : 568
# abc : 11
# ref model mem : 576
# abc : 12
# ref model mem : 584
# abc : 13
# ref model mem : 592
# abc : 14
# ref model mem : 600
# abc : 15
# ref model mem : 608
# abc : 16
# ref model mem : 616
# abc : 17
# ref model mem : 624
# abc : 18
# ref model mem : 632
# abc : 19
# ref model mem : 640
# abc : 20
# ref model mem : 648
# abc : 21
# ref model mem : 656
# abc : 22
# ref model mem : 664
# abc : 23
# ref model mem : 672
# abc : 24
# ref model mem : 680
# abc : 25
# ref model mem : 688
# abc : 26
# ref model mem : 696
# abc : 27
# ref model mem : 704
# abc : 28
# ref model mem : 712
# abc : 29
# ref model mem : 720
# abc : 30
# ref model mem : 728
# abc : 31
# ref model mem : 736
# abc : 32
# ref model mem : 744
# abc : 33
# ref model mem : 752
# abc : 34
# ref model mem : 760
# abc : 35
# ref model mem : 768
# abc : 36
# ref model mem : 776
# abc : 37
# ref model mem : 784
# abc : 38
# ref model mem : 792
# abc : 39
# ref model mem : 800
# abc : 40
# ref model mem : 808
# abc : 41
# ref model mem : 816
# abc : 42
# ref model mem : 824
# abc : 43
# ref model mem : 832
# abc : 44
# ref model mem : 840
# abc : 45
# ref model mem : 848
# abc : 46
# ref model mem : 856
# abc : 47
# ref model mem : 864
# abc : 48
# ref model mem : 872
# abc : 49
# ref model mem : 880
# abc : 50
# ref model mem : 888
# abc : 51
# ref model mem : 896
# abc : 52
# ref model mem : 904
# abc : 53
# ref model mem : 912
# abc : 54
# ref model mem : 920
# abc : 55
# ref model mem : 928
# abc : 56
# ref model mem : 936
# abc : 57
# ref model mem : 944
# abc : 58
# ref model mem : 952
# abc : 59
# ref model mem : 960
# abc : 60
# ref model mem : 968
# abc : 61
# ref model mem : 976
# abc : 62
# ref model mem : 984
# abc : 63
# ref model mem : 992
# abc : 64
# ref model mem : 1000
# abc : 65
# ref model mem : 1008
# abc : 66
# ref model mem : 1016
# abc : 67
# ref model mem : 1024
# abc : 68
# ref model mem : 1032
# abc : 69
# ref model mem : 1040
# abc : 70
# ref model mem : 1048
# abc : 71
# ref model mem : 1056
# abc : 72
# ref model mem : 1064
# abc : 73
# ref model mem : 1072
# abc : 74
# ref model mem : 1080
# abc : 75
# ref model mem : 1088
# abc : 76
# ref model mem : 1096
# abc : 77
# ref model mem : 1104
# abc : 78
# ref model mem : 1112
# abc : 79
# ref model mem : 1120
# abc : 80
# ref model mem : 1128
# abc : 81
# ref model mem : 1136
# abc : 82
# ref model mem : 1144
# abc : 83
# ref model mem : 1152
# abc : 84
# ref model mem : 1160
# abc : 85
# ref model mem : 1168
# abc : 86
# ref model mem : 1176
# abc : 87
# ref model mem : 1184
# abc : 88
# ref model mem : 1192
# abc : 89
# ref model mem : 1200
# abc : 90
# ref model mem : 1208
# abc : 91
# ref model mem : 1216
# abc : 92
# ref model mem : 1224
# abc : 93
# ref model mem : 1232
# abc : 94
# ref model mem : 1240
# abc : 95
# ref model mem : 1248
# abc : 96
# ref model mem : 1256
# abc : 97
# ref model mem : 1264
# xyz : 1
# xyz : 2
# xyz : 3
# xyz : 4
# xyz : 5
# xyz : 6
# xyz : 7
# xyz : 8
# xyz : 9
# xyz : 10
# xyz : 11
# xyz : 12
# xyz : 13
# xyz : 14
# xyz : 15
# xyz : 16
# xyz : 17
# xyz : 18
# xyz : 19
# xyz : 20
# xyz : 21
# xyz : 22
# xyz : 23
# xyz : 24
# xyz : 25
# xyz : 26
# xyz : 27
# xyz : 28
# xyz : 29
# xyz : 30
# xyz : 31
# xyz : 32
# xyz : 33
# xyz : 34
# xyz : 35
# xyz : 36
# xyz : 37
# xyz : 38
# xyz : 39
# xyz : 40
# xyz : 41
# xyz : 42
# xyz : 43
# xyz : 44
# xyz : 45
# xyz : 46
# xyz : 47
# xyz : 48
# xyz : 49
# xyz : 50
# xyz : 51
# xyz : 52
# xyz : 53
# xyz : 54
# xyz : 55
# xyz : 56
# xyz : 57
# xyz : 58
# xyz : 59
# xyz : 60
# xyz : 61
# xyz : 62
# xyz : 63
# xyz : 64
# xyz : 65
# xyz : 66
# xyz : 67
# xyz : 68
# xyz : 69
# xyz : 70
# AFFTER W CHANNEL
# match arid : 0 , rid : 0
# UVM_INFO ../env/s_agent/axi_s_drv.sv(31) @ 1445: uvm_test_top.env_h.s_uvc_h.s_agent_h[0].s_drv_h [ID MATCH] aaaaa
# s seqs arid : 35198
# INIDE_SLAVE_SEQ_CTR=9
# match arid : 897e , rid : 897e
# UVM_INFO ../env/s_agent/axi_s_drv.sv(31) @ 1445: uvm_test_top.env_h.s_uvc_h.s_agent_h[0].s_drv_h [ID MATCH] aaaaa
# s seqs arid : 21001
# INIDE_SLAVE_SEQ_CTR=10
# match arid : 5209 , rid : 5209
# UVM_INFO ../env/s_agent/axi_s_drv.sv(31) @ 1445: uvm_test_top.env_h.s_uvc_h.s_agent_h[0].s_drv_h [ID MATCH] aaaaa
# s seqs arid : 27690
# INIDE_SLAVE_SEQ_CTR=11
# match arid : 6c2a , rid : 6c2a
# UVM_INFO ../env/s_agent/axi_s_drv.sv(31) @ 1445: uvm_test_top.env_h.s_uvc_h.s_agent_h[0].s_drv_h [ID MATCH] aaaaa
# s seqs arid : 55326
# INIDE_SLAVE_SEQ_CTR=12
# match arid : d81e , rid : d81e
# UVM_INFO ../env/s_agent/axi_s_drv.sv(31) @ 1445: uvm_test_top.env_h.s_uvc_h.s_agent_h[0].s_drv_h [ID MATCH] aaaaa
# s seqs arid : 56093
# INIDE_SLAVE_SEQ_CTR=13
# match arid : db1d , rid : db1d
# UVM_INFO ../env/s_agent/axi_s_drv.sv(31) @ 1445: uvm_test_top.env_h.s_uvc_h.s_agent_h[0].s_drv_h [ID MATCH] aaaaa
# s seqs arid : 44591
# INIDE_SLAVE_SEQ_CTR=14
# match arid : ae2f , rid : ae2f
# UVM_INFO ../env/s_agent/axi_s_drv.sv(31) @ 1445: uvm_test_top.env_h.s_uvc_h.s_agent_h[0].s_drv_h [ID MATCH] aaaaa
# s seqs arid : 8855
# INIDE_SLAVE_SEQ_CTR=15
# match arid : 2297 , rid : 2297
# UVM_INFO ../env/s_agent/axi_s_drv.sv(31) @ 1445: uvm_test_top.env_h.s_uvc_h.s_agent_h[0].s_drv_h [ID MATCH] aaaaa
# s seqs arid : 31238
# INIDE_SLAVE_SEQ_CTR=16
# match arid : 7a06 , rid : 7a06
# UVM_INFO ../env/s_agent/axi_s_drv.sv(31) @ 1445: uvm_test_top.env_h.s_uvc_h.s_agent_h[0].s_drv_h [ID MATCH] aaaaa
# s seqs arid : 27406
# INIDE_SLAVE_SEQ_CTR=17
# match arid : 6b0e , rid : 6b0e
# UVM_INFO ../env/s_agent/axi_s_drv.sv(31) @ 1445: uvm_test_top.env_h.s_uvc_h.s_agent_h[0].s_drv_h [ID MATCH] aaaaa
# s seqs arid : 5592
# INIDE_SLAVE_SEQ_CTR=18
# match arid : 15d8 , rid : 15d8
# UVM_INFO ../env/s_agent/axi_s_drv.sv(31) @ 1445: uvm_test_top.env_h.s_uvc_h.s_agent_h[0].s_drv_h [ID MATCH] aaaaa
# rd data in s drv: 0 , len : 3 , last:0 , valid : 1
# m mon rid : 897e
# rd data in s drv: 0 , len : 3 , last:0 , valid : 1
# m mon rid : 897e
# req wid : 59705 , bid:59705
# UVM_INFO ../env/m_agent/axi_base_m_seqs.sv(26) @ 1465: uvm_test_top.env_h.m_uvc_h.m_agent_h[0].m_seqr_h@@vseqs_h.m_wseqs_h [IN V SEQS] Got B-channel response from driver
# rd data in s drv: 0 , len : 3 , last:0 , valid : 1
# m mon rid : 897e
# rd data in s drv: 0 , len : 3 , last:1 , valid : 1
# req kind : READ
# m mon rid : 897e
# UVM_INFO ../env/axi_sb.sv(78) @ 1485: uvm_test_top.env_h.sb_h [after event in sb] aaaa
# UVM_INFO ../env/axi_sb.sv(76) @ 1485: uvm_test_top.env_h.sb_h [before event in sb] aaaa
# rd data in s drv: 0 , len : 10 , last:0 , valid : 1
# m mon rid : 5209
# rd data in s drv: 0 , len : 10 , last:0 , valid : 1
# m mon rid : 5209
# rd data in s drv: 0 , len : 10 , last:0 , valid : 1
# m mon rid : 5209
# rd data in s drv: 0 , len : 10 , last:0 , valid : 1
# m mon rid : 5209
# rd data in s drv: 0 , len : 10 , last:0 , valid : 1
# m mon rid : 5209
# rd data in s drv: 0 , len : 10 , last:0 , valid : 1
# m mon rid : 5209
# rd data in s drv: 0 , len : 10 , last:0 , valid : 1
# m mon rid : 5209
# rd data in s drv: 0 , len : 10 , last:0 , valid : 1
# m mon rid : 5209
# rd data in s drv: 0 , len : 10 , last:0 , valid : 1
# m mon rid : 5209
# rd data in s drv: 0 , len : 10 , last:0 , valid : 1
# m mon rid : 5209
# rd data in s drv: 0 , len : 10 , last:1 , valid : 1
# req kind : READ
# m mon rid : 5209
# UVM_INFO ../env/axi_sb.sv(78) @ 1595: uvm_test_top.env_h.sb_h [after event in sb] aaaa
# UVM_INFO ../env/axi_sb.sv(76) @ 1595: uvm_test_top.env_h.sb_h [before event in sb] aaaa
# rd data in s drv: 0 , len : 0 , last:1 , valid : 1
# req kind : READ
# m mon rid : 6c2a
# UVM_INFO ../env/axi_sb.sv(78) @ 1605: uvm_test_top.env_h.sb_h [after event in sb] aaaa
# UVM_INFO ../env/axi_sb.sv(76) @ 1605: uvm_test_top.env_h.sb_h [before event in sb] aaaa
# rd data in s drv: 0 , len : 10 , last:0 , valid : 1
# m mon rid : d81e
# rd data in s drv: 0 , len : 10 , last:0 , valid : 1
# m mon rid : d81e
# rd data in s drv: 0 , len : 10 , last:0 , valid : 1
# m mon rid : d81e
# rd data in s drv: 0 , len : 10 , last:0 , valid : 1
# m mon rid : d81e
# rd data in s drv: 0 , len : 10 , last:0 , valid : 1
# m mon rid : d81e
# rd data in s drv: 0 , len : 10 , last:0 , valid : 1
# m mon rid : d81e
# rd data in s drv: 0 , len : 10 , last:0 , valid : 1
# m mon rid : d81e
# rd data in s drv: 0 , len : 10 , last:0 , valid : 1
# m mon rid : d81e
# rd data in s drv: 0 , len : 10 , last:0 , valid : 1
# m mon rid : d81e
# rd data in s drv: 0 , len : 10 , last:0 , valid : 1
# m mon rid : d81e
# rd data in s drv: 0 , len : 10 , last:1 , valid : 1
# req kind : READ
# m mon rid : d81e
# UVM_INFO ../env/axi_sb.sv(78) @ 1715: uvm_test_top.env_h.sb_h [after event in sb] aaaa
# UVM_INFO ../env/axi_sb.sv(76) @ 1715: uvm_test_top.env_h.sb_h [before event in sb] aaaa
# rd data in s drv: 0 , len : 3 , last:0 , valid : 1
# m mon rid : db1d
# rd data in s drv: 0 , len : 3 , last:0 , valid : 1
# m mon rid : db1d
# rd data in s drv: 0 , len : 3 , last:0 , valid : 1
# m mon rid : db1d
# rd data in s drv: 0 , len : 3 , last:1 , valid : 1
# req kind : READ
# m mon rid : db1d
# UVM_INFO ../env/axi_sb.sv(78) @ 1755: uvm_test_top.env_h.sb_h [after event in sb] aaaa
# UVM_INFO ../env/axi_sb.sv(76) @ 1755: uvm_test_top.env_h.sb_h [before event in sb] aaaa
# rd data in s drv: 0 , len : 4 , last:0 , valid : 1
# m mon rid : ae2f
# rd data in s drv: 0 , len : 4 , last:0 , valid : 1
# m mon rid : ae2f
# rd data in s drv: 0 , len : 4 , last:0 , valid : 1
# m mon rid : ae2f
# rd data in s drv: 0 , len : 4 , last:0 , valid : 1
# abc : 1
# ref model mem : 219
# abc : 2
# ref model mem : 227
# abc : 3
# ref model mem : 235
# abc : 4
# ref model mem : 243
# abc : 5
# ref model mem : 251
# abc : 6
# ref model mem : 259
# abc : 7
# ref model mem : 267
# abc : 8
# ref model mem : 275
# abc : 9
# ref model mem : 283
# abc : 10
# ref model mem : 291
# abc : 11
# ref model mem : 299
# abc : 12
# ref model mem : 307
# abc : 13
# ref model mem : 315
# abc : 14
# ref model mem : 323
# abc : 15
# ref model mem : 331
# abc : 16
# ref model mem : 339
# abc : 17
# ref model mem : 347
# abc : 18
# ref model mem : 355
# abc : 19
# ref model mem : 363
# abc : 20
# ref model mem : 371
# abc : 21
# ref model mem : 379
# abc : 22
# ref model mem : 387
# abc : 23
# ref model mem : 395
# abc : 24
# ref model mem : 403
# abc : 25
# ref model mem : 411
# abc : 26
# ref model mem : 419
# abc : 27
# ref model mem : 427
# abc : 28
# ref model mem : 435
# abc : 29
# ref model mem : 443
# abc : 30
# ref model mem : 451
# abc : 31
# ref model mem : 459
# abc : 32
# ref model mem : 467
# abc : 33
# ref model mem : 475
# abc : 34
# ref model mem : 483
# abc : 35
# ref model mem : 491
# xyz : 1
# xyz : 2
# xyz : 3
# xyz : 4
# xyz : 5
# xyz : 6
# xyz : 7
# xyz : 8
# xyz : 9
# xyz : 10
# xyz : 11
# xyz : 12
# xyz : 13
# xyz : 14
# xyz : 15
# xyz : 16
# xyz : 17
# AFFTER W CHANNEL
# m mon rid : ae2f
# match arid : 0 , rid : 0
# UVM_INFO ../env/s_agent/axi_s_drv.sv(31) @ 1795: uvm_test_top.env_h.s_uvc_h.s_agent_h[0].s_drv_h [ID MATCH] aaaaa
# s seqs arid : 7915
# INIDE_SLAVE_SEQ_CTR=19
# match arid : 1eeb , rid : 1eeb
# UVM_INFO ../env/s_agent/axi_s_drv.sv(31) @ 1795: uvm_test_top.env_h.s_uvc_h.s_agent_h[0].s_drv_h [ID MATCH] aaaaa
# s seqs arid : 47319
# INIDE_SLAVE_SEQ_CTR=20
# match arid : b8d7 , rid : b8d7
# UVM_INFO ../env/s_agent/axi_s_drv.sv(31) @ 1795: uvm_test_top.env_h.s_uvc_h.s_agent_h[0].s_drv_h [ID MATCH] aaaaa
# s seqs arid : 40717
# INIDE_SLAVE_SEQ_CTR=21
# match arid : 9f0d , rid : 9f0d
# UVM_INFO ../env/s_agent/axi_s_drv.sv(31) @ 1795: uvm_test_top.env_h.s_uvc_h.s_agent_h[0].s_drv_h [ID MATCH] aaaaa
# rd data in s drv: 0 , len : 4 , last:1 , valid : 1
# req kind : READ
# m mon rid : ae2f
# UVM_INFO ../env/axi_sb.sv(78) @ 1805: uvm_test_top.env_h.sb_h [after event in sb] aaaa
# UVM_INFO ../env/axi_sb.sv(76) @ 1805: uvm_test_top.env_h.sb_h [before event in sb] aaaa
# rd data in s drv: 0 , len : 9 , last:0 , valid : 1
# m mon rid : 2297
# req wid : 14337 , bid:14337
# UVM_INFO ../env/m_agent/axi_base_m_seqs.sv(26) @ 1815: uvm_test_top.env_h.m_uvc_h.m_agent_h[0].m_seqr_h@@vseqs_h.m_wseqs_h [IN V SEQS] Got B-channel response from driver
# rd data in s drv: 0 , len : 9 , last:0 , valid : 1
# m mon rid : 2297
# rd data in s drv: 0 , len : 9 , last:0 , valid : 1
# m mon rid : 2297
# rd data in s drv: 0 , len : 9 , last:0 , valid : 1
# m mon rid : 2297
# rd data in s drv: 0 , len : 9 , last:0 , valid : 1
# m mon rid : 2297
# rd data in s drv: 0 , len : 9 , last:0 , valid : 1
# m mon rid : 2297
# rd data in s drv: 0 , len : 9 , last:0 , valid : 1
# m mon rid : 2297
# rd data in s drv: 0 , len : 9 , last:0 , valid : 1
# m mon rid : 2297
# rd data in s drv: 0 , len : 9 , last:0 , valid : 1
# m mon rid : 2297
# rd data in s drv: 0 , len : 9 , last:1 , valid : 1
# req kind : READ
# m mon rid : 2297
# UVM_INFO ../env/axi_sb.sv(78) @ 1905: uvm_test_top.env_h.sb_h [after event in sb] aaaa
# UVM_INFO ../env/axi_sb.sv(76) @ 1905: uvm_test_top.env_h.sb_h [before event in sb] aaaa
# rd data in s drv: 0 , len : 3 , last:0 , valid : 1
# m mon rid : 7a06
# rd data in s drv: 0 , len : 3 , last:0 , valid : 1
# m mon rid : 7a06
# rd data in s drv: 0 , len : 3 , last:0 , valid : 1
# m mon rid : 7a06
# rd data in s drv: 0 , len : 3 , last:1 , valid : 1
# req kind : READ
# m mon rid : 7a06
# UVM_INFO ../env/axi_sb.sv(78) @ 1945: uvm_test_top.env_h.sb_h [after event in sb] aaaa
# UVM_INFO ../env/axi_sb.sv(76) @ 1945: uvm_test_top.env_h.sb_h [before event in sb] aaaa
# rd data in s drv: 0 , len : 10 , last:0 , valid : 1
# m mon rid : 6b0e
# rd data in s drv: 0 , len : 10 , last:0 , valid : 1
# m mon rid : 6b0e
# rd data in s drv: 0 , len : 10 , last:0 , valid : 1
# m mon rid : 6b0e
# rd data in s drv: 0 , len : 10 , last:0 , valid : 1
# m mon rid : 6b0e
# rd data in s drv: 0 , len : 10 , last:0 , valid : 1
# m mon rid : 6b0e
# rd data in s drv: 0 , len : 10 , last:0 , valid : 1
# m mon rid : 6b0e
# rd data in s drv: 0 , len : 10 , last:0 , valid : 1
# m mon rid : 6b0e
# rd data in s drv: 0 , len : 10 , last:0 , valid : 1
# m mon rid : 6b0e
# rd data in s drv: 0 , len : 10 , last:0 , valid : 1
# m mon rid : 6b0e
# rd data in s drv: 0 , len : 10 , last:0 , valid : 1
# m mon rid : 6b0e
# rd data in s drv: 0 , len : 10 , last:1 , valid : 1
# req kind : READ
# m mon rid : 6b0e
# UVM_INFO ../env/axi_sb.sv(78) @ 2055: uvm_test_top.env_h.sb_h [after event in sb] aaaa
# UVM_INFO ../env/axi_sb.sv(76) @ 2055: uvm_test_top.env_h.sb_h [before event in sb] aaaa
# rd data in s drv: 0 , len : 8 , last:0 , valid : 1
# m mon rid : 15d8
# rd data in s drv: 0 , len : 8 , last:0 , valid : 1
# m mon rid : 15d8
# rd data in s drv: 0 , len : 8 , last:0 , valid : 1
# m mon rid : 15d8
# rd data in s drv: 0 , len : 8 , last:0 , valid : 1
# m mon rid : 15d8
# rd data in s drv: 0 , len : 8 , last:0 , valid : 1
# m mon rid : 15d8
# rd data in s drv: 0 , len : 8 , last:0 , valid : 1
# m mon rid : 15d8
# rd data in s drv: 0 , len : 8 , last:0 , valid : 1
# m mon rid : 15d8
# rd data in s drv: 0 , len : 8 , last:0 , valid : 1
# m mon rid : 15d8
# rd data in s drv: 0 , len : 8 , last:1 , valid : 1
# req kind : READ
# m mon rid : 15d8
# UVM_INFO ../env/axi_sb.sv(78) @ 2145: uvm_test_top.env_h.sb_h [after event in sb] aaaa
# UVM_INFO ../env/axi_sb.sv(76) @ 2145: uvm_test_top.env_h.sb_h [before event in sb] aaaa
# rd data in s drv: 0 , len : 4 , last:0 , valid : 1
# abc : 1
# ref model mem : 801
# abc : 2
# ref model mem : 809
# abc : 3
# ref model mem : 817
# abc : 4
# ref model mem : 825
# abc : 5
# ref model mem : 833
# abc : 6
# ref model mem : 841
# abc : 7
# ref model mem : 849
# abc : 8
# ref model mem : 857
# abc : 9
# ref model mem : 865
# abc : 10
# ref model mem : 873
# abc : 11
# ref model mem : 881
# abc : 12
# ref model mem : 889
# abc : 13
# ref model mem : 897
# abc : 14
# ref model mem : 905
# abc : 15
# ref model mem : 913
# abc : 16
# ref model mem : 921
# abc : 17
# ref model mem : 929
# abc : 18
# ref model mem : 937
# abc : 19
# ref model mem : 945
# abc : 20
# ref model mem : 953
# abc : 21
# ref model mem : 961
# abc : 22
# ref model mem : 969
# abc : 23
# ref model mem : 977
# abc : 24
# ref model mem : 985
# abc : 25
# ref model mem : 993
# abc : 26
# ref model mem : 1001
# abc : 27
# ref model mem : 1009
# abc : 28
# ref model mem : 1017
# abc : 29
# ref model mem : 1025
# abc : 30
# ref model mem : 1033
# abc : 31
# ref model mem : 1041
# abc : 32
# ref model mem : 1049
# abc : 33
# ref model mem : 1057
# abc : 34
# ref model mem : 1065
# abc : 35
# ref model mem : 1073
# abc : 36
# ref model mem : 1081
# xyz : 1
# xyz : 2
# xyz : 3
# xyz : 4
# xyz : 5
# xyz : 6
# xyz : 7
# xyz : 8
# xyz : 9
# xyz : 10
# xyz : 11
# xyz : 12
# xyz : 13
# xyz : 14
# xyz : 15
# xyz : 16
# xyz : 17
# xyz : 18
# xyz : 19
# xyz : 20
# xyz : 21
# xyz : 22
# xyz : 23
# xyz : 24
# xyz : 25
# xyz : 26
# AFFTER W CHANNEL
# m mon rid : 1eeb
# match arid : 0 , rid : 0
# UVM_INFO ../env/s_agent/axi_s_drv.sv(31) @ 2155: uvm_test_top.env_h.s_uvc_h.s_agent_h[0].s_drv_h [ID MATCH] aaaaa
# s seqs arid : 29180
# INIDE_SLAVE_SEQ_CTR=22
# match arid : 71fc , rid : 71fc
# UVM_INFO ../env/s_agent/axi_s_drv.sv(31) @ 2155: uvm_test_top.env_h.s_uvc_h.s_agent_h[0].s_drv_h [ID MATCH] aaaaa
# s seqs arid : 5462
# INIDE_SLAVE_SEQ_CTR=23
# match arid : 1556 , rid : 1556
# UVM_INFO ../env/s_agent/axi_s_drv.sv(31) @ 2155: uvm_test_top.env_h.s_uvc_h.s_agent_h[0].s_drv_h [ID MATCH] aaaaa
# s seqs arid : 53371
# INIDE_SLAVE_SEQ_CTR=24
# match arid : d07b , rid : d07b
# UVM_INFO ../env/s_agent/axi_s_drv.sv(31) @ 2155: uvm_test_top.env_h.s_uvc_h.s_agent_h[0].s_drv_h [ID MATCH] aaaaa
# rd data in s drv: 0 , len : 4 , last:0 , valid : 1
# m mon rid : 1eeb
# rd data in s drv: 0 , len : 4 , last:0 , valid : 1
# m mon rid : 1eeb
# req wid : 2105 , bid:2105
# UVM_INFO ../env/m_agent/axi_base_m_seqs.sv(26) @ 2175: uvm_test_top.env_h.m_uvc_h.m_agent_h[0].m_seqr_h@@vseqs_h.m_wseqs_h [IN V SEQS] Got B-channel response from driver
# rd data in s drv: 0 , len : 4 , last:0 , valid : 1
# m mon rid : 1eeb
# rd data in s drv: 0 , len : 4 , last:1 , valid : 1
# req kind : READ
# m mon rid : 1eeb
# UVM_INFO ../env/axi_sb.sv(78) @ 2195: uvm_test_top.env_h.sb_h [after event in sb] aaaa
# UVM_INFO ../env/axi_sb.sv(76) @ 2195: uvm_test_top.env_h.sb_h [before event in sb] aaaa
# rd data in s drv: 0 , len : 0 , last:1 , valid : 1
# req kind : READ
# m mon rid : b8d7
# UVM_INFO ../env/axi_sb.sv(78) @ 2205: uvm_test_top.env_h.sb_h [after event in sb] aaaa
# UVM_INFO ../env/axi_sb.sv(76) @ 2205: uvm_test_top.env_h.sb_h [before event in sb] aaaa
# rd data in s drv: 0 , len : 10 , last:0 , valid : 1
# m mon rid : 9f0d
# rd data in s drv: 0 , len : 10 , last:0 , valid : 1
# m mon rid : 9f0d
# rd data in s drv: 0 , len : 10 , last:0 , valid : 1
# m mon rid : 9f0d
# rd data in s drv: 0 , len : 10 , last:0 , valid : 1
# m mon rid : 9f0d
# rd data in s drv: 0 , len : 10 , last:0 , valid : 1
# m mon rid : 9f0d
# rd data in s drv: 0 , len : 10 , last:0 , valid : 1
# m mon rid : 9f0d
# rd data in s drv: 0 , len : 10 , last:0 , valid : 1
# m mon rid : 9f0d
# rd data in s drv: 0 , len : 10 , last:0 , valid : 1
# m mon rid : 9f0d
# rd data in s drv: 0 , len : 10 , last:0 , valid : 1
# m mon rid : 9f0d
# rd data in s drv: 0 , len : 10 , last:0 , valid : 1
# m mon rid : 9f0d
# rd data in s drv: 0 , len : 10 , last:1 , valid : 1
# req kind : READ
# m mon rid : 9f0d
# UVM_INFO ../env/axi_sb.sv(78) @ 2315: uvm_test_top.env_h.sb_h [after event in sb] aaaa
# UVM_INFO ../env/axi_sb.sv(76) @ 2315: uvm_test_top.env_h.sb_h [before event in sb] aaaa
# rd data in s drv: 0 , len : 9 , last:0 , valid : 1
# m mon rid : 71fc
# rd data in s drv: 0 , len : 9 , last:0 , valid : 1
# m mon rid : 71fc
# rd data in s drv: 0 , len : 9 , last:0 , valid : 1
# m mon rid : 71fc
# rd data in s drv: 0 , len : 9 , last:0 , valid : 1
# m mon rid : 71fc
# rd data in s drv: 0 , len : 9 , last:0 , valid : 1
# m mon rid : 71fc
# rd data in s drv: 0 , len : 9 , last:0 , valid : 1
# m mon rid : 71fc
# rd data in s drv: 0 , len : 9 , last:0 , valid : 1
# m mon rid : 71fc
# rd data in s drv: 0 , len : 9 , last:0 , valid : 1
# m mon rid : 71fc
# rd data in s drv: 0 , len : 9 , last:0 , valid : 1
# m mon rid : 71fc
# rd data in s drv: 0 , len : 9 , last:1 , valid : 1
# req kind : READ
# m mon rid : 71fc
# UVM_INFO ../env/axi_sb.sv(78) @ 2415: uvm_test_top.env_h.sb_h [after event in sb] aaaa
# UVM_INFO ../env/axi_sb.sv(76) @ 2415: uvm_test_top.env_h.sb_h [before event in sb] aaaa
# rd data in s drv: 0 , len : 6 , last:0 , valid : 1
# m mon rid : 1556
# rd data in s drv: 0 , len : 6 , last:0 , valid : 1
# m mon rid : 1556
# rd data in s drv: 0 , len : 6 , last:0 , valid : 1
# m mon rid : 1556
# rd data in s drv: 0 , len : 6 , last:0 , valid : 1
# m mon rid : 1556
# rd data in s drv: 0 , len : 6 , last:0 , valid : 1
# m mon rid : 1556
# rd data in s drv: 0 , len : 6 , last:0 , valid : 1
# m mon rid : 1556
# rd data in s drv: 0 , len : 6 , last:1 , valid : 1
# req kind : READ
# m mon rid : 1556
# UVM_INFO ../env/axi_sb.sv(78) @ 2485: uvm_test_top.env_h.sb_h [after event in sb] aaaa
# UVM_INFO ../env/axi_sb.sv(76) @ 2485: uvm_test_top.env_h.sb_h [before event in sb] aaaa
# rd data in s drv: 0 , len : 8 , last:0 , valid : 1
# m mon rid : d07b
# rd data in s drv: 0 , len : 8 , last:0 , valid : 1
# m mon rid : d07b
# rd data in s drv: 0 , len : 8 , last:0 , valid : 1
# m mon rid : d07b
# rd data in s drv: 0 , len : 8 , last:0 , valid : 1
# m mon rid : d07b
# rd data in s drv: 0 , len : 8 , last:0 , valid : 1
# m mon rid : d07b
# rd data in s drv: 0 , len : 8 , last:0 , valid : 1
# m mon rid : d07b
# rd data in s drv: 0 , len : 8 , last:0 , valid : 1
# m mon rid : d07b
# rd data in s drv: 0 , len : 8 , last:0 , valid : 1
# m mon rid : d07b
# rd data in s drv: 0 , len : 8 , last:1 , valid : 1
# req kind : READ
# m mon rid : d07b
# UVM_INFO ../env/axi_sb.sv(78) @ 2575: uvm_test_top.env_h.sb_h [after event in sb] aaaa
# UVM_INFO ../env/axi_sb.sv(76) @ 2575: uvm_test_top.env_h.sb_h [before event in sb] aaaa
# abc : 1
# ref model mem : 970
# abc : 2
# ref model mem : 978
# abc : 3
# ref model mem : 986
# abc : 4
# ref model mem : 994
# abc : 5
# ref model mem : 1002
# abc : 6
# ref model mem : 1010
# abc : 7
# ref model mem : 1018
# abc : 8
# ref model mem : 1026
# abc : 9
# ref model mem : 1034
# abc : 10
# ref model mem : 1042
# abc : 11
# ref model mem : 1050
# abc : 12
# ref model mem : 1058
# abc : 13
# ref model mem : 1066
# abc : 14
# ref model mem : 1074
# abc : 15
# ref model mem : 1082
# abc : 16
# ref model mem : 1090
# abc : 17
# ref model mem : 1098
# abc : 18
# ref model mem : 1106
# abc : 19
# ref model mem : 1114
# abc : 20
# ref model mem : 1122
# abc : 21
# ref model mem : 1130
# abc : 22
# ref model mem : 1138
# abc : 23
# ref model mem : 1146
# abc : 24
# ref model mem : 1154
# abc : 25
# ref model mem : 1162
# abc : 26
# ref model mem : 1170
# abc : 27
# ref model mem : 1178
# abc : 28
# ref model mem : 1186
# abc : 29
# ref model mem : 1194
# abc : 30
# ref model mem : 1202
# abc : 31
# ref model mem : 1210
# abc : 32
# ref model mem : 1218
# abc : 33
# ref model mem : 1226
# abc : 34
# ref model mem : 1234
# abc : 35
# ref model mem : 1242
# abc : 36
# ref model mem : 1250
# abc : 37
# ref model mem : 1258
# abc : 38
# ref model mem : 1266
# abc : 39
# ref model mem : 1274
# abc : 40
# ref model mem : 1282
# abc : 41
# ref model mem : 1290
# abc : 42
# ref model mem : 1298
# abc : 43
# ref model mem : 1306
# abc : 44
# ref model mem : 1314
# abc : 45
# ref model mem : 1322
# abc : 46
# ref model mem : 1330
# abc : 47
# ref model mem : 1338
# abc : 48
# ref model mem : 1346
# abc : 49
# ref model mem : 1354
# abc : 50
# ref model mem : 1362
# abc : 51
# ref model mem : 1370
# abc : 52
# ref model mem : 1378
# abc : 53
# ref model mem : 1386
# abc : 54
# ref model mem : 1394
# abc : 55
# ref model mem : 1402
# abc : 56
# ref model mem : 1410
# abc : 57
# ref model mem : 1418
# abc : 58
# ref model mem : 1426
# abc : 59
# ref model mem : 1434
# abc : 60
# ref model mem : 1442
# abc : 61
# ref model mem : 1450
# abc : 62
# ref model mem : 1458
# abc : 63
# ref model mem : 1466
# abc : 64
# ref model mem : 1474
# abc : 65
# ref model mem : 1482
# abc : 66
# ref model mem : 1490
# abc : 67
# ref model mem : 1498
# abc : 68
# ref model mem : 1506
# abc : 69
# ref model mem : 1514
# abc : 70
# ref model mem : 1522
# abc : 71
# ref model mem : 1530
# abc : 72
# ref model mem : 1538
# abc : 73
# ref model mem : 1546
# abc : 74
# ref model mem : 1554
# abc : 75
# ref model mem : 1562
# abc : 76
# ref model mem : 1570
# abc : 77
# ref model mem : 1578
# abc : 78
# ref model mem : 1586
# abc : 79
# ref model mem : 1594
# abc : 80
# ref model mem : 1602
# abc : 81
# ref model mem : 1610
# abc : 82
# ref model mem : 1618
# abc : 83
# ref model mem : 1626
# abc : 84
# ref model mem : 1634
# abc : 85
# ref model mem : 1642
# abc : 86
# ref model mem : 1650
# abc : 87
# ref model mem : 1658
# xyz : 1
# xyz : 2
# xyz : 3
# xyz : 4
# xyz : 5
# AFFTER W CHANNEL
# match arid : 0 , rid : 0
# UVM_INFO ../env/s_agent/axi_s_drv.sv(31) @ 3025: uvm_test_top.env_h.s_uvc_h.s_agent_h[0].s_drv_h [ID MATCH] aaaaa
# s seqs arid : 21255
# INIDE_SLAVE_SEQ_CTR=25
# match arid : 5307 , rid : 5307
# UVM_INFO ../env/s_agent/axi_s_drv.sv(31) @ 3025: uvm_test_top.env_h.s_uvc_h.s_agent_h[0].s_drv_h [ID MATCH] aaaaa
# rd data in s drv: 0 , len : 4 , last:0 , valid : 1
# m mon rid : 5307
# rd data in s drv: 0 , len : 4 , last:0 , valid : 1
# m mon rid : 5307
# req wid : 47026 , bid:47026
# UVM_INFO ../env/m_agent/axi_base_m_seqs.sv(26) @ 3045: uvm_test_top.env_h.m_uvc_h.m_agent_h[0].m_seqr_h@@vseqs_h.m_wseqs_h [IN V SEQS] Got B-channel response from driver
# rd data in s drv: 0 , len : 4 , last:0 , valid : 1
# m mon rid : 5307
# rd data in s drv: 0 , len : 4 , last:0 , valid : 1
# m mon rid : 5307
# rd data in s drv: 0 , len : 4 , last:1 , valid : 1
# req kind : READ
# m mon rid : 5307
# UVM_INFO ../env/axi_sb.sv(78) @ 3075: uvm_test_top.env_h.sb_h [after event in sb] aaaa
# UVM_INFO ../env/axi_sb.sv(76) @ 3075: uvm_test_top.env_h.sb_h [before event in sb] aaaa
# abc : 1
# ref model mem : 656
# abc : 2
# ref model mem : 664
# abc : 3
# ref model mem : 672
# abc : 4
# ref model mem : 680
# abc : 5
# ref model mem : 688
# abc : 6
# ref model mem : 696
# abc : 7
# ref model mem : 704
# abc : 8
# ref model mem : 712
# abc : 9
# ref model mem : 720
# abc : 10
# ref model mem : 728
# abc : 11
# ref model mem : 736
# abc : 12
# ref model mem : 744
# abc : 13
# ref model mem : 752
# abc : 14
# ref model mem : 760
# abc : 15
# ref model mem : 768
# abc : 16
# ref model mem : 776
# abc : 17
# ref model mem : 784
# abc : 18
# ref model mem : 792
# abc : 19
# ref model mem : 800
# abc : 20
# ref model mem : 808
# abc : 21
# ref model mem : 816
# abc : 22
# ref model mem : 824
# abc : 23
# ref model mem : 832
# abc : 24
# ref model mem : 840
# abc : 25
# ref model mem : 848
# abc : 26
# ref model mem : 856
# abc : 27
# ref model mem : 864
# abc : 28
# ref model mem : 872
# abc : 29
# ref model mem : 880
# abc : 30
# ref model mem : 888
# abc : 31
# ref model mem : 896
# abc : 32
# ref model mem : 904
# abc : 33
# ref model mem : 912
# abc : 34
# ref model mem : 920
# abc : 35
# ref model mem : 928
# AFFTER W CHANNEL
# match arid : 0 , rid : 0
# UVM_INFO ../env/s_agent/axi_s_drv.sv(31) @ 3375: uvm_test_top.env_h.s_uvc_h.s_agent_h[0].s_drv_h [ID MATCH] aaaaa
# req wid : 1578 , bid:1578
# UVM_INFO ../env/m_agent/axi_base_m_seqs.sv(26) @ 3395: uvm_test_top.env_h.m_uvc_h.m_agent_h[0].m_seqr_h@@vseqs_h.m_wseqs_h [IN V SEQS] Got B-channel response from driver
# abc : 1
# ref model mem : 403
# abc : 2
# ref model mem : 411
# abc : 3
# ref model mem : 419
# abc : 4
# ref model mem : 427
# abc : 5
# ref model mem : 435
# abc : 6
# ref model mem : 443
# abc : 7
# ref model mem : 451
# abc : 8
# ref model mem : 459
# abc : 9
# ref model mem : 467
# abc : 10
# ref model mem : 475
# abc : 11
# ref model mem : 483
# abc : 12
# ref model mem : 491
# abc : 13
# ref model mem : 499
# abc : 14
# ref model mem : 507
# abc : 15
# ref model mem : 515
# abc : 16
# ref model mem : 523
# abc : 17
# ref model mem : 531
# abc : 18
# ref model mem : 539
# abc : 19
# ref model mem : 547
# abc : 20
# ref model mem : 555
# abc : 21
# ref model mem : 563
# abc : 22
# ref model mem : 571
# abc : 23
# ref model mem : 579
# abc : 24
# ref model mem : 587
# abc : 25
# ref model mem : 595
# abc : 26
# ref model mem : 603
# abc : 27
# ref model mem : 611
# abc : 28
# ref model mem : 619
# abc : 29
# ref model mem : 627
# abc : 30
# ref model mem : 635
# abc : 31
# ref model mem : 643
# abc : 32
# ref model mem : 651
# abc : 33
# ref model mem : 659
# abc : 34
# ref model mem : 667
# abc : 35
# ref model mem : 675
# abc : 36
# ref model mem : 683
# abc : 37
# ref model mem : 691
# abc : 38
# ref model mem : 699
# abc : 39
# ref model mem : 707
# abc : 40
# ref model mem : 715
# abc : 41
# ref model mem : 723
# abc : 42
# ref model mem : 731
# abc : 43
# ref model mem : 739
# abc : 44
# ref model mem : 747
# abc : 45
# ref model mem : 755
# abc : 46
# ref model mem : 763
# abc : 47
# ref model mem : 771
# abc : 48
# ref model mem : 779
# abc : 49
# ref model mem : 787
# abc : 50
# ref model mem : 795
# abc : 51
# ref model mem : 803
# abc : 52
# ref model mem : 811
# abc : 53
# ref model mem : 819
# abc : 54
# ref model mem : 827
# abc : 55
# ref model mem : 835
# abc : 56
# ref model mem : 843
# abc : 57
# ref model mem : 851
# abc : 58
# ref model mem : 859
# abc : 59
# ref model mem : 867
# abc : 60
# ref model mem : 875
# abc : 61
# ref model mem : 883
# abc : 62
# ref model mem : 891
# abc : 63
# ref model mem : 899
# abc : 64
# ref model mem : 907
# abc : 65
# ref model mem : 915
# abc : 66
# ref model mem : 923
# abc : 67
# ref model mem : 931
# abc : 68
# ref model mem : 939
# abc : 69
# ref model mem : 947
# abc : 70
# ref model mem : 955
# abc : 71
# ref model mem : 963
# abc : 72
# ref model mem : 971
# abc : 73
# ref model mem : 979
# abc : 74
# ref model mem : 987
# abc : 75
# ref model mem : 995
# abc : 76
# ref model mem : 1003
# abc : 77
# ref model mem : 1011
# abc : 78
# ref model mem : 1019
# abc : 79
# ref model mem : 1027
# xyz : 1
# xyz : 2
# xyz : 3
# xyz : 4
# xyz : 5
# xyz : 6
# xyz : 7
# xyz : 8
# xyz : 9
# xyz : 10
# xyz : 11
# xyz : 12
# xyz : 13
# xyz : 14
# xyz : 15
# xyz : 16
# xyz : 17
# xyz : 18
# xyz : 19
# xyz : 20
# xyz : 21
# xyz : 22
# xyz : 23
# xyz : 24
# xyz : 25
# xyz : 26
# xyz : 27
# xyz : 28
# xyz : 29
# xyz : 30
# xyz : 31
# xyz : 32
# xyz : 33
# xyz : 34
# xyz : 35
# xyz : 36
# xyz : 37
# xyz : 38
# AFFTER W CHANNEL
# match arid : 0 , rid : 0
# UVM_INFO ../env/s_agent/axi_s_drv.sv(31) @ 4165: uvm_test_top.env_h.s_uvc_h.s_agent_h[0].s_drv_h [ID MATCH] aaaaa
# s seqs arid : 46526
# INIDE_SLAVE_SEQ_CTR=26
# match arid : b5be , rid : b5be
# UVM_INFO ../env/s_agent/axi_s_drv.sv(31) @ 4165: uvm_test_top.env_h.s_uvc_h.s_agent_h[0].s_drv_h [ID MATCH] aaaaa
# s seqs arid : 62872
# INIDE_SLAVE_SEQ_CTR=27
# match arid : f598 , rid : f598
# UVM_INFO ../env/s_agent/axi_s_drv.sv(31) @ 4165: uvm_test_top.env_h.s_uvc_h.s_agent_h[0].s_drv_h [ID MATCH] aaaaa
# s seqs arid : 58276
# INIDE_SLAVE_SEQ_CTR=28
# match arid : e3a4 , rid : e3a4
# UVM_INFO ../env/s_agent/axi_s_drv.sv(31) @ 4165: uvm_test_top.env_h.s_uvc_h.s_agent_h[0].s_drv_h [ID MATCH] aaaaa
# s seqs arid : 12460
# INIDE_SLAVE_SEQ_CTR=29
# match arid : 30ac , rid : 30ac
# UVM_INFO ../env/s_agent/axi_s_drv.sv(31) @ 4165: uvm_test_top.env_h.s_uvc_h.s_agent_h[0].s_drv_h [ID MATCH] aaaaa
# rd data in s drv: 0 , len : 8 , last:0 , valid : 1
# m mon rid : b5be
# rd data in s drv: 0 , len : 8 , last:0 , valid : 1
# m mon rid : b5be
# req wid : 26387 , bid:26387
# UVM_INFO ../env/m_agent/axi_base_m_seqs.sv(26) @ 4185: uvm_test_top.env_h.m_uvc_h.m_agent_h[0].m_seqr_h@@vseqs_h.m_wseqs_h [IN V SEQS] Got B-channel response from driver
# rd data in s drv: 0 , len : 8 , last:0 , valid : 1
# m mon rid : b5be
# rd data in s drv: 0 , len : 8 , last:0 , valid : 1
# m mon rid : b5be
# rd data in s drv: 0 , len : 8 , last:0 , valid : 1
# m mon rid : b5be
# rd data in s drv: 0 , len : 8 , last:0 , valid : 1
# m mon rid : b5be
# rd data in s drv: 0 , len : 8 , last:0 , valid : 1
# m mon rid : b5be
# rd data in s drv: 0 , len : 8 , last:0 , valid : 1
# m mon rid : b5be
# rd data in s drv: 0 , len : 8 , last:1 , valid : 1
# req kind : READ
# m mon rid : b5be
# UVM_INFO ../env/axi_sb.sv(78) @ 4255: uvm_test_top.env_h.sb_h [after event in sb] aaaa
# UVM_INFO ../env/axi_sb.sv(76) @ 4255: uvm_test_top.env_h.sb_h [before event in sb] aaaa
# rd data in s drv: 0 , len : 7 , last:0 , valid : 1
# m mon rid : f598
# rd data in s drv: 0 , len : 7 , last:0 , valid : 1
# m mon rid : f598
# rd data in s drv: 0 , len : 7 , last:0 , valid : 1
# m mon rid : f598
# rd data in s drv: 0 , len : 7 , last:0 , valid : 1
# m mon rid : f598
# rd data in s drv: 0 , len : 7 , last:0 , valid : 1
# abc : 1
# ref model mem : 954
# abc : 2
# ref model mem : 962
# abc : 3
# ref model mem : 970
# abc : 4
# ref model mem : 978
# abc : 5
# ref model mem : 986
# abc : 6
# ref model mem : 994
# abc : 7
# ref model mem : 1002
# abc : 8
# ref model mem : 1010
# abc : 9
# ref model mem : 1018
# abc : 10
# ref model mem : 1026
# abc : 11
# ref model mem : 1034
# abc : 12
# ref model mem : 1042
# abc : 13
# ref model mem : 1050
# abc : 14
# ref model mem : 1058
# xyz : 1
# xyz : 2
# xyz : 3
# xyz : 4
# xyz : 5
# xyz : 6
# xyz : 7
# xyz : 8
# xyz : 9
# xyz : 10
# xyz : 11
# xyz : 12
# xyz : 13
# AFFTER W CHANNEL
# m mon rid : f598
# match arid : 0 , rid : 0
# UVM_INFO ../env/s_agent/axi_s_drv.sv(31) @ 4305: uvm_test_top.env_h.s_uvc_h.s_agent_h[0].s_drv_h [ID MATCH] aaaaa
# s seqs arid : 20867
# INIDE_SLAVE_SEQ_CTR=30
# match arid : 5183 , rid : 5183
# UVM_INFO ../env/s_agent/axi_s_drv.sv(31) @ 4305: uvm_test_top.env_h.s_uvc_h.s_agent_h[0].s_drv_h [ID MATCH] aaaaa
# s seqs arid : 61088
# INIDE_SLAVE_SEQ_CTR=31
# match arid : eea0 , rid : eea0
# UVM_INFO ../env/s_agent/axi_s_drv.sv(31) @ 4305: uvm_test_top.env_h.s_uvc_h.s_agent_h[0].s_drv_h [ID MATCH] aaaaa
# s seqs arid : 19785
# INIDE_SLAVE_SEQ_CTR=32
# match arid : 4d49 , rid : 4d49
# UVM_INFO ../env/s_agent/axi_s_drv.sv(31) @ 4305: uvm_test_top.env_h.s_uvc_h.s_agent_h[0].s_drv_h [ID MATCH] aaaaa
# rd data in s drv: 0 , len : 7 , last:0 , valid : 1
# m mon rid : f598
# rd data in s drv: 0 , len : 7 , last:0 , valid : 1
# m mon rid : f598
# req wid : 37630 , bid:37630
# UVM_INFO ../env/m_agent/axi_base_m_seqs.sv(26) @ 4325: uvm_test_top.env_h.m_uvc_h.m_agent_h[0].m_seqr_h@@vseqs_h.m_wseqs_h [IN V SEQS] Got B-channel response from driver
# rd data in s drv: 0 , len : 7 , last:1 , valid : 1
# req kind : READ
# m mon rid : f598
# UVM_INFO ../env/axi_sb.sv(78) @ 4335: uvm_test_top.env_h.sb_h [after event in sb] aaaa
# UVM_INFO ../env/axi_sb.sv(76) @ 4335: uvm_test_top.env_h.sb_h [before event in sb] aaaa
# rd data in s drv: 0 , len : 1 , last:0 , valid : 1
# m mon rid : e3a4
# rd data in s drv: 0 , len : 1 , last:1 , valid : 1
# req kind : READ
# m mon rid : e3a4
# UVM_INFO ../env/axi_sb.sv(78) @ 4355: uvm_test_top.env_h.sb_h [after event in sb] aaaa
# UVM_INFO ../env/axi_sb.sv(76) @ 4355: uvm_test_top.env_h.sb_h [before event in sb] aaaa
# rd data in s drv: 0 , len : 8 , last:0 , valid : 1
# m mon rid : 30ac
# rd data in s drv: 0 , len : 8 , last:0 , valid : 1
# m mon rid : 30ac
# rd data in s drv: 0 , len : 8 , last:0 , valid : 1
# m mon rid : 30ac
# rd data in s drv: 0 , len : 8 , last:0 , valid : 1
# m mon rid : 30ac
# rd data in s drv: 0 , len : 8 , last:0 , valid : 1
# m mon rid : 30ac
# rd data in s drv: 0 , len : 8 , last:0 , valid : 1
# m mon rid : 30ac
# rd data in s drv: 0 , len : 8 , last:0 , valid : 1
# m mon rid : 30ac
# rd data in s drv: 0 , len : 8 , last:0 , valid : 1
# m mon rid : 30ac
# rd data in s drv: 0 , len : 8 , last:1 , valid : 1
# req kind : READ
# m mon rid : 30ac
# UVM_INFO ../env/axi_sb.sv(78) @ 4445: uvm_test_top.env_h.sb_h [after event in sb] aaaa
# UVM_INFO ../env/axi_sb.sv(76) @ 4445: uvm_test_top.env_h.sb_h [before event in sb] aaaa
# rd data in s drv: 0 , len : 8 , last:0 , valid : 1
# m mon rid : 5183
# rd data in s drv: 0 , len : 8 , last:0 , valid : 1
# m mon rid : 5183
# rd data in s drv: 0 , len : 8 , last:0 , valid : 1
# m mon rid : 5183
# rd data in s drv: 0 , len : 8 , last:0 , valid : 1
# m mon rid : 5183
# rd data in s drv: 0 , len : 8 , last:0 , valid : 1
# m mon rid : 5183
# rd data in s drv: 0 , len : 8 , last:0 , valid : 1
# m mon rid : 5183
# rd data in s drv: 0 , len : 8 , last:0 , valid : 1
# m mon rid : 5183
# rd data in s drv: 0 , len : 8 , last:0 , valid : 1
# m mon rid : 5183
# rd data in s drv: 0 , len : 8 , last:1 , valid : 1
# req kind : READ
# m mon rid : 5183
# UVM_INFO ../env/axi_sb.sv(78) @ 4535: uvm_test_top.env_h.sb_h [after event in sb] aaaa
# UVM_INFO ../env/axi_sb.sv(76) @ 4535: uvm_test_top.env_h.sb_h [before event in sb] aaaa
# rd data in s drv: 0 , len : 9 , last:0 , valid : 1
# m mon rid : eea0
# rd data in s drv: 0 , len : 9 , last:0 , valid : 1
# m mon rid : eea0
# rd data in s drv: 0 , len : 9 , last:0 , valid : 1
# m mon rid : eea0
# rd data in s drv: 0 , len : 9 , last:0 , valid : 1
# m mon rid : eea0
# rd data in s drv: 0 , len : 9 , last:0 , valid : 1
# m mon rid : eea0
# rd data in s drv: 0 , len : 9 , last:0 , valid : 1
# m mon rid : eea0
# rd data in s drv: 0 , len : 9 , last:0 , valid : 1
# m mon rid : eea0
# rd data in s drv: 0 , len : 9 , last:0 , valid : 1
# m mon rid : eea0
# rd data in s drv: 0 , len : 9 , last:0 , valid : 1
# m mon rid : eea0
# rd data in s drv: 0 , len : 9 , last:1 , valid : 1
# req kind : READ
# m mon rid : eea0
# UVM_INFO ../env/axi_sb.sv(78) @ 4635: uvm_test_top.env_h.sb_h [after event in sb] aaaa
# UVM_INFO ../env/axi_sb.sv(76) @ 4635: uvm_test_top.env_h.sb_h [before event in sb] aaaa
# rd data in s drv: 0 , len : 3 , last:0 , valid : 1
# m mon rid : 4d49
# rd data in s drv: 0 , len : 3 , last:0 , valid : 1
# m mon rid : 4d49
# rd data in s drv: 0 , len : 3 , last:0 , valid : 1
# m mon rid : 4d49
# rd data in s drv: 0 , len : 3 , last:1 , valid : 1
# req kind : READ
# m mon rid : 4d49
# UVM_INFO ../env/axi_sb.sv(78) @ 4675: uvm_test_top.env_h.sb_h [after event in sb] aaaa
# UVM_INFO ../env/axi_sb.sv(76) @ 4675: uvm_test_top.env_h.sb_h [before event in sb] aaaa
# abc : 1
# ref model mem : 719
# abc : 2
# ref model mem : 727
# abc : 3
# ref model mem : 735
# abc : 4
# ref model mem : 743
# abc : 5
# ref model mem : 751
# abc : 6
# ref model mem : 759
# abc : 7
# ref model mem : 767
# abc : 8
# ref model mem : 775
# abc : 9
# ref model mem : 783
# abc : 10
# ref model mem : 791
# abc : 11
# ref model mem : 799
# abc : 12
# ref model mem : 807
# abc : 13
# ref model mem : 815
# abc : 14
# ref model mem : 823
# abc : 15
# ref model mem : 831
# abc : 16
# ref model mem : 839
# abc : 17
# ref model mem : 847
# abc : 18
# ref model mem : 855
# abc : 19
# ref model mem : 863
# abc : 20
# ref model mem : 871
# abc : 21
# ref model mem : 879
# abc : 22
# ref model mem : 887
# abc : 23
# ref model mem : 895
# abc : 24
# ref model mem : 903
# abc : 25
# ref model mem : 911
# abc : 26
# ref model mem : 919
# abc : 27
# ref model mem : 927
# abc : 28
# ref model mem : 935
# abc : 29
# ref model mem : 943
# abc : 30
# ref model mem : 951
# abc : 31
# ref model mem : 959
# abc : 32
# ref model mem : 967
# abc : 33
# ref model mem : 975
# abc : 34
# ref model mem : 983
# abc : 35
# ref model mem : 991
# abc : 36
# ref model mem : 999
# abc : 37
# ref model mem : 1007
# abc : 38
# ref model mem : 1015
# abc : 39
# ref model mem : 1023
# abc : 40
# ref model mem : 1031
# abc : 41
# ref model mem : 1039
# abc : 42
# ref model mem : 1047
# abc : 43
# ref model mem : 1055
# abc : 44
# ref model mem : 1063
# abc : 45
# ref model mem : 1071
# abc : 46
# ref model mem : 1079
# abc : 47
# ref model mem : 1087
# abc : 48
# ref model mem : 1095
# abc : 49
# ref model mem : 1103
# abc : 50
# ref model mem : 1111
# abc : 51
# ref model mem : 1119
# xyz : 1
# xyz : 2
# xyz : 3
# xyz : 4
# xyz : 5
# xyz : 6
# xyz : 7
# xyz : 8
# xyz : 9
# xyz : 10
# xyz : 11
# xyz : 12
# xyz : 13
# xyz : 14
# xyz : 15
# xyz : 16
# xyz : 17
# xyz : 18
# xyz : 19
# xyz : 20
# xyz : 21
# xyz : 22
# xyz : 23
# xyz : 24
# xyz : 25
# xyz : 26
# xyz : 27
# xyz : 28
# xyz : 29
# xyz : 30
# xyz : 31
# xyz : 32
# xyz : 33
# xyz : 34
# xyz : 35
# xyz : 36
# AFFTER W CHANNEL
# match arid : 0 , rid : 0
# UVM_INFO ../env/s_agent/axi_s_drv.sv(31) @ 4815: uvm_test_top.env_h.s_uvc_h.s_agent_h[0].s_drv_h [ID MATCH] aaaaa
# s seqs arid : 45911
# INIDE_SLAVE_SEQ_CTR=33
# match arid : b357 , rid : b357
# UVM_INFO ../env/s_agent/axi_s_drv.sv(31) @ 4815: uvm_test_top.env_h.s_uvc_h.s_agent_h[0].s_drv_h [ID MATCH] aaaaa
# s seqs arid : 7841
# INIDE_SLAVE_SEQ_CTR=34
# match arid : 1ea1 , rid : 1ea1
# UVM_INFO ../env/s_agent/axi_s_drv.sv(31) @ 4815: uvm_test_top.env_h.s_uvc_h.s_agent_h[0].s_drv_h [ID MATCH] aaaaa
# s seqs arid : 27503
# INIDE_SLAVE_SEQ_CTR=35
# match arid : 6b6f , rid : 6b6f
# UVM_INFO ../env/s_agent/axi_s_drv.sv(31) @ 4815: uvm_test_top.env_h.s_uvc_h.s_agent_h[0].s_drv_h [ID MATCH] aaaaa
# s seqs arid : 42698
# INIDE_SLAVE_SEQ_CTR=36
# match arid : a6ca , rid : a6ca
# UVM_INFO ../env/s_agent/axi_s_drv.sv(31) @ 4815: uvm_test_top.env_h.s_uvc_h.s_agent_h[0].s_drv_h [ID MATCH] aaaaa
# s seqs arid : 27708
# INIDE_SLAVE_SEQ_CTR=37
# match arid : 6c3c , rid : 6c3c
# UVM_INFO ../env/s_agent/axi_s_drv.sv(31) @ 4815: uvm_test_top.env_h.s_uvc_h.s_agent_h[0].s_drv_h [ID MATCH] aaaaa
# rd data in s drv: 0 , len : 8 , last:0 , valid : 1
# m mon rid : b357
# rd data in s drv: 0 , len : 8 , last:0 , valid : 1
# m mon rid : b357
# req wid : 58536 , bid:58536
# UVM_INFO ../env/m_agent/axi_base_m_seqs.sv(26) @ 4835: uvm_test_top.env_h.m_uvc_h.m_agent_h[0].m_seqr_h@@vseqs_h.m_wseqs_h [IN V SEQS] Got B-channel response from driver
# rd data in s drv: 0 , len : 8 , last:0 , valid : 1
# m mon rid : b357
# rd data in s drv: 0 , len : 8 , last:0 , valid : 1
# m mon rid : b357
# rd data in s drv: 0 , len : 8 , last:0 , valid : 1
# m mon rid : b357
# rd data in s drv: 0 , len : 8 , last:0 , valid : 1
# m mon rid : b357
# rd data in s drv: 0 , len : 8 , last:0 , valid : 1
# m mon rid : b357
# rd data in s drv: 0 , len : 8 , last:0 , valid : 1
# m mon rid : b357
# rd data in s drv: 0 , len : 8 , last:1 , valid : 1
# req kind : READ
# m mon rid : b357
# UVM_INFO ../env/axi_sb.sv(78) @ 4905: uvm_test_top.env_h.sb_h [after event in sb] aaaa
# UVM_INFO ../env/axi_sb.sv(76) @ 4905: uvm_test_top.env_h.sb_h [before event in sb] aaaa
# rd data in s drv: 0 , len : 5 , last:0 , valid : 1
# m mon rid : 1ea1
# rd data in s drv: 0 , len : 5 , last:0 , valid : 1
# m mon rid : 1ea1
# rd data in s drv: 0 , len : 5 , last:0 , valid : 1
# m mon rid : 1ea1
# rd data in s drv: 0 , len : 5 , last:0 , valid : 1
# m mon rid : 1ea1
# rd data in s drv: 0 , len : 5 , last:0 , valid : 1
# m mon rid : 1ea1
# rd data in s drv: 0 , len : 5 , last:1 , valid : 1
# req kind : READ
# m mon rid : 1ea1
# UVM_INFO ../env/axi_sb.sv(78) @ 4965: uvm_test_top.env_h.sb_h [after event in sb] aaaa
# UVM_INFO ../env/axi_sb.sv(76) @ 4965: uvm_test_top.env_h.sb_h [before event in sb] aaaa
# rd data in s drv: 0 , len : 6 , last:0 , valid : 1
# m mon rid : 6b6f
# rd data in s drv: 0 , len : 6 , last:0 , valid : 1
# m mon rid : 6b6f
# rd data in s drv: 0 , len : 6 , last:0 , valid : 1
# m mon rid : 6b6f
# rd data in s drv: 0 , len : 6 , last:0 , valid : 1
# m mon rid : 6b6f
# rd data in s drv: 0 , len : 6 , last:0 , valid : 1
# m mon rid : 6b6f
# rd data in s drv: 0 , len : 6 , last:0 , valid : 1
# m mon rid : 6b6f
# rd data in s drv: 0 , len : 6 , last:1 , valid : 1
# req kind : READ
# m mon rid : 6b6f
# UVM_INFO ../env/axi_sb.sv(78) @ 5035: uvm_test_top.env_h.sb_h [after event in sb] aaaa
# UVM_INFO ../env/axi_sb.sv(76) @ 5035: uvm_test_top.env_h.sb_h [before event in sb] aaaa
# rd data in s drv: 0 , len : 8 , last:0 , valid : 1
# m mon rid : a6ca
# rd data in s drv: 0 , len : 8 , last:0 , valid : 1
# m mon rid : a6ca
# rd data in s drv: 0 , len : 8 , last:0 , valid : 1
# m mon rid : a6ca
# rd data in s drv: 0 , len : 8 , last:0 , valid : 1
# m mon rid : a6ca
# rd data in s drv: 0 , len : 8 , last:0 , valid : 1
# m mon rid : a6ca
# rd data in s drv: 0 , len : 8 , last:0 , valid : 1
# m mon rid : a6ca
# rd data in s drv: 0 , len : 8 , last:0 , valid : 1
# m mon rid : a6ca
# rd data in s drv: 0 , len : 8 , last:0 , valid : 1
# m mon rid : a6ca
# rd data in s drv: 0 , len : 8 , last:1 , valid : 1
# req kind : READ
# m mon rid : a6ca
# UVM_INFO ../env/axi_sb.sv(78) @ 5125: uvm_test_top.env_h.sb_h [after event in sb] aaaa
# UVM_INFO ../env/axi_sb.sv(76) @ 5125: uvm_test_top.env_h.sb_h [before event in sb] aaaa
# rd data in s drv: 0 , len : 4 , last:0 , valid : 1
# m mon rid : 6c3c
# rd data in s drv: 0 , len : 4 , last:0 , valid : 1
# m mon rid : 6c3c
# rd data in s drv: 0 , len : 4 , last:0 , valid : 1
# m mon rid : 6c3c
# rd data in s drv: 0 , len : 4 , last:0 , valid : 1
# m mon rid : 6c3c
# rd data in s drv: 0 , len : 4 , last:1 , valid : 1
# abc : 1
# ref model mem : 596
# abc : 2
# ref model mem : 604
# abc : 3
# ref model mem : 612
# abc : 4
# ref model mem : 620
# abc : 5
# ref model mem : 628
# abc : 6
# ref model mem : 636
# abc : 7
# ref model mem : 644
# abc : 8
# ref model mem : 652
# abc : 9
# ref model mem : 660
# abc : 10
# ref model mem : 668
# abc : 11
# ref model mem : 676
# abc : 12
# ref model mem : 684
# abc : 13
# ref model mem : 692
# abc : 14
# ref model mem : 700
# abc : 15
# ref model mem : 708
# abc : 16
# ref model mem : 716
# abc : 17
# ref model mem : 724
# abc : 18
# ref model mem : 732
# abc : 19
# ref model mem : 740
# abc : 20
# ref model mem : 748
# abc : 21
# ref model mem : 756
# abc : 22
# ref model mem : 764
# abc : 23
# ref model mem : 772
# abc : 24
# ref model mem : 780
# abc : 25
# ref model mem : 788
# abc : 26
# ref model mem : 796
# abc : 27
# ref model mem : 804
# abc : 28
# ref model mem : 812
# abc : 29
# ref model mem : 820
# abc : 30
# ref model mem : 828
# abc : 31
# ref model mem : 836
# abc : 32
# ref model mem : 844
# abc : 33
# ref model mem : 852
# abc : 34
# ref model mem : 860
# abc : 35
# ref model mem : 868
# abc : 36
# ref model mem : 876
# xyz : 1
# AFFTER W CHANNEL
# req kind : READ
# m mon rid : 6c3c
# UVM_INFO ../env/axi_sb.sv(78) @ 5175: uvm_test_top.env_h.sb_h [after event in sb] aaaa
# UVM_INFO ../env/axi_sb.sv(76) @ 5175: uvm_test_top.env_h.sb_h [before event in sb] aaaa
# match arid : 0 , rid : 0
# UVM_INFO ../env/s_agent/axi_s_drv.sv(31) @ 5175: uvm_test_top.env_h.s_uvc_h.s_agent_h[0].s_drv_h [ID MATCH] aaaaa
# s seqs arid : 31203
# INIDE_SLAVE_SEQ_CTR=38
# match arid : 79e3 , rid : 79e3
# UVM_INFO ../env/s_agent/axi_s_drv.sv(31) @ 5175: uvm_test_top.env_h.s_uvc_h.s_agent_h[0].s_drv_h [ID MATCH] aaaaa
# rd data in s drv: 0 , len : 0 , last:1 , valid : 1
# req kind : READ
# m mon rid : 79e3
# UVM_INFO ../env/axi_sb.sv(78) @ 5185: uvm_test_top.env_h.sb_h [after event in sb] aaaa
# UVM_INFO ../env/axi_sb.sv(76) @ 5185: uvm_test_top.env_h.sb_h [before event in sb] aaaa
# req wid : 61878 , bid:61878
# UVM_INFO ../env/m_agent/axi_base_m_seqs.sv(26) @ 5195: uvm_test_top.env_h.m_uvc_h.m_agent_h[0].m_seqr_h@@vseqs_h.m_wseqs_h [IN V SEQS] Got B-channel response from driver
# abc : 1
# ref model mem : 816
# abc : 2
# ref model mem : 824
# abc : 3
# ref model mem : 832
# abc : 4
# ref model mem : 840
# abc : 5
# ref model mem : 848
# abc : 6
# ref model mem : 856
# abc : 7
# ref model mem : 864
# abc : 8
# ref model mem : 872
# abc : 9
# ref model mem : 880
# abc : 10
# ref model mem : 888
# abc : 11
# ref model mem : 896
# abc : 12
# ref model mem : 904
# abc : 13
# ref model mem : 912
# abc : 14
# ref model mem : 920
# abc : 15
# ref model mem : 928
# abc : 16
# ref model mem : 936
# abc : 17
# ref model mem : 944
# abc : 18
# ref model mem : 952
# abc : 19
# ref model mem : 960
# abc : 20
# ref model mem : 968
# abc : 21
# ref model mem : 976
# abc : 22
# ref model mem : 984
# abc : 23
# ref model mem : 992
# abc : 24
# ref model mem : 1000
# abc : 25
# ref model mem : 1008
# abc : 26
# ref model mem : 1016
# abc : 27
# ref model mem : 1024
# abc : 28
# ref model mem : 1032
# abc : 29
# ref model mem : 1040
# abc : 30
# ref model mem : 1048
# abc : 31
# ref model mem : 1056
# abc : 32
# ref model mem : 1064
# abc : 33
# ref model mem : 1072
# abc : 34
# ref model mem : 1080
# abc : 35
# ref model mem : 1088
# abc : 36
# ref model mem : 1096
# abc : 37
# ref model mem : 1104
# abc : 38
# ref model mem : 1112
# abc : 39
# ref model mem : 1120
# abc : 40
# ref model mem : 1128
# abc : 41
# ref model mem : 1136
# abc : 42
# ref model mem : 1144
# abc : 43
# ref model mem : 1152
# abc : 44
# ref model mem : 1160
# abc : 45
# ref model mem : 1168
# abc : 46
# ref model mem : 1176
# abc : 47
# ref model mem : 1184
# abc : 48
# ref model mem : 1192
# abc : 49
# ref model mem : 1200
# abc : 50
# ref model mem : 1208
# abc : 51
# ref model mem : 1216
# abc : 52
# ref model mem : 1224
# abc : 53
# ref model mem : 1232
# abc : 54
# ref model mem : 1240
# abc : 55
# ref model mem : 1248
# abc : 56
# ref model mem : 1256
# abc : 57
# ref model mem : 1264
# abc : 58
# ref model mem : 1272
# abc : 59
# ref model mem : 1280
# abc : 60
# ref model mem : 1288
# abc : 61
# ref model mem : 1296
# abc : 62
# ref model mem : 1304
# abc : 63
# ref model mem : 1312
# abc : 64
# ref model mem : 1320
# abc : 65
# ref model mem : 1328
# abc : 66
# ref model mem : 1336
# abc : 67
# ref model mem : 1344
# abc : 68
# ref model mem : 1352
# abc : 69
# ref model mem : 1360
# abc : 70
# ref model mem : 1368
# abc : 71
# ref model mem : 1376
# abc : 72
# ref model mem : 1384
# abc : 73
# ref model mem : 1392
# abc : 74
# ref model mem : 1400
# abc : 75
# ref model mem : 1408
# abc : 76
# ref model mem : 1416
# abc : 77
# ref model mem : 1424
# abc : 78
# ref model mem : 1432
# abc : 79
# ref model mem : 1440
# abc : 80
# ref model mem : 1448
# abc : 81
# ref model mem : 1456
# abc : 82
# ref model mem : 1464
# abc : 83
# ref model mem : 1472
# abc : 84
# ref model mem : 1480
# abc : 85
# ref model mem : 1488
# abc : 86
# ref model mem : 1496
# abc : 87
# ref model mem : 1504
# abc : 88
# ref model mem : 1512
# abc : 89
# ref model mem : 1520
# AFFTER W CHANNEL
# match arid : 0 , rid : 0
# UVM_INFO ../env/s_agent/axi_s_drv.sv(31) @ 6065: uvm_test_top.env_h.s_uvc_h.s_agent_h[0].s_drv_h [ID MATCH] aaaaa
# req wid : 53158 , bid:53158
# UVM_INFO ../env/m_agent/axi_base_m_seqs.sv(26) @ 6085: uvm_test_top.env_h.m_uvc_h.m_agent_h[0].m_seqr_h@@vseqs_h.m_wseqs_h [IN V SEQS] Got B-channel response from driver
# abc : 1
# ref model mem : 209
# abc : 2
# ref model mem : 217
# abc : 3
# ref model mem : 225
# abc : 4
# ref model mem : 233
# abc : 5
# ref model mem : 241
# abc : 6
# ref model mem : 249
# abc : 7
# ref model mem : 257
# abc : 8
# ref model mem : 265
# abc : 9
# ref model mem : 273
# abc : 10
# ref model mem : 281
# abc : 11
# ref model mem : 289
# abc : 12
# ref model mem : 297
# abc : 13
# ref model mem : 305
# abc : 14
# ref model mem : 313
# abc : 15
# ref model mem : 321
# abc : 16
# ref model mem : 329
# abc : 17
# ref model mem : 337
# abc : 18
# ref model mem : 345
# abc : 19
# ref model mem : 353
# abc : 20
# ref model mem : 361
# abc : 21
# ref model mem : 369
# abc : 22
# ref model mem : 377
# abc : 23
# ref model mem : 385
# abc : 24
# ref model mem : 393
# abc : 25
# ref model mem : 401
# abc : 26
# ref model mem : 409
# abc : 27
# ref model mem : 417
# abc : 28
# ref model mem : 425
# abc : 29
# ref model mem : 433
# abc : 30
# ref model mem : 441
# abc : 31
# ref model mem : 449
# abc : 32
# ref model mem : 457
# abc : 33
# ref model mem : 465
# abc : 34
# ref model mem : 473
# abc : 35
# ref model mem : 481
# abc : 36
# ref model mem : 489
# abc : 37
# ref model mem : 497
# abc : 38
# ref model mem : 505
# abc : 39
# ref model mem : 513
# abc : 40
# ref model mem : 521
# abc : 41
# ref model mem : 529
# abc : 42
# ref model mem : 537
# abc : 43
# ref model mem : 545
# abc : 44
# ref model mem : 553
# abc : 45
# ref model mem : 561
# abc : 46
# ref model mem : 569
# abc : 47
# ref model mem : 577
# abc : 48
# ref model mem : 585
# abc : 49
# ref model mem : 593
# abc : 50
# ref model mem : 601
# abc : 51
# ref model mem : 609
# abc : 52
# ref model mem : 617
# xyz : 1
# xyz : 2
# xyz : 3
# xyz : 4
# xyz : 5
# xyz : 6
# xyz : 7
# xyz : 8
# xyz : 9
# xyz : 10
# xyz : 11
# xyz : 12
# xyz : 13
# xyz : 14
# xyz : 15
# xyz : 16
# xyz : 17
# xyz : 18
# xyz : 19
# xyz : 20
# xyz : 21
# xyz : 22
# AFFTER W CHANNEL
# match arid : 0 , rid : 0
# UVM_INFO ../env/s_agent/axi_s_drv.sv(31) @ 6585: uvm_test_top.env_h.s_uvc_h.s_agent_h[0].s_drv_h [ID MATCH] aaaaa
# s seqs arid : 25703
# INIDE_SLAVE_SEQ_CTR=39
# match arid : 6467 , rid : 6467
# UVM_INFO ../env/s_agent/axi_s_drv.sv(31) @ 6585: uvm_test_top.env_h.s_uvc_h.s_agent_h[0].s_drv_h [ID MATCH] aaaaa
# s seqs arid : 15306
# INIDE_SLAVE_SEQ_CTR=40
# match arid : 3bca , rid : 3bca
# UVM_INFO ../env/s_agent/axi_s_drv.sv(31) @ 6585: uvm_test_top.env_h.s_uvc_h.s_agent_h[0].s_drv_h [ID MATCH] aaaaa
# s seqs arid : 14820
# INIDE_SLAVE_SEQ_CTR=41
# match arid : 39e4 , rid : 39e4
# UVM_INFO ../env/s_agent/axi_s_drv.sv(31) @ 6585: uvm_test_top.env_h.s_uvc_h.s_agent_h[0].s_drv_h [ID MATCH] aaaaa
# rd data in s drv: 0 , len : 10 , last:0 , valid : 1
# m mon rid : 6467
# rd data in s drv: 0 , len : 10 , last:0 , valid : 1
# m mon rid : 6467
# req wid : 49099 , bid:49099
# UVM_INFO ../env/m_agent/axi_base_m_seqs.sv(26) @ 6605: uvm_test_top.env_h.m_uvc_h.m_agent_h[0].m_seqr_h@@vseqs_h.m_wseqs_h [IN V SEQS] Got B-channel response from driver
# rd data in s drv: 0 , len : 10 , last:0 , valid : 1
# m mon rid : 6467
# rd data in s drv: 0 , len : 10 , last:0 , valid : 1
# m mon rid : 6467
# rd data in s drv: 0 , len : 10 , last:0 , valid : 1
# m mon rid : 6467
# rd data in s drv: 0 , len : 10 , last:0 , valid : 1
# m mon rid : 6467
# rd data in s drv: 0 , len : 10 , last:0 , valid : 1
# m mon rid : 6467
# rd data in s drv: 0 , len : 10 , last:0 , valid : 1
# m mon rid : 6467
# rd data in s drv: 0 , len : 10 , last:0 , valid : 1
# m mon rid : 6467
# rd data in s drv: 0 , len : 10 , last:0 , valid : 1
# m mon rid : 6467
# rd data in s drv: 0 , len : 10 , last:1 , valid : 1
# req kind : READ
# m mon rid : 6467
# UVM_INFO ../env/axi_sb.sv(78) @ 6695: uvm_test_top.env_h.sb_h [after event in sb] aaaa
# UVM_INFO ../env/axi_sb.sv(76) @ 6695: uvm_test_top.env_h.sb_h [before event in sb] aaaa
# rd data in s drv: 0 , len : 2 , last:0 , valid : 1
# m mon rid : 3bca
# rd data in s drv: 0 , len : 2 , last:0 , valid : 1
# m mon rid : 3bca
# rd data in s drv: 0 , len : 2 , last:1 , valid : 1
# req kind : READ
# m mon rid : 3bca
# UVM_INFO ../env/axi_sb.sv(78) @ 6725: uvm_test_top.env_h.sb_h [after event in sb] aaaa
# UVM_INFO ../env/axi_sb.sv(76) @ 6725: uvm_test_top.env_h.sb_h [before event in sb] aaaa
# rd data in s drv: 0 , len : 2 , last:0 , valid : 1
# m mon rid : 39e4
# rd data in s drv: 0 , len : 2 , last:0 , valid : 1
# m mon rid : 39e4
# rd data in s drv: 0 , len : 2 , last:1 , valid : 1
# req kind : READ
# m mon rid : 39e4
# UVM_INFO ../env/axi_sb.sv(78) @ 6755: uvm_test_top.env_h.sb_h [after event in sb] aaaa
# UVM_INFO ../env/axi_sb.sv(76) @ 6755: uvm_test_top.env_h.sb_h [before event in sb] aaaa
# abc : 1
# ref model mem : 615
# abc : 2
# ref model mem : 623
# abc : 3
# ref model mem : 631
# abc : 4
# ref model mem : 639
# abc : 5
# ref model mem : 647
# abc : 6
# ref model mem : 655
# abc : 7
# ref model mem : 663
# abc : 8
# ref model mem : 671
# abc : 9
# ref model mem : 679
# abc : 10
# ref model mem : 687
# abc : 11
# ref model mem : 695
# abc : 12
# ref model mem : 703
# abc : 13
# ref model mem : 711
# abc : 14
# ref model mem : 719
# abc : 15
# ref model mem : 727
# abc : 16
# ref model mem : 735
# abc : 17
# ref model mem : 743
# abc : 18
# ref model mem : 751
# abc : 19
# ref model mem : 759
# abc : 20
# ref model mem : 767
# abc : 21
# ref model mem : 775
# abc : 22
# ref model mem : 783
# abc : 23
# ref model mem : 791
# abc : 24
# ref model mem : 799
# abc : 25
# ref model mem : 807
# abc : 26
# ref model mem : 815
# abc : 27
# ref model mem : 823
# abc : 28
# ref model mem : 831
# abc : 29
# ref model mem : 839
# abc : 30
# ref model mem : 847
# abc : 31
# ref model mem : 855
# abc : 32
# ref model mem : 863
# abc : 33
# ref model mem : 871
# abc : 34
# ref model mem : 879
# abc : 35
# ref model mem : 887
# abc : 36
# ref model mem : 895
# abc : 37
# ref model mem : 903
# abc : 38
# ref model mem : 911
# abc : 39
# ref model mem : 919
# abc : 40
# ref model mem : 927
# abc : 41
# ref model mem : 935
# abc : 42
# ref model mem : 943
# abc : 43
# ref model mem : 951
# abc : 44
# ref model mem : 959
# xyz : 1
# xyz : 2
# xyz : 3
# xyz : 4
# xyz : 5
# xyz : 6
# xyz : 7
# xyz : 8
# AFFTER W CHANNEL
# match arid : 0 , rid : 0
# UVM_INFO ../env/s_agent/axi_s_drv.sv(31) @ 7025: uvm_test_top.env_h.s_uvc_h.s_agent_h[0].s_drv_h [ID MATCH] aaaaa
# s seqs arid : 2783
# INIDE_SLAVE_SEQ_CTR=42
# match arid : adf , rid : adf
# UVM_INFO ../env/s_agent/axi_s_drv.sv(31) @ 7025: uvm_test_top.env_h.s_uvc_h.s_agent_h[0].s_drv_h [ID MATCH] aaaaa
# s seqs arid : 19842
# INIDE_SLAVE_SEQ_CTR=43
# match arid : 4d82 , rid : 4d82
# UVM_INFO ../env/s_agent/axi_s_drv.sv(31) @ 7025: uvm_test_top.env_h.s_uvc_h.s_agent_h[0].s_drv_h [ID MATCH] aaaaa
# rd data in s drv: 0 , len : 7 , last:0 , valid : 1
# m mon rid : adf
# rd data in s drv: 0 , len : 7 , last:0 , valid : 1
# m mon rid : adf
# req wid : 20491 , bid:20491
# UVM_INFO ../env/m_agent/axi_base_m_seqs.sv(26) @ 7045: uvm_test_top.env_h.m_uvc_h.m_agent_h[0].m_seqr_h@@vseqs_h.m_wseqs_h [IN V SEQS] Got B-channel response from driver
# rd data in s drv: 0 , len : 7 , last:0 , valid : 1
# m mon rid : adf
# rd data in s drv: 0 , len : 7 , last:0 , valid : 1
# m mon rid : adf
# rd data in s drv: 0 , len : 7 , last:0 , valid : 1
# m mon rid : adf
# rd data in s drv: 0 , len : 7 , last:0 , valid : 1
# m mon rid : adf
# rd data in s drv: 0 , len : 7 , last:0 , valid : 1
# m mon rid : adf
# rd data in s drv: 0 , len : 7 , last:1 , valid : 1
# req kind : READ
# m mon rid : adf
# UVM_INFO ../env/axi_sb.sv(78) @ 7105: uvm_test_top.env_h.sb_h [after event in sb] aaaa
# UVM_INFO ../env/axi_sb.sv(76) @ 7105: uvm_test_top.env_h.sb_h [before event in sb] aaaa
# rd data in s drv: 0 , len : 4 , last:0 , valid : 1
# m mon rid : 4d82
# rd data in s drv: 0 , len : 4 , last:0 , valid : 1
# m mon rid : 4d82
# rd data in s drv: 0 , len : 4 , last:0 , valid : 1
# m mon rid : 4d82
# rd data in s drv: 0 , len : 4 , last:0 , valid : 1
# m mon rid : 4d82
# rd data in s drv: 0 , len : 4 , last:1 , valid : 1
# req kind : READ
