# vsim -coverage -voptargs="+acc" axi_tb_top -c -do "coverage save -onexit -directive -cvg -codeall axi_b2b_test.ucdb; run -all; exit" "+UVM_TESTNAME=axi_b2b_test" -l axi_b2b_test.log 
# Start time: 16:22:53 on May 06,2026
# ** Note: (vsim-8009) Loading existing optimized design _opt2
# //  Questa Sim-64
# //  Version 2023.4 linux_x86_64 Oct  9 2023
# //
# //  Copyright 1991-2023 Mentor Graphics Corporation
# //  All Rights Reserved.
# //
# //  QuestaSim and its associated documentation contain trade
# //  secrets and commercial or financial information that are the property of
# //  Mentor Graphics Corporation and are privileged, confidential,
# //  and exempt from disclosure under the Freedom of Information Act,
# //  5 U.S.C. Section 552. Furthermore, this information
# //  is prohibited from disclosure under the Trade Secrets Act,
# //  18 U.S.C. Section 1905.
# //
# Loading sv_std.std
# Loading work.axi_s_inf(fast)
# Loading work.axi_m_inf(fast)
# Loading mtiUvm.uvm_pkg(fast)
# Loading work.axi_s_agent_pkg(fast)
# Loading work.axi_m_agent_pkg(fast)
# Loading work.axi_env_pkg(fast)
# Loading work.axi_test_pkg(fast)
# Loading mtiUvm.questa_uvm_pkg(fast)
# Loading work.axi_tb_top(fast)
# Loading work.axi_m_inf(fast__2)
# Loading work.axi_s_inf(fast__2)
# ** Warning: (vsim-8441) Clocking block output s_vif.s_drv_cb.RDATA is not legal in this
# or another expression.
#    Time: 0 ns  Iteration: 0  Region: /axi_s_agent_pkg::axi_s_drv #(32, 32) File: ../env/s_agent/axi_s_drv.sv Line: 113
# ** Warning: (vsim-8441) Clocking block output s_vif.s_drv_cb.RVALID is not legal in this
# or another expression.
#    Time: 0 ns  Iteration: 0  Region: /axi_s_agent_pkg::axi_s_drv #(32, 32) File: ../env/s_agent/axi_s_drv.sv Line: 115
# ** Warning: (vsim-8441) Clocking block output s_vif.s_drv_cb.RLAST is not legal in this
# or another expression.
#    Time: 0 ns  Iteration: 0  Region: /axi_s_agent_pkg::axi_s_drv #(32, 32) File: ../env/s_agent/axi_s_drv.sv Line: 116
# ** Warning: (vsim-8441) Clocking block output s_vif.s_drv_cb.RDATA is not legal in this
# or another expression.
#    Time: 0 ns  Iteration: 0  Region: /axi_s_agent_pkg::axi_s_drv #(32, 32) File: ../env/s_agent/axi_s_drv.sv Line: 113
# ** Warning: (vsim-8441) Clocking block output s_vif.s_drv_cb.RLAST is not legal in this
# or another expression.
#    Time: 0 ns  Iteration: 0  Region: /axi_s_agent_pkg::axi_s_drv #(32, 32) File: ../env/s_agent/axi_s_drv.sv Line: 116
# ** Warning: (vsim-8441) Clocking block output s_vif.s_drv_cb.RVALID is not legal in this
# or another expression.
#    Time: 0 ns  Iteration: 0  Region: /axi_s_agent_pkg::axi_s_drv #(32, 32) File: ../env/s_agent/axi_s_drv.sv Line: 115
# ** Warning: (vsim-8441) Clocking block output s_vif.s_drv_cb.RVALID is not legal in this
# or another expression.
#    Time: 0 ns  Iteration: 0  Region: /axi_s_agent_pkg::axi_s_drv #(32, 32) File: ../env/s_agent/axi_s_drv.sv Line: 115
# ** Warning: (vsim-8441) Clocking block output s_vif.s_drv_cb.RLAST is not legal in this
# or another expression.
#    Time: 0 ns  Iteration: 0  Region: /axi_s_agent_pkg::axi_s_drv #(32, 32) File: ../env/s_agent/axi_s_drv.sv Line: 116
# ** Warning: (vsim-8441) Clocking block output m_vif.m_drv_cb.WID is not legal in this
# or another expression.
#    Time: 0 ns  Iteration: 0  Region: /axi_m_agent_pkg::axi_m_drv #(32, 32) File: ../env/m_agent/axi_m_drv.sv Line: 96
# ** Warning: (vsim-8441) Clocking block output m_vif.m_drv_cb.WID is not legal in this
# or another expression.
#    Time: 0 ns  Iteration: 0  Region: /axi_m_agent_pkg::axi_m_drv #(32, 32) File: ../env/m_agent/axi_m_drv.sv Line: 96
# ** Warning: (vsim-8441) Clocking block output m_vif.m_drv_cb.WLAST is not legal in this
# or another expression.
#    Time: 0 ns  Iteration: 0  Region: /axi_m_agent_pkg::axi_m_drv #(32, 32) File: ../env/m_agent/axi_m_drv.sv Line: 101
# ** Warning: (vsim-8441) Clocking block output m_vif.m_drv_cb.WLAST is not legal in this
# or another expression.
#    Time: 0 ns  Iteration: 0  Region: /axi_m_agent_pkg::axi_m_drv #(32, 32) File: ../env/m_agent/axi_m_drv.sv Line: 101
# ** Warning: (vsim-8441) Clocking block output m_vif.m_drv_cb.WLAST is not legal in this
# or another expression.
#    Time: 0 ns  Iteration: 0  Region: /axi_m_agent_pkg::axi_m_drv #(32, 32) File: ../env/m_agent/axi_m_drv.sv Line: 101
# ** Warning: (vsim-8441) Clocking block output m_vif.m_drv_cb.WLAST is not legal in this
# or another expression.
#    Time: 0 ns  Iteration: 0  Region: /axi_m_agent_pkg::axi_m_drv #(32, 32) File: ../env/m_agent/axi_m_drv.sv Line: 101
# Loading /tools/mentor/questa/2023.4/questasim/uvm-1.1d/linux_x86_64/uvm_dpi.so
# coverage save -onexit -directive -cvg -codeall axi_b2b_test.ucdb
#  run -all
# ----------------------------------------------------------------
# UVM-1.1d
# (C) 2007-2013 Mentor Graphics Corporation
# (C) 2007-2013 Cadence Design Systems, Inc.
# (C) 2006-2013 Synopsys, Inc.
# (C) 2011-2013 Cypress Semiconductor Corp.
# ----------------------------------------------------------------
# 
#   ***********       IMPORTANT RELEASE NOTES         ************
# 
#   You are using a version of the UVM library that has been compiled
#   with `UVM_NO_DEPRECATED undefined.
#   See http://www.eda.org/svdb/view.php?id=3313 for more details.
# 
#   You are using a version of the UVM library that has been compiled
#   with `UVM_OBJECT_MUST_HAVE_CONSTRUCTOR undefined.
#   See http://www.eda.org/svdb/view.php?id=3770 for more details.
# 
#       (Specify +UVM_NO_RELNOTES to turn off this notice)
# 
# UVM_INFO verilog_src/questa_uvm_pkg-1.2/src/questa_uvm_pkg.sv(277) @ 0: reporter [Questa UVM] QUESTA_UVM-1.2.3
# UVM_INFO verilog_src/questa_uvm_pkg-1.2/src/questa_uvm_pkg.sv(278) @ 0: reporter [Questa UVM]  questa_uvm::init(+struct)
# UVM_INFO @ 0: reporter [RNTST] Running test axi_b2b_test...
# ** Warning: (vsim-8474) A higher value '8' is found in bin 'single_byte' of Coverpoint 'cp_wstrb'. It is invalid and will be ignored.
#    Time: 0 ns  Iteration: 7  Process: /uvm_pkg::uvm_phase::m_run_phases/#FORK#1847_7fefec463f4 File: ../env/axi_coverage.sv Line: 56
# ** Warning: (vsim-8474) A higher value '12' is found in bin 'single_byte' of Coverpoint 'cp_wstrb'. It is invalid and will be ignored.
#    Time: 0 ns  Iteration: 7  Process: /uvm_pkg::uvm_phase::m_run_phases/#FORK#1847_7fefec463f4 File: ../env/axi_coverage.sv Line: 56
# ** Warning: (vsim-8474) A higher value '14' is found in bin 'single_byte' of Coverpoint 'cp_wstrb'. It is invalid and will be ignored.
#    Time: 0 ns  Iteration: 7  Process: /uvm_pkg::uvm_phase::m_run_phases/#FORK#1847_7fefec463f4 File: ../env/axi_coverage.sv Line: 56
# ** Warning: (vsim-8549) After dropping the illegal, ignore or invalid values, the values list associated with scalar bin 'single_byte' in Coverpoint 'cp_wstrb' of Covergroup instance '\/axi_env_pkg::axi_coverage::write_cov ' has converged to empty list. The bin will be taken out of coverage calculation.
#    Time: 0 ns  Iteration: 7  Region: /uvm_pkg::uvm_phase::m_run_phases
# ** Warning: (vsim-8474) A higher value '15' is found in bin 'all_bytes' of Coverpoint 'cp_wstrb'. It is invalid and will be ignored.
#    Time: 0 ns  Iteration: 7  Process: /uvm_pkg::uvm_phase::m_run_phases/#FORK#1847_7fefec463f4 File: ../env/axi_coverage.sv Line: 57
# ** Warning: (vsim-8549) After dropping the illegal, ignore or invalid values, the values list associated with scalar bin 'all_bytes' in Coverpoint 'cp_wstrb' of Covergroup instance '\/axi_env_pkg::axi_coverage::write_cov ' has converged to empty list. The bin will be taken out of coverage calculation.
#    Time: 0 ns  Iteration: 7  Region: /uvm_pkg::uvm_phase::m_run_phases
# UVM_INFO ../env/s_agent/axi_s_seqr.sv(25) @ 0: uvm_test_top.env_h.s_uvc_h.s_agent_h[0].s_seqr_h [Data in s seqr] Data got in slave seqr
# UVM_INFO @ 0: reporter [UVMTOP] UVM testbench topology:
# --------------------------------------------------------------------------------
# Name                             Type                                Size  Value
# --------------------------------------------------------------------------------
# uvm_test_top                     axi_b2b_test                        -     @479 
#   env_h                          axi_env                             -     @491 
#     m_uvc_h                      uvm_agent                           -     @513 
#       m_agent_h[0]               uvm_agent                           -     @693 
#         m_drv_h                  uvm_driver #(REQ,RSP)               -     @814 
#           rsp_port               uvm_analysis_port                   -     @829 
#           seq_item_port          uvm_seq_item_pull_port              -     @821 
#         m_mon_h                  axi_m_mon#(ADDR_WIDTH, DATA_WIDTH)  -     @837 
#           s_port                 uvm_analysis_port                   -     @844 
#         m_seqr_h                 uvm_sequencer                       -     @705 
#           rsp_export             uvm_analysis_export                 -     @712 
#           seq_item_export        uvm_seq_item_pull_imp               -     @806 
#           arbitration_queue      array                               0     -    
#           lock_queue             array                               0     -    
#           num_last_reqs          integral                            32    'd1  
#           num_last_rsps          integral                            32    'd1  
#     ref_model_h                  axi_ref_model                       -     @558 
#       mon_imp                    uvm_analysis_imp                    -     @565 
#       sb_imp                     uvm_analysis_port                   -     @573 
#     s_uvc_h                      uvm_agent                           -     @520 
#       s_agent_h[0]               uvm_agent                           -     @860 
#         s_drv_h                  uvm_driver #(REQ,RSP)               -     @1036
#           rsp_port               uvm_analysis_port                   -     @1051
#           seq_item_port          uvm_seq_item_pull_port              -     @1043
#         s_mon_h                  axi_s_mon#(ADDR_WIDTH, DATA_WIDTH)  -     @1059
#           s_port                 uvm_analysis_port                   -     @1066
#         s_seqr_h                 uvm_sequencer                       -     @872 
#           item_collected_export  uvm_analysis_export                 -     @981 
#           item_req_fifo          uvm_tlm_analysis_fifo #(T)          -     @989 
#             analysis_export      uvm_analysis_imp                    -     @1028
#             get_ap               uvm_analysis_port                   -     @1020
#             get_peek_export      uvm_get_peek_imp                    -     @1004
#             put_ap               uvm_analysis_port                   -     @1012
#             put_export           uvm_put_imp                         -     @996 
#           rsp_export             uvm_analysis_export                 -     @879 
#           seq_item_export        uvm_seq_item_pull_imp               -     @973 
#           arbitration_queue      array                               0     -    
#           lock_queue             array                               0     -    
#           num_last_reqs          integral                            32    'd1  
#           num_last_rsps          integral                            32    'd1  
#     sb_h                         axi_sb                              -     @527 
#       anl_imp_m                  uvm_analysis_imp_m                  -     @534 
#       anl_imp_ref                uvm_analysis_imp_ref                -     @542 
#     vseqr_h                      axi_virtual_seqr                    -     @581 
#       rsp_export                 uvm_analysis_export                 -     @588 
#       seq_item_export            uvm_seq_item_pull_imp               -     @682 
#       arbitration_queue          array                               0     -    
#       lock_queue                 array                               0     -    
#       num_last_reqs              integral                            32    'd1  
#       num_last_rsps              integral                            32    'd1  
# --------------------------------------------------------------------------------
# 
# UVM_INFO ../env/axi_sb.sv(65) @ 0: uvm_test_top.env_h.sb_h [before event in sb] aaaa
# UVM_INFO ../env/m_agent/axi_m_mon.sv(29) @ 0: uvm_test_top.env_h.m_uvc_h.m_agent_h[0].m_mon_h [M MON RUN PHASE before] Inside master mon run phase
# UVM_INFO ../env/m_agent/axi_m_mon.sv(36) @ 0: uvm_test_top.env_h.m_uvc_h.m_agent_h[0].m_mon_h [M MON run PHASE after] Inside master mon
# UVM_INFO ../env/m_agent/axi_m_mon.sv(41) @ 0: uvm_test_top.env_h.m_uvc_h.m_agent_h[0].m_mon_h [M MON write addr PHASE before] Inside master mon
# UVM_INFO ../env/m_agent/axi_m_mon.sv(61) @ 0: uvm_test_top.env_h.m_uvc_h.m_agent_h[0].m_mon_h [M MON write data PHASE before] Inside master mon
# UVM_INFO ../env/m_agent/axi_m_mon.sv(86) @ 0: uvm_test_top.env_h.m_uvc_h.m_agent_h[0].m_mon_h [M MON read addr PHASE before] Inside master mon
# UVM_INFO ../env/m_agent/axi_m_mon.sv(108) @ 0: uvm_test_top.env_h.m_uvc_h.m_agent_h[0].m_mon_h [M MON read data PHASE before] Inside master mon
# Before AW CHANNEL
# Before W CHANNEL
# Before AR CHANNEL
# Before R CHANNEL
# AWLEN IN M DRV:38
# cnt : 1
# AWLEN IN M DRV:141
# cnt : 2
# AWLEN IN M DRV:7
# cnt : 3
# AWLEN IN M DRV:185
# cnt : 4
# AWLEN IN M DRV:96
# cnt : 5
# AWLEN IN M DRV:197
# cnt : 6
# AWLEN IN M DRV:34
# cnt : 7
# AWLEN IN M DRV:153
# cnt : 8
# AWLEN IN M DRV:35
# cnt : 9
# AWLEN IN M DRV:44
# cnt : 10
# AWLEN IN M DRV:86
# cnt : 11
# AWLEN IN M DRV:119
# cnt : 12
# AWLEN IN M DRV:34
# cnt : 13
# AWLEN IN M DRV:11
# cnt : 14
# AWLEN IN M DRV:78
# cnt : 15
# AWLEN IN M DRV:168
# cnt : 16
# AWLEN IN M DRV:13
# cnt : 17
# AWLEN IN M DRV:215
# cnt : 18
# AWLEN IN M DRV:50
# cnt : 19
# AWLEN IN M DRV:173
# cnt : 20
# AWLEN IN M DRV:35
# cnt : 21
# AWLEN IN M DRV:126
# cnt : 22
# AWLEN IN M DRV:88
# cnt : 23
# AWLEN IN M DRV:228
# cnt : 24
# AWLEN IN M DRV:51
# cnt : 25
# AWLEN IN M DRV:126
# cnt : 26
# AWLEN IN M DRV:43
# cnt : 27
# AWLEN IN M DRV:26
# cnt : 28
# AWLEN IN M DRV:85
# cnt : 29
# AWLEN IN M DRV:170
# cnt : 30
# AWLEN IN M DRV:46
# cnt : 31
# AWLEN IN M DRV:142
# cnt : 32
# AWLEN IN M DRV:70
# cnt : 33
# AWLEN IN M DRV:171
# cnt : 34
# AWLEN IN M DRV:78
# cnt : 35
# AWLEN IN M DRV:11
# cnt : 36
# AWLEN IN M DRV:40
# cnt : 37
# AWLEN IN M DRV:23
# cnt : 38
# AWLEN IN M DRV:66
# cnt : 39
# AWLEN IN M DRV:1
# cnt : 40
# AWLEN IN M DRV:21
# cnt : 41
# AWLEN IN M DRV:188
# cnt : 42
# AWLEN IN M DRV:45
# cnt : 43
# AWLEN IN M DRV:128
# cnt : 44
# AWLEN IN M DRV:58
# cnt : 45
# AWLEN IN M DRV:231
# cnt : 46
# AWLEN IN M DRV:85
# cnt : 47
# AWLEN IN M DRV:177
# cnt : 48
# AWLEN IN M DRV:0
# cnt : 49
# AWLEN IN M DRV:16
# cnt : 50
# AWLEN IN M DRV:84
# cnt : 51
# AWLEN IN M DRV:157
# cnt : 52
# AWLEN IN M DRV:3
# cnt : 53
# AWLEN IN M DRV:116
# cnt : 54
# AWLEN IN M DRV:48
# cnt : 55
# AWLEN IN M DRV:87
# cnt : 56
# AWLEN IN M DRV:62
# cnt : 57
# AWLEN IN M DRV:236
# cnt : 58
# AWLEN IN M DRV:66
# cnt : 59
# AWLEN IN M DRV:96
# cnt : 60
# AWLEN IN M DRV:73
# cnt : 61
# AWLEN IN M DRV:245
# cnt : 62
# AWLEN IN M DRV:64
# cnt : 63
# AWLEN IN M DRV:227
# cnt : 64
# AWLEN IN M DRV:26
# cnt : 65
# AWLEN IN M DRV:73
# cnt : 66
# AWLEN IN M DRV:66
# cnt : 67
# AWLEN IN M DRV:25
# cnt : 68
# AWLEN IN M DRV:16
# cnt : 69
# AWLEN IN M DRV:221
# cnt : 70
# AWLEN IN M DRV:61
# cnt : 71
# AWLEN IN M DRV:9
# cnt : 72
# AWLEN IN M DRV:95
# cnt : 73
# AWLEN IN M DRV:226
# cnt : 74
# AWLEN IN M DRV:89
# cnt : 75
# AWLEN IN M DRV:117
# cnt : 76
# AWLEN IN M DRV:32
# cnt : 77
# AWLEN IN M DRV:132
# cnt : 78
# AWLEN IN M DRV:81
# cnt : 79
# AWLEN IN M DRV:208
# cnt : 80
# AWLEN IN M DRV:74
# cnt : 81
# AWLEN IN M DRV:117
# cnt : 82
# AWLEN IN M DRV:80
# cnt : 83
# AWLEN IN M DRV:70
# cnt : 84
# AWLEN IN M DRV:47
# cnt : 85
# AWLEN IN M DRV:61
# cnt : 86
# AWLEN IN M DRV:83
# cnt : 87
# AWLEN IN M DRV:122
# cnt : 88
# AWLEN IN M DRV:70
# cnt : 89
# AWLEN IN M DRV:191
# cnt : 90
# AWLEN IN M DRV:78
# cnt : 91
# AWLEN IN M DRV:124
# cnt : 92
# AWLEN IN M DRV:72
# cnt : 93
# AWLEN IN M DRV:189
# cnt : 94
# AWLEN IN M DRV:80
# cnt : 95
# AWLEN IN M DRV:205
# cnt : 96
# AWLEN IN M DRV:84
# cnt : 97
# AWLEN IN M DRV:176
# cnt : 98
# AWLEN IN M DRV:20
# cnt : 99
# AWLEN IN M DRV:132
# cnt : 100
# AWLEN IN M DRV:65
# cnt : 101
# AWLEN IN M DRV:230
# cnt : 102
# AWLEN IN M DRV:12
# cnt : 103
# AWLEN IN M DRV:185
# cnt : 104
# AWLEN IN M DRV:8
# cnt : 105
# AWLEN IN M DRV:14
# cnt : 106
# AWLEN IN M DRV:75
# cnt : 107
# AWLEN IN M DRV:187
# cnt : 108
# AWLEN IN M DRV:50
# cnt : 109
# AWLEN IN M DRV:129
# cnt : 110
# AWLEN IN M DRV:81
# cnt : 111
# AWLEN IN M DRV:217
# cnt : 112
# AWLEN IN M DRV:8
# cnt : 113
# AWLEN IN M DRV:183
# cnt : 114
# AWLEN IN M DRV:41
# cnt : 115
# AWLEN IN M DRV:89
# cnt : 116
# AWLEN IN M DRV:63
# cnt : 117
# AWLEN IN M DRV:204
# cnt : 118
# AWLEN IN M DRV:64
# cnt : 119
# AWLEN IN M DRV:93
# cnt : 120
# AWLEN IN M DRV:17
# cnt : 121
# AWLEN IN M DRV:185
# cnt : 122
# AWLEN IN M DRV:8
# cnt : 123
# AWLEN IN M DRV:45
# cnt : 124
# AWLEN IN M DRV:61
# cnt : 125
# AWLEN IN M DRV:243
# cnt : 126
# AWLEN IN M DRV:63
# cnt : 127
# AWLEN IN M DRV:125
# cnt : 128
# AWLEN IN M DRV:26
# cnt : 129
# AWLEN IN M DRV:162
# cnt : 130
# AWLEN IN M DRV:34
# cnt : 131
# AWLEN IN M DRV:217
# cnt : 132
# AWLEN IN M DRV:83
# cnt : 133
# AWLEN IN M DRV:138
# cnt : 134
# AWLEN IN M DRV:96
# cnt : 135
# AWLEN IN M DRV:72
# cnt : 136
# AWLEN IN M DRV:14
# cnt : 137
# AWLEN IN M DRV:50
# cnt : 138
# AWLEN IN M DRV:94
# cnt : 139
# AWLEN IN M DRV:24
# cnt : 140
# AWLEN IN M DRV:26
# cnt : 141
# AWLEN IN M DRV:168
# cnt : 142
# AWLEN IN M DRV:62
# cnt : 143
# AWLEN IN M DRV:166
# cnt : 144
# AWLEN IN M DRV:47
# cnt : 145
# AWLEN IN M DRV:203
# cnt : 146
# AWLEN IN M DRV:68
# cnt : 147
# AWLEN IN M DRV:192
# cnt : 148
# AWLEN IN M DRV:74
# cnt : 149
# AWLEN IN M DRV:12
# cnt : 150
# AWLEN IN M DRV:57
# cnt : 151
# AWLEN IN M DRV:255
# cnt : 152
# AWLEN IN M DRV:45
# cnt : 153
# AWLEN IN M DRV:239
# cnt : 154
# AWLEN IN M DRV:23
# cnt : 155
# AWLEN IN M DRV:26
# cnt : 156
# AWLEN IN M DRV:75
# cnt : 157
# AWLEN IN M DRV:228
# cnt : 158
# AWLEN IN M DRV:25
# cnt : 159
# AWLEN IN M DRV:2
# cnt : 160
# AWLEN IN M DRV:95
# cnt : 161
# AWLEN IN M DRV:54
# cnt : 162
# AWLEN IN M DRV:27
# cnt : 163
# AWLEN IN M DRV:14
# cnt : 164
# AWLEN IN M DRV:74
# cnt : 165
# AWLEN IN M DRV:207
# cnt : 166
# AWLEN IN M DRV:53
# cnt : 167
# AWLEN IN M DRV:106
# cnt : 168
# AWLEN IN M DRV:8
# cnt : 169
# AWLEN IN M DRV:144
# cnt : 170
# AWLEN IN M DRV:9
# cnt : 171
# AWLEN IN M DRV:48
# cnt : 172
# AWLEN IN M DRV:45
# cnt : 173
# AWLEN IN M DRV:40
# cnt : 174
# AWLEN IN M DRV:18
# cnt : 175
# AWLEN IN M DRV:141
# cnt : 176
# AWLEN IN M DRV:87
# cnt : 177
# AWLEN IN M DRV:62
# cnt : 178
# AWLEN IN M DRV:41
# cnt : 179
# AWLEN IN M DRV:1
# cnt : 180
# AWLEN IN M DRV:63
# cnt : 181
# AWLEN IN M DRV:245
# cnt : 182
# AWLEN IN M DRV:87
# cnt : 183
# AWLEN IN M DRV:76
# cnt : 184
# AWLEN IN M DRV:0
# cnt : 185
# AWLEN IN M DRV:151
# cnt : 186
# AWLEN IN M DRV:90
# cnt : 187
# AWLEN IN M DRV:238
# cnt : 188
# AWLEN IN M DRV:39
# cnt : 189
# AWLEN IN M DRV:145
# cnt : 190
# AWLEN IN M DRV:35
# cnt : 191
# AWLEN IN M DRV:35
# cnt : 192
# AWLEN IN M DRV:51
# cnt : 193
# AWLEN IN M DRV:90
# cnt : 194
# AWLEN IN M DRV:31
# cnt : 195
# AWLEN IN M DRV:33
# cnt : 196
# AWLEN IN M DRV:41
# cnt : 197
# AWLEN IN M DRV:16
# cnt : 198
# AWLEN IN M DRV:11
# cnt : 199
# AWLEN IN M DRV:127
# cnt : 200
# WID: 26408 , AWID : 26408
# burst in s mon : 1
# awid in s mon : 6728 , awaddr : 1d9
#                   15wlast : 0
# WID: 26408 , AWID : 26408
# burst in s mon : 1
# awid in s mon : 1aa0 , awaddr : 232
# INIDE_SLAVE_MON_CTR=1
# arid in s mon : 31282
#                   25wlast : 0
# WID: 26408 , AWID : 26408
# m mon ar id : 7a32
# INIDE_SLAVE_MON_CTR=2
# arid in s mon : 28936
# burst in s mon : 1
# awid in s mon : e939 , awaddr : 1e8
#                   35wlast : 0
# WID: 26408 , AWID : 26408
# m mon ar id : 7108
# burst in s mon : 1
# awid in s mon : 3801 , awaddr : d3
# INIDE_SLAVE_MON_CTR=3
# arid in s mon : 35198
#                   45wlast : 0
# WID: 26408 , AWID : 26408
# m mon ar id : 897e
# INIDE_SLAVE_MON_CTR=4
# arid in s mon : 7915
# burst in s mon : 1
# awid in s mon : 839 , awaddr : 319
#                   55wlast : 0
# WID: 26408 , AWID : 26408
# m mon ar id : 1eeb
# burst in s mon : 1
# awid in s mon : b7b2 , awaddr : 3c2
# INIDE_SLAVE_MON_CTR=5
# arid in s mon : 29180
#                   65wlast : 0
# WID: 26408 , AWID : 26408
# m mon ar id : 71fc
# INIDE_SLAVE_MON_CTR=6
# arid in s mon : 21255
# burst in s mon : 1
# awid in s mon : 62a , awaddr : 288
#                   75wlast : 0
# WID: 26408 , AWID : 26408
# m mon ar id : 5307
# burst in s mon : 1
# awid in s mon : 6713 , awaddr : 18b
# INIDE_SLAVE_MON_CTR=7
# arid in s mon : 21001
#                   85wlast : 0
# WID: 26408 , AWID : 26408
# m mon ar id : 5209
# INIDE_SLAVE_MON_CTR=8
# arid in s mon : 47319
# burst in s mon : 1
# awid in s mon : 92fe , awaddr : 3b2
#                   95wlast : 0
# WID: 26408 , AWID : 26408
# m mon ar id : b8d7
# burst in s mon : 1
# awid in s mon : e4a8 , awaddr : 2c7
# INIDE_SLAVE_MON_CTR=9
# arid in s mon : 20867
#                  105wlast : 0
# WID: 26408 , AWID : 26408
# m mon ar id : 5183
# INIDE_SLAVE_MON_CTR=10
# arid in s mon : 45911
# burst in s mon : 1
# awid in s mon : f1b6 , awaddr : 24c
#                  115wlast : 0
# WID: 26408 , AWID : 26408
# m mon ar id : b357
# burst in s mon : 1
# awid in s mon : cfa6 , awaddr : 328
# INIDE_SLAVE_MON_CTR=11
# arid in s mon : 31203
#                  125wlast : 0
# WID: 26408 , AWID : 26408
# m mon ar id : 79e3
# INIDE_SLAVE_MON_CTR=12
# arid in s mon : 27690
# burst in s mon : 1
# awid in s mon : bfcb , awaddr : c9
#                  135wlast : 0
# WID: 26408 , AWID : 26408
# m mon ar id : 6c2a
# burst in s mon : 1
# awid in s mon : 500b , awaddr : 25f
# INIDE_SLAVE_MON_CTR=13
# arid in s mon : 25703
#                  145wlast : 0
# WID: 26408 , AWID : 26408
# m mon ar id : 6467
# INIDE_SLAVE_MON_CTR=14
# arid in s mon : 2783
# burst in s mon : 1
# awid in s mon : b734 , awaddr : 219
#                  155wlast : 0
# WID: 26408 , AWID : 26408
# m mon ar id : adf
# burst in s mon : 1
# awid in s mon : 5e23 , awaddr : 27b
# INIDE_SLAVE_MON_CTR=15
# arid in s mon : 17876
#                  165wlast : 0
# WID: 26408 , AWID : 26408
# m mon ar id : 45d4
# INIDE_SLAVE_MON_CTR=16
# arid in s mon : 46526
# burst in s mon : 1
# awid in s mon : c22f , awaddr : 4
#                  175wlast : 0
# WID: 26408 , AWID : 26408
# m mon ar id : b5be
# burst in s mon : 1
# awid in s mon : 605a , awaddr : 24d
# INIDE_SLAVE_MON_CTR=17
# arid in s mon : 37930
#                  185wlast : 0
# WID: 26408 , AWID : 26408
# m mon ar id : 942a
# INIDE_SLAVE_MON_CTR=18
# arid in s mon : 1641
# burst in s mon : 1
# awid in s mon : b031 , awaddr : 1a7
#                  195wlast : 0
# WID: 26408 , AWID : 26408
# m mon ar id : 669
# burst in s mon : 1
# awid in s mon : 71d2 , awaddr : 154
# INIDE_SLAVE_MON_CTR=19
# arid in s mon : 33626
#                  205wlast : 0
# WID: 26408 , AWID : 26408
# m mon ar id : 835a
# INIDE_SLAVE_MON_CTR=20
# arid in s mon : 36471
# burst in s mon : 1
# awid in s mon : eea3 , awaddr : 3ad
#                  215wlast : 0
# WID: 26408 , AWID : 26408
# m mon ar id : 8e77
# burst in s mon : 1
# awid in s mon : 4c59 , awaddr : 1dc
# INIDE_SLAVE_MON_CTR=21
# arid in s mon : 36064
#                  225wlast : 0
# WID: 26408 , AWID : 26408
# m mon ar id : 8ce0
# INIDE_SLAVE_MON_CTR=22
# arid in s mon : 52252
# burst in s mon : 1
# awid in s mon : 15fd , awaddr : 342
#                  235wlast : 0
# WID: 26408 , AWID : 26408
# m mon ar id : cc1c
# burst in s mon : 1
# awid in s mon : 430d , awaddr : d0
# INIDE_SLAVE_MON_CTR=23
# arid in s mon : 6879
#                  245wlast : 0
# WID: 26408 , AWID : 26408
# m mon ar id : 1adf
# INIDE_SLAVE_MON_CTR=24
# arid in s mon : 38572
# burst in s mon : 1
# awid in s mon : 6db0 , awaddr : 3a4
#                  255wlast : 0
# WID: 26408 , AWID : 26408
# m mon ar id : 96ac
# burst in s mon : 1
# awid in s mon : 432 , awaddr : 3cf
# INIDE_SLAVE_MON_CTR=25
# arid in s mon : 48852
#                  265wlast : 0
# WID: 26408 , AWID : 26408
# m mon ar id : bed4
# INIDE_SLAVE_MON_CTR=26
# arid in s mon : 7841
# burst in s mon : 1
# awid in s mon : ccd3 , awaddr : 345
#                  275wlast : 0
# WID: 26408 , AWID : 26408
# m mon ar id : 1ea1
# burst in s mon : 1
# awid in s mon : b759 , awaddr : 283
# INIDE_SLAVE_MON_CTR=27
# arid in s mon : 32659
#                  285wlast : 0
# WID: 26408 , AWID : 26408
# m mon ar id : 7f93
# INIDE_SLAVE_MON_CTR=28
# arid in s mon : 62872
# burst in s mon : 1
# awid in s mon : 7979 , awaddr : 1e9
#                  295wlast : 0
# WID: 26408 , AWID : 26408
# m mon ar id : f598
# burst in s mon : 1
# awid in s mon : 7115 , awaddr : 383
# INIDE_SLAVE_MON_CTR=29
# arid in s mon : 49979
#                  305wlast : 0
# WID: 26408 , AWID : 26408
# m mon ar id : c33b
# INIDE_SLAVE_MON_CTR=30
# arid in s mon : 61088
# burst in s mon : 1
# awid in s mon : 8324 , awaddr : 212
#                  315wlast : 0
# WID: 26408 , AWID : 26408
# m mon ar id : eea0
# burst in s mon : 1
# awid in s mon : fb5e , awaddr : 10c
# INIDE_SLAVE_MON_CTR=31
# arid in s mon : 53904
#                  325wlast : 0
# WID: 26408 , AWID : 26408
# m mon ar id : d290
# INIDE_SLAVE_MON_CTR=32
# arid in s mon : 273
# burst in s mon : 1
# awid in s mon : 2c67 , awaddr : 3ac
#                  335wlast : 0
# WID: 26408 , AWID : 26408
# m mon ar id : 111
# burst in s mon : 1
# awid in s mon : a46b , awaddr : 27b
# INIDE_SLAVE_MON_CTR=33
# arid in s mon : 40358
#                  345wlast : 0
# WID: 26408 , AWID : 26408
# m mon ar id : 9da6
# INIDE_SLAVE_MON_CTR=34
# arid in s mon : 58276
# burst in s mon : 1
# awid in s mon : 5485 , awaddr : 1fd
#                  355wlast : 0
# WID: 26408 , AWID : 26408
# m mon ar id : e3a4
# burst in s mon : 1
# awid in s mon : e392 , awaddr : 160
# INIDE_SLAVE_MON_CTR=35
# arid in s mon : 1351
#                  365wlast : 0
# WID: 26408 , AWID : 26408
# m mon ar id : 547
# INIDE_SLAVE_MON_CTR=36
# arid in s mon : 26158
# burst in s mon : 1
# awid in s mon : 9f13 , awaddr : 310
#                  375wlast : 0
# WID: 26408 , AWID : 26408
# m mon ar id : 662e
# burst in s mon : 1
# awid in s mon : e67c , awaddr : 11e
# INIDE_SLAVE_MON_CTR=37
# arid in s mon : 55326
#                  385wlast : 0
# WID: 26408 , AWID : 26408
# m mon ar id : d81e
# INIDE_SLAVE_MON_CTR=38
# arid in s mon : 31454
# burst in s mon : 1
# awid in s mon : 7912 , awaddr : 301
# abc : 1
# ref model mem : 481
# abc : 2
# ref model mem : 489
# abc : 3
# ref model mem : 497
# abc : 4
# ref model mem : 505
# abc : 5
# ref model mem : 513
# abc : 6
# ref model mem : 521
# abc : 7
# ref model mem : 529
# abc : 8
# ref model mem : 537
# abc : 9
# ref model mem : 545
# abc : 10
# ref model mem : 553
# abc : 11
# ref model mem : 561
# abc : 12
# ref model mem : 569
# abc : 13
# ref model mem : 577
# abc : 14
# ref model mem : 585
# abc : 15
# ref model mem : 593
# abc : 16
# ref model mem : 601
# abc : 17
# ref model mem : 609
# abc : 18
# ref model mem : 617
# abc : 19
# ref model mem : 625
# abc : 20
# ref model mem : 633
# abc : 21
# ref model mem : 641
# abc : 22
# ref model mem : 649
# abc : 23
# ref model mem : 657
# abc : 24
# ref model mem : 665
# abc : 25
# ref model mem : 673
# abc : 26
# ref model mem : 681
# abc : 27
# ref model mem : 689
# abc : 28
# ref model mem : 697
# abc : 29
# ref model mem : 705
# abc : 30
# ref model mem : 713
# abc : 31
# ref model mem : 721
# abc : 32
# ref model mem : 729
# abc : 33
# ref model mem : 737
# abc : 34
# ref model mem : 745
# abc : 35
# ref model mem : 753
# abc : 36
# ref model mem : 761
# abc : 37
# ref model mem : 769
# abc : 38
# ref model mem : 777
# abc : 39
# ref model mem : 785
# xyz : 1
# xyz : 2
# xyz : 3
# xyz : 4
# xyz : 5
# xyz : 6
# xyz : 7
# xyz : 8
# xyz : 9
# xyz : 10
# xyz : 11
# xyz : 12
# xyz : 13
# xyz : 14
# xyz : 15
# xyz : 16
# xyz : 17
# xyz : 18
# xyz : 19
# xyz : 20
# xyz : 21
# xyz : 22
# xyz : 23
# xyz : 24
# xyz : 25
# xyz : 26
# xyz : 27
#                  395wlast : 1
# AFFTER W CHANNEL
# WID: 6816 , AWID : 6816
# m mon ar id : 7ade
# req kind_e : WRITE
# match arid : 0 , rid : 0
# UVM_INFO ../env/s_agent/axi_s_drv.sv(31) @ 395: uvm_test_top.env_h.s_uvc_h.s_agent_h[0].s_drv_h [ID MATCH] aaaaa
# s seqs arid : 31282
# INIDE_SLAVE_SEQ_CTR=1
# match arid : 7a32 , rid : 7a32
# UVM_INFO ../env/s_agent/axi_s_drv.sv(31) @ 395: uvm_test_top.env_h.s_uvc_h.s_agent_h[0].s_drv_h [ID MATCH] aaaaa
# s seqs arid : 17876
# INIDE_SLAVE_SEQ_CTR=2
# match arid : 45d4 , rid : 45d4
# UVM_INFO ../env/s_agent/axi_s_drv.sv(31) @ 395: uvm_test_top.env_h.s_uvc_h.s_agent_h[0].s_drv_h [ID MATCH] aaaaa
# s seqs arid : 49979
# INIDE_SLAVE_SEQ_CTR=3
# match arid : c33b , rid : c33b
# UVM_INFO ../env/s_agent/axi_s_drv.sv(31) @ 395: uvm_test_top.env_h.s_uvc_h.s_agent_h[0].s_drv_h [ID MATCH] aaaaa
# rd data in s drv: f823cb00 , len : 9 , last:0 , valid : 1
# burst in s mon : 1
# awid in s mon : 1caa , awaddr : 268
# INIDE_SLAVE_MON_CTR=39
# arid in s mon : 34905
# xyz : 1
# xyz : 2
# ** Warning: (vsim-3829) Non-existent associative array entry. Returning default value.
#    Time: 405 ns  Iteration: 2  Process: /axi_s_agent_pkg::axi_s_mon #(32, 32)::monitor/#FORK#35_7fefec26bb6 File: ../env/axi_ref_model.sv Line: 83
# xyz : 3
# ** Warning: (vsim-3829) Non-existent associative array entry. Returning default value.
#    Time: 405 ns  Iteration: 2  Process: /axi_s_agent_pkg::axi_s_mon #(32, 32)::monitor/#FORK#35_7fefec26bb6 File: ../env/axi_ref_model.sv Line: 83
# xyz : 4
# ** Warning: (vsim-3829) Non-existent associative array entry. Returning default value.
#    Time: 405 ns  Iteration: 2  Process: /axi_s_agent_pkg::axi_s_mon #(32, 32)::monitor/#FORK#35_7fefec26bb6 File: ../env/axi_ref_model.sv Line: 83
# xyz : 5
# ** Warning: (vsim-3829) Non-existent associative array entry. Returning default value.
#    Time: 405 ns  Iteration: 2  Process: /axi_s_agent_pkg::axi_s_mon #(32, 32)::monitor/#FORK#35_7fefec26bb6 File: ../env/axi_ref_model.sv Line: 83
# xyz : 6
#                  405wlast : 0
# WID: 6816 , AWID : 6816
# m mon ar id : 8859
# m mon rid : 7a32
# ** Warning: (vsim-3829) Non-existent associative array entry. Returning default value.
#    Time: 405 ns  Iteration: 3  Process: /uvm_pkg::uvm_sequence_base::start/#FORK#294_7fefec268bc File: ../env/s_agent/axi_base_s_seqs.sv Line: 108
# ** Warning: (vsim-3829) Non-existent associative array entry. Returning default value.
#    Time: 405 ns  Iteration: 3  Process: /uvm_pkg::uvm_sequence_base::start/#FORK#294_7fefec268bc File: ../env/s_agent/axi_base_s_seqs.sv Line: 108
# ** Warning: (vsim-3829) Non-existent associative array entry. Returning default value.
#    Time: 405 ns  Iteration: 3  Process: /uvm_pkg::uvm_sequence_base::start/#FORK#294_7fefec268bc File: ../env/s_agent/axi_base_s_seqs.sv Line: 108
# ** Warning: (vsim-3829) Non-existent associative array entry. Returning default value.
#    Time: 405 ns  Iteration: 3  Process: /uvm_pkg::uvm_sequence_base::start/#FORK#294_7fefec268bc File: ../env/s_agent/axi_base_s_seqs.sv Line: 108
# s seqs arid : 34905
# INIDE_SLAVE_SEQ_CTR=4
# match arid : 8859 , rid : 8859
# UVM_INFO ../env/s_agent/axi_s_drv.sv(31) @ 405: uvm_test_top.env_h.s_uvc_h.s_agent_h[0].s_drv_h [ID MATCH] aaaaa
# rd data in s drv: 11209bf5 , len : 9 , last:0 , valid : 1
# INIDE_SLAVE_MON_CTR=40
# arid in s mon : 56093
# burst in s mon : 1
# awid in s mon : c81a , awaddr : 18f
#                  415wlast : 0
# WID: 6816 , AWID : 6816
# m mon rid : 7a32
# m mon ar id : db1d
# UVM_INFO ../env/m_agent/axi_base_m_seqs.sv(26) @ 415: uvm_test_top.env_h.m_uvc_h.m_agent_h[0].m_seqr_h@@vseqs_h.m_wseqs_h [IN V SEQS] Got B-channel response from driver
# rd data in s drv: e3147b62 , len : 9 , last:0 , valid : 1
# burst in s mon : 1
# awid in s mon : dd9e , awaddr : 29
# INIDE_SLAVE_MON_CTR=41
# arid in s mon : 8173
#                  425wlast : 0
# WID: 6816 , AWID : 6816
# m mon ar id : 1fed
# m mon rid : 7a32
# rd data in s drv: 524fc149 , len : 9 , last:0 , valid : 1
# INIDE_SLAVE_MON_CTR=42
# arid in s mon : 48675
# burst in s mon : 1
# awid in s mon : 139f , awaddr : 3d
#                  435wlast : 0
# WID: 6816 , AWID : 6816
# m mon rid : 7a32
# m mon ar id : be23
# rd data in s drv: 10f8dc7e , len : 9 , last:0 , valid : 1
# burst in s mon : 1
# awid in s mon : 9498 , awaddr : b
# INIDE_SLAVE_MON_CTR=43
# arid in s mon : 42563
#                  445wlast : 0
# WID: 6816 , AWID : 6816
# m mon ar id : a643
# m mon rid : 7a32
# rd data in s drv: 53e3e714 , len : 9 , last:0 , valid : 1
# INIDE_SLAVE_MON_CTR=44
# arid in s mon : 56402
# burst in s mon : 1
# awid in s mon : 4790 , awaddr : 2ad
#                  455wlast : 0
# WID: 6816 , AWID : 6816
# m mon rid : 7a32
# m mon ar id : dc52
# rd data in s drv: 7d667fc6 , len : 9 , last:0 , valid : 1
# burst in s mon : 1
# awid in s mon : e6b2 , awaddr : 186
# INIDE_SLAVE_MON_CTR=45
# arid in s mon : 19394
#                  465wlast : 0
# WID: 6816 , AWID : 6816
# m mon ar id : 4bc2
# m mon rid : 7a32
# rd data in s drv: b30a906a , len : 9 , last:0 , valid : 1
# INIDE_SLAVE_MON_CTR=46
# arid in s mon : 59561
# burst in s mon : 1
# awid in s mon : 773e , awaddr : 1b5
# abc : 1
# ref model mem : 570
# abc : 2
# ref model mem : 578
# abc : 3
# ref model mem : 586
# abc : 4
# ref model mem : 594
# abc : 5
# ref model mem : 602
# abc : 6
# ref model mem : 610
# abc : 7
# ref model mem : 618
# abc : 8
# ref model mem : 626
# xyz : 1
# xyz : 2
# xyz : 3
# xyz : 4
# xyz : 5
#                  475wlast : 1
# AFFTER W CHANNEL
# WID: 59705 , AWID : 59705
# m mon rid : 7a32
# m mon ar id : e8a9
# req kind_e : WRITE
# match arid : 0 , rid : 0
# UVM_INFO ../env/s_agent/axi_s_drv.sv(31) @ 475: uvm_test_top.env_h.s_uvc_h.s_agent_h[0].s_drv_h [ID MATCH] aaaaa
# s seqs arid : 28936
# INIDE_SLAVE_SEQ_CTR=5
# match arid : 7108 , rid : 7108
# UVM_INFO ../env/s_agent/axi_s_drv.sv(31) @ 475: uvm_test_top.env_h.s_uvc_h.s_agent_h[0].s_drv_h [ID MATCH] aaaaa
# rd data in s drv: 73f1caa5 , len : 9 , last:0 , valid : 1
# burst in s mon : 1
# awid in s mon : c46c , awaddr : 5a
# INIDE_SLAVE_MON_CTR=47
# arid in s mon : 43967
#                  485wlast : 0
# WID: 59705 , AWID : 59705
# m mon ar id : abbf
# m mon rid : 7a32
# rd data in s drv: 25969b89 , len : 9 , last:1 , valid : 1
# INIDE_SLAVE_MON_CTR=48
# arid in s mon : 44769
# burst in s mon : 1
# awid in s mon : b4df , awaddr : 1e
#                  495wlast : 0
# WID: 59705 , AWID : 59705
# req kind : READ
# m mon rid : 7a32
# m mon ar id : aee1
# UVM_INFO ../env/m_agent/axi_base_m_seqs.sv(26) @ 495: uvm_test_top.env_h.m_uvc_h.m_agent_h[0].m_seqr_h@@vseqs_h.m_wseqs_h [IN V SEQS] Got B-channel response from driver
# UVM_INFO ../env/axi_sb.sv(67) @ 495: uvm_test_top.env_h.sb_h [after event in sb] aaaa
# UVM_INFO ../env/axi_sb.sv(65) @ 495: uvm_test_top.env_h.sb_h [before event in sb] aaaa
# rd data in s drv: 73f1caa5 , len : 9 , last:0 , valid : 1
# burst in s mon : 1
# awid in s mon : 4901 , awaddr : 265
# INIDE_SLAVE_MON_CTR=49
# arid in s mon : 52972
#                  505wlast : 0
# WID: 59705 , AWID : 59705
# m mon ar id : ceec
# m mon rid : 45d4
# rd data in s drv: 25969b89 , len : 9 , last:0 , valid : 1
# INIDE_SLAVE_MON_CTR=50
# arid in s mon : 6355
# burst in s mon : 1
# awid in s mon : 5a2c , awaddr : 2da
#                  515wlast : 0
# WID: 59705 , AWID : 59705
# m mon rid : 45d4
# m mon ar id : 18d3
# rd data in s drv: 462814aa , len : 9 , last:0 , valid : 1
# burst in s mon : 1
# awid in s mon : 5ef2 , awaddr : 126
# INIDE_SLAVE_MON_CTR=51
# arid in s mon : 48262
#                  525wlast : 0
# WID: 59705 , AWID : 59705
# m mon ar id : bc86
# m mon rid : 45d4
# rd data in s drv: 78f2c5f0 , len : 9 , last:0 , valid : 1
# INIDE_SLAVE_MON_CTR=52
# arid in s mon : 2685
# burst in s mon : 1
# awid in s mon : 48be , awaddr : 94
#                  535wlast : 0
# WID: 59705 , AWID : 59705
# m mon rid : 45d4
# m mon ar id : a7d
# rd data in s drv: e5c6a807 , len : 9 , last:0 , valid : 1
# burst in s mon : 1
# awid in s mon : 2029 , awaddr : 2cf
# INIDE_SLAVE_MON_CTR=53
# arid in s mon : 42269
#                  545wlast : 0
# WID: 59705 , AWID : 59705
# m mon ar id : a51d
# m mon rid : 45d4
# rd data in s drv: ee6e3a3c , len : 9 , last:0 , valid : 1
# INIDE_SLAVE_MON_CTR=54
# arid in s mon : 27503
# burst in s mon : 1
# awid in s mon : 6f5e , awaddr : 16d
#                  555wlast : 0
# WID: 59705 , AWID : 59705
# m mon rid : 45d4
# m mon ar id : 6b6f
# rd data in s drv: 3d734001 , len : 9 , last:0 , valid : 1
# burst in s mon : 1
# awid in s mon : c4cd , awaddr : e3
# INIDE_SLAVE_MON_CTR=55
# arid in s mon : 34515
#                  565wlast : 0
# WID: 59705 , AWID : 59705
# m mon ar id : 86d3
# m mon rid : 45d4
# rd data in s drv: aae79cfb , len : 9 , last:0 , valid : 1
# INIDE_SLAVE_MON_CTR=56
# arid in s mon : 40717
# burst in s mon : 1
# awid in s mon : 9bbb , awaddr : 20a
#                  575wlast : 0
# WID: 59705 , AWID : 59705
# m mon rid : 45d4
# m mon ar id : 9f0d
# rd data in s drv: 662a2fd , len : 9 , last:0 , valid : 1
# burst in s mon : 1
# awid in s mon : 6ea5 , awaddr : 32d
# INIDE_SLAVE_MON_CTR=57
# arid in s mon : 13078
#                  585wlast : 0
# WID: 59705 , AWID : 59705
# m mon ar id : 3316
# m mon rid : 45d4
# rd data in s drv: 89397711 , len : 9 , last:1 , valid : 1
# INIDE_SLAVE_MON_CTR=58
# arid in s mon : 32216
# burst in s mon : 1
# awid in s mon : 1b42 , awaddr : e2
#                  595wlast : 0
# WID: 59705 , AWID : 59705
# req kind : READ
# m mon rid : 45d4
# m mon ar id : 7dd8
# UVM_INFO ../env/axi_sb.sv(67) @ 595: uvm_test_top.env_h.sb_h [after event in sb] aaaa
# UVM_INFO ../env/axi_sb.sv(65) @ 595: uvm_test_top.env_h.sb_h [before event in sb] aaaa
# rd data in s drv: e3147b62 , len : 6 , last:0 , valid : 1
# burst in s mon : 1
# awid in s mon : b634 , awaddr : 35
# INIDE_SLAVE_MON_CTR=59
# arid in s mon : 36317
#                  605wlast : 0
# WID: 59705 , AWID : 59705
# m mon ar id : 8ddd
# m mon rid : c33b
# rd data in s drv: 524fc149 , len : 6 , last:0 , valid : 1
# INIDE_SLAVE_MON_CTR=60
# arid in s mon : 33691
# burst in s mon : 1
# awid in s mon : e32a , awaddr : 120
#                  615wlast : 0
# WID: 59705 , AWID : 59705
# m mon rid : c33b
# m mon ar id : 839b
# rd data in s drv: 10f8dc7e , len : 6 , last:0 , valid : 1
# burst in s mon : 1
# awid in s mon : 73c6 , awaddr : 49
# INIDE_SLAVE_MON_CTR=61
# arid in s mon : 17906
#                  625wlast : 0
# WID: 59705 , AWID : 59705
# m mon ar id : 45f2
# m mon rid : c33b
# rd data in s drv: 53e3e714 , len : 6 , last:0 , valid : 1
# INIDE_SLAVE_MON_CTR=62
# arid in s mon : 31200
# burst in s mon : 1
# awid in s mon : 4519 , awaddr : 97
#                  635wlast : 0
# WID: 59705 , AWID : 59705
# m mon rid : c33b
# m mon ar id : 79e0
# rd data in s drv: 7d667fc6 , len : 6 , last:0 , valid : 1
# burst in s mon : 1
# awid in s mon : f886 , awaddr : 1c
# INIDE_SLAVE_MON_CTR=63
# arid in s mon : 54887
#                  645wlast : 0
# WID: 59705 , AWID : 59705
# m mon ar id : d667
# m mon rid : c33b
# rd data in s drv: b30a906a , len : 6 , last:0 , valid : 1
# INIDE_SLAVE_MON_CTR=64
# arid in s mon : 60217
# burst in s mon : 1
# awid in s mon : 72fb , awaddr : c9
#                  655wlast : 0
# WID: 59705 , AWID : 59705
# m mon rid : c33b
# m mon ar id : eb39
# rd data in s drv: 73f1caa5 , len : 6 , last:1 , valid : 1
# burst in s mon : 1
# awid in s mon : 3e06 , awaddr : 179
# INIDE_SLAVE_MON_CTR=65
# arid in s mon : 15306
#                  665wlast : 0
# WID: 59705 , AWID : 59705
# m mon ar id : 3bca
# req kind : READ
# m mon rid : c33b
# UVM_INFO ../env/axi_sb.sv(67) @ 665: uvm_test_top.env_h.sb_h [after event in sb] aaaa
# UVM_INFO ../env/axi_sb.sv(65) @ 665: uvm_test_top.env_h.sb_h [before event in sb] aaaa
# rd data in s drv: b9c9893f , len : 5 , last:0 , valid : 1
# INIDE_SLAVE_MON_CTR=66
# arid in s mon : 19842
# burst in s mon : 1
# awid in s mon : 553c , awaddr : 2f7
#                  675wlast : 0
# WID: 59705 , AWID : 59705
# m mon rid : 8859
# m mon ar id : 4d82
# rd data in s drv: f73d793b , len : 5 , last:0 , valid : 1
# burst in s mon : 1
# awid in s mon : ce3e , awaddr : 3dc
# INIDE_SLAVE_MON_CTR=67
# arid in s mon : 42698
#                  685wlast : 0
# WID: 59705 , AWID : 59705
# m mon ar id : a6ca
# m mon rid : 8859
# rd data in s drv: 0 , len : 5 , last:0 , valid : 1
# INIDE_SLAVE_MON_CTR=68
# arid in s mon : 45363
# burst in s mon : 1
# awid in s mon : 3151 , awaddr : 2f8
#                  695wlast : 0
# WID: 59705 , AWID : 59705
# m mon rid : 8859
# m mon ar id : b133
# rd data in s drv: 0 , len : 5 , last:0 , valid : 1
# burst in s mon : 1
# awid in s mon : f97f , awaddr : 98
# INIDE_SLAVE_MON_CTR=69
# arid in s mon : 44591
#                  705wlast : 0
# WID: 59705 , AWID : 59705
# m mon ar id : ae2f
# m mon rid : 8859
# rd data in s drv: 0 , len : 5 , last:0 , valid : 1
# INIDE_SLAVE_MON_CTR=70
# arid in s mon : 23906
# burst in s mon : 1
# awid in s mon : cda3 , awaddr : 1ed
#                  715wlast : 0
# WID: 59705 , AWID : 59705
# m mon rid : 8859
# m mon ar id : 5d62
# rd data in s drv: 0 , len : 5 , last:1 , valid : 1
# burst in s mon : 1
# awid in s mon : d108 , awaddr : 246
# INIDE_SLAVE_MON_CTR=71
# arid in s mon : 19496
#                  725wlast : 0
# WID: 59705 , AWID : 59705
# m mon ar id : 4c28
# req kind : READ
# m mon rid : 8859
# UVM_INFO ../env/axi_sb.sv(67) @ 725: uvm_test_top.env_h.sb_h [after event in sb] aaaa
# UVM_INFO ../env/axi_sb.sv(65) @ 725: uvm_test_top.env_h.sb_h [before event in sb] aaaa
# rd data in s drv: bf630000 , len : 4 , last:0 , valid : 1
# INIDE_SLAVE_MON_CTR=72
# arid in s mon : 25780
# burst in s mon : 1
# awid in s mon : a00 , awaddr : 1af
#                  735wlast : 0
# WID: 59705 , AWID : 59705
# m mon rid : 7108
# m mon ar id : 64b4
# rd data in s drv: 1a86fa15 , len : 4 , last:0 , valid : 1
# burst in s mon : 1
# awid in s mon : 232d , awaddr : 137
# INIDE_SLAVE_MON_CTR=73
# arid in s mon : 33351
#                  745wlast : 0
# WID: 59705 , AWID : 59705
# m mon ar id : 8247
# m mon rid : 7108
# rd data in s drv: 59a91c70 , len : 4 , last:0 , valid : 1
# INIDE_SLAVE_MON_CTR=74
# arid in s mon : 41754
# burst in s mon : 1
# awid in s mon : bd27 , awaddr : 3e6
#                  755wlast : 0
# WID: 59705 , AWID : 59705
# m mon rid : 7108
# m mon ar id : a31a
# rd data in s drv: c0bf64c4 , len : 4 , last:0 , valid : 1
# burst in s mon : 1
# awid in s mon : fee3 , awaddr : 228
# INIDE_SLAVE_MON_CTR=75
# arid in s mon : 20854
#                  765wlast : 0
# WID: 59705 , AWID : 59705
# m mon ar id : 5176
# m mon rid : 7108
# rd data in s drv: 7cb56a9e , len : 4 , last:1 , valid : 1
# INIDE_SLAVE_MON_CTR=76
# arid in s mon : 8855
# burst in s mon : 1
# awid in s mon : 57a9 , awaddr : 239
#                  775wlast : 0
# WID: 59705 , AWID : 59705
# req kind : READ
# m mon rid : 7108
# m mon ar id : 2297
# UVM_INFO ../env/axi_sb.sv(67) @ 775: uvm_test_top.env_h.sb_h [after event in sb] aaaa
# UVM_INFO ../env/axi_sb.sv(65) @ 775: uvm_test_top.env_h.sb_h [before event in sb] aaaa
# burst in s mon : 1
# awid in s mon : 4eed , awaddr : 30a
# INIDE_SLAVE_MON_CTR=77
# arid in s mon : 53040
# xyz : 1
#                  785wlast : 0
# WID: 59705 , AWID : 59705
# m mon ar id : cf30
# s seqs arid : 53040
# INIDE_SLAVE_SEQ_CTR=6
# match arid : cf30 , rid : cf30
# UVM_INFO ../env/s_agent/axi_s_drv.sv(31) @ 785: uvm_test_top.env_h.s_uvc_h.s_agent_h[0].s_drv_h [ID MATCH] aaaaa
# rd data in s drv: e5c6a807 , len : 0 , last:1 , valid : 1
# INIDE_SLAVE_MON_CTR=78
# arid in s mon : 52605
# burst in s mon : 1
# awid in s mon : 57d6 , awaddr : 187
#                  795wlast : 0
# WID: 59705 , AWID : 59705
# m mon ar id : cd7d
# req kind : READ
# m mon rid : cf30
# UVM_INFO ../env/axi_sb.sv(67) @ 795: uvm_test_top.env_h.sb_h [after event in sb] aaaa
# UVM_INFO ../env/axi_sb.sv(65) @ 795: uvm_test_top.env_h.sb_h [before event in sb] aaaa
# burst in s mon : 1
# awid in s mon : d6be , awaddr : 398
# INIDE_SLAVE_MON_CTR=79
# arid in s mon : 56265
#                  805wlast : 0
# WID: 59705 , AWID : 59705
# m mon ar id : dbc9
# INIDE_SLAVE_MON_CTR=80
# arid in s mon : 31238
# burst in s mon : 1
# awid in s mon : bb6b , awaddr : 19c
#                  815wlast : 0
# WID: 59705 , AWID : 59705
# m mon ar id : 7a06
# burst in s mon : 1
# awid in s mon : 3e4a , awaddr : 34a
# INIDE_SLAVE_MON_CTR=81
# arid in s mon : 61693
#                  825wlast : 0
# WID: 59705 , AWID : 59705
# m mon ar id : f0fd
# INIDE_SLAVE_MON_CTR=82
# arid in s mon : 62795
# burst in s mon : 1
# awid in s mon : 6d87 , awaddr : 1c5
#                  835wlast : 0
# WID: 59705 , AWID : 59705
# m mon ar id : f54b
# burst in s mon : 1
# awid in s mon : af80 , awaddr : c4
# INIDE_SLAVE_MON_CTR=83
# arid in s mon : 54123
#                  845wlast : 0
# WID: 59705 , AWID : 59705
# m mon ar id : d36b
# INIDE_SLAVE_MON_CTR=84
# arid in s mon : 30610
# burst in s mon : 1
# awid in s mon : 3768 , awaddr : 337
#                  855wlast : 0
# WID: 59705 , AWID : 59705
# m mon ar id : 7792
# burst in s mon : 1
# awid in s mon : 373e , awaddr : 1c2
# INIDE_SLAVE_MON_CTR=85
# arid in s mon : 27708
#                  865wlast : 0
# WID: 59705 , AWID : 59705
# m mon ar id : 6c3c
# INIDE_SLAVE_MON_CTR=86
# arid in s mon : 31298
# burst in s mon : 1
# awid in s mon : d43 , awaddr : 197
#                  875wlast : 0
# WID: 59705 , AWID : 59705
# m mon ar id : 7a42
# burst in s mon : 1
# awid in s mon : f12b , awaddr : 350
# INIDE_SLAVE_MON_CTR=87
# arid in s mon : 26663
#                  885wlast : 0
# WID: 59705 , AWID : 59705
# m mon ar id : 6827
# INIDE_SLAVE_MON_CTR=88
# arid in s mon : 27406
# burst in s mon : 1
# awid in s mon : a635 , awaddr : 349
#                  895wlast : 0
# WID: 59705 , AWID : 59705
# m mon ar id : 6b0e
# burst in s mon : 1
# awid in s mon : 6a6e , awaddr : 18d
# INIDE_SLAVE_MON_CTR=89
# arid in s mon : 5462
#                  905wlast : 0
# WID: 59705 , AWID : 59705
# m mon ar id : 1556
# INIDE_SLAVE_MON_CTR=90
# arid in s mon : 48932
# burst in s mon : 1
# awid in s mon : 5165 , awaddr : 290
#                  915wlast : 0
# WID: 59705 , AWID : 59705
# m mon ar id : bf24
# burst in s mon : 1
# awid in s mon : 232b , awaddr : 2b3
# INIDE_SLAVE_MON_CTR=91
# arid in s mon : 5592
#                  925wlast : 0
# WID: 59705 , AWID : 59705
# m mon ar id : 15d8
# INIDE_SLAVE_MON_CTR=92
# arid in s mon : 12460
# burst in s mon : 1
# awid in s mon : 55e2 , awaddr : 36
#                  935wlast : 0
# WID: 59705 , AWID : 59705
# m mon ar id : 30ac
# burst in s mon : 1
# awid in s mon : 19d9 , awaddr : 1e4
# INIDE_SLAVE_MON_CTR=93
# arid in s mon : 7732
#                  945wlast : 0
# WID: 59705 , AWID : 59705
# m mon ar id : 1e34
# INIDE_SLAVE_MON_CTR=94
# arid in s mon : 37020
# burst in s mon : 1
# awid in s mon : 53c0 , awaddr : 23a
#                  955wlast : 0
# WID: 59705 , AWID : 59705
# m mon ar id : 909c
# burst in s mon : 1
# awid in s mon : f970 , awaddr : 102
# INIDE_SLAVE_MON_CTR=95
# arid in s mon : 12475
# xyz : 1
# xyz : 2
# xyz : 3
# xyz : 4
#                  965wlast : 0
# WID: 59705 , AWID : 59705
# m mon ar id : 30bb
# s seqs arid : 12475
# INIDE_SLAVE_SEQ_CTR=7
# match arid : 30bb , rid : 30bb
# UVM_INFO ../env/s_agent/axi_s_drv.sv(31) @ 965: uvm_test_top.env_h.s_uvc_h.s_agent_h[0].s_drv_h [ID MATCH] aaaaa
# rd data in s drv: 1a86fa15 , len : 3 , last:0 , valid : 1
# INIDE_SLAVE_MON_CTR=96
# arid in s mon : 12814
# burst in s mon : 1
# awid in s mon : 43ad , awaddr : 3d1
#                  975wlast : 0
# WID: 59705 , AWID : 59705
# m mon ar id : 320e
# m mon rid : 30bb
# rd data in s drv: 59a91c70 , len : 3 , last:0 , valid : 1
# burst in s mon : 1
# awid in s mon : 9c54 , awaddr : 281
# INIDE_SLAVE_MON_CTR=97
# arid in s mon : 53371
#                  985wlast : 0
# WID: 59705 , AWID : 59705
# m mon rid : 30bb
# m mon ar id : d07b
# rd data in s drv: c0bf64c4 , len : 3 , last:0 , valid : 1
# INIDE_SLAVE_MON_CTR=98
# arid in s mon : 58560
# xyz : 1
# xyz : 2
# xyz : 3
# xyz : 4
# xyz : 5
# xyz : 6
# xyz : 7
# xyz : 8
# xyz : 9
# burst in s mon : 1
# awid in s mon : b395 , awaddr : 179
#                  995wlast : 0
# WID: 59705 , AWID : 59705
# m mon ar id : e4c0
# m mon rid : 30bb
# s seqs arid : 58560
# INIDE_SLAVE_SEQ_CTR=8
# match arid : e4c0 , rid : e4c0
# UVM_INFO ../env/s_agent/axi_s_drv.sv(31) @ 995: uvm_test_top.env_h.s_uvc_h.s_agent_h[0].s_drv_h [ID MATCH] aaaaa
# rd data in s drv: 7cb56a9e , len : 3 , last:1 , valid : 1
# burst in s mon : 1
# awid in s mon : a1bc , awaddr : 3b2
# INIDE_SLAVE_MON_CTR=99
# arid in s mon : 14820
#                 1005wlast : 0
# WID: 59705 , AWID : 59705
# req kind : READ
# m mon rid : 30bb
# m mon ar id : 39e4
# UVM_INFO ../env/axi_sb.sv(67) @ 1005: uvm_test_top.env_h.sb_h [after event in sb] aaaa
# UVM_INFO ../env/axi_sb.sv(65) @ 1005: uvm_test_top.env_h.sb_h [before event in sb] aaaa
# rd data in s drv: f470ed98 , len : 8 , last:0 , valid : 1
# INIDE_SLAVE_MON_CTR=100
# arid in s mon : 19785
#                 1015wlast : 0
# WID: 59705 , AWID : 59705
# m mon ar id : 4d49
# m mon rid : e4c0
# rd data in s drv: ae5ff1bd , len : 8 , last:0 , valid : 1
#                 1025wlast : 0
# WID: 59705 , AWID : 59705
# m mon rid : e4c0
# rd data in s drv: fb1410a6 , len : 8 , last:0 , valid : 1
#                 1035wlast : 0
# WID: 59705 , AWID : 59705
# m mon rid : e4c0
# rd data in s drv: bbd51e33 , len : 8 , last:0 , valid : 1
#                 1045wlast : 0
# WID: 59705 , AWID : 59705
# m mon rid : e4c0
# rd data in s drv: 6c990ff8 , len : 8 , last:0 , valid : 1
#                 1055wlast : 0
# WID: 59705 , AWID : 59705
# m mon rid : e4c0
# rd data in s drv: 5af3dea1 , len : 8 , last:0 , valid : 1
#                 1065wlast : 0
# WID: 59705 , AWID : 59705
# m mon rid : e4c0
# rd data in s drv: c99f7ddb , len : 8 , last:0 , valid : 1
#                 1075wlast : 0
# WID: 59705 , AWID : 59705
# m mon rid : e4c0
# rd data in s drv: afa1879 , len : 8 , last:0 , valid : 1
#                 1085wlast : 0
# WID: 59705 , AWID : 59705
# m mon rid : e4c0
# rd data in s drv: aee49e7a , len : 8 , last:1 , valid : 1
#                 1095wlast : 0
# WID: 59705 , AWID : 59705
# req kind : READ
# m mon rid : e4c0
# UVM_INFO ../env/axi_sb.sv(67) @ 1095: uvm_test_top.env_h.sb_h [after event in sb] aaaa
# UVM_INFO ../env/axi_sb.sv(65) @ 1095: uvm_test_top.env_h.sb_h [before event in sb] aaaa
#                 1105wlast : 0
# WID: 59705 , AWID : 59705
#                 1115wlast : 0
# WID: 59705 , AWID : 59705
#                 1125wlast : 0
# WID: 59705 , AWID : 59705
#                 1135wlast : 0
# WID: 59705 , AWID : 59705
#                 1145wlast : 0
# WID: 59705 , AWID : 59705
#                 1155wlast : 0
# WID: 59705 , AWID : 59705
#                 1165wlast : 0
# WID: 59705 , AWID : 59705
#                 1175wlast : 0
# WID: 59705 , AWID : 59705
#                 1185wlast : 0
# WID: 59705 , AWID : 59705
#                 1195wlast : 0
# WID: 59705 , AWID : 59705
#                 1205wlast : 0
# WID: 59705 , AWID : 59705
#                 1215wlast : 0
# WID: 59705 , AWID : 59705
#                 1225wlast : 0
# WID: 59705 , AWID : 59705
#                 1235wlast : 0
# WID: 59705 , AWID : 59705
#                 1245wlast : 0
# WID: 59705 , AWID : 59705
#                 1255wlast : 0
# WID: 59705 , AWID : 59705
#                 1265wlast : 0
# WID: 59705 , AWID : 59705
#                 1275wlast : 0
# WID: 59705 , AWID : 59705
#                 1285wlast : 0
# WID: 59705 , AWID : 59705
#                 1295wlast : 0
# WID: 59705 , AWID : 59705
#                 1305wlast : 0
# WID: 59705 , AWID : 59705
#                 1315wlast : 0
# WID: 59705 , AWID : 59705
#                 1325wlast : 0
# WID: 59705 , AWID : 59705
#                 1335wlast : 0
# WID: 59705 , AWID : 59705
#                 1345wlast : 0
# WID: 59705 , AWID : 59705
#                 1355wlast : 0
# WID: 59705 , AWID : 59705
#                 1365wlast : 0
# WID: 59705 , AWID : 59705
#                 1375wlast : 0
# WID: 59705 , AWID : 59705
#                 1385wlast : 0
# WID: 59705 , AWID : 59705
#                 1395wlast : 0
# WID: 59705 , AWID : 59705
#                 1405wlast : 0
# WID: 59705 , AWID : 59705
#                 1415wlast : 0
# WID: 59705 , AWID : 59705
#                 1425wlast : 0
# WID: 59705 , AWID : 59705
#                 1435wlast : 0
# WID: 59705 , AWID : 59705
# abc : 1
# ref model mem : 496
# abc : 2
# ref model mem : 504
# abc : 3
# ref model mem : 512
# abc : 4
# ref model mem : 520
# abc : 5
# ref model mem : 528
# abc : 6
# ref model mem : 536
# abc : 7
# ref model mem : 544
# abc : 8
# ref model mem : 552
# abc : 9
# ref model mem : 560
# abc : 10
# ref model mem : 568
# abc : 11
# ref model mem : 576
# abc : 12
# ref model mem : 584
# abc : 13
# ref model mem : 592
# abc : 14
# ref model mem : 600
# abc : 15
# ref model mem : 608
# abc : 16
# ref model mem : 616
# abc : 17
# ref model mem : 624
# abc : 18
# ref model mem : 632
# abc : 19
# ref model mem : 640
# abc : 20
# ref model mem : 648
# abc : 21
# ref model mem : 656
# abc : 22
# ref model mem : 664
# abc : 23
# ref model mem : 672
# abc : 24
# ref model mem : 680
# abc : 25
# ref model mem : 688
# abc : 26
# ref model mem : 696
# abc : 27
# ref model mem : 704
# abc : 28
# ref model mem : 712
# abc : 29
# ref model mem : 720
# abc : 30
# ref model mem : 728
# abc : 31
# ref model mem : 736
# abc : 32
# ref model mem : 744
# abc : 33
# ref model mem : 752
# abc : 34
# ref model mem : 760
# abc : 35
# ref model mem : 768
# abc : 36
# ref model mem : 776
# abc : 37
# ref model mem : 784
# abc : 38
# ref model mem : 792
# abc : 39
# ref model mem : 800
# abc : 40
# ref model mem : 808
# abc : 41
# ref model mem : 816
# abc : 42
# ref model mem : 824
# abc : 43
# ref model mem : 832
# abc : 44
# ref model mem : 840
# abc : 45
# ref model mem : 848
# abc : 46
# ref model mem : 856
# abc : 47
# ref model mem : 864
# abc : 48
# ref model mem : 872
# abc : 49
# ref model mem : 880
# abc : 50
# ref model mem : 888
# abc : 51
# ref model mem : 896
# abc : 52
# ref model mem : 904
# abc : 53
# ref model mem : 912
# abc : 54
# ref model mem : 920
# abc : 55
# ref model mem : 928
# abc : 56
# ref model mem : 936
# abc : 57
# ref model mem : 944
# abc : 58
# ref model mem : 952
# abc : 59
# ref model mem : 960
# abc : 60
# ref model mem : 968
# abc : 61
# ref model mem : 976
# abc : 62
# ref model mem : 984
# abc : 63
# ref model mem : 992
# abc : 64
# ref model mem : 1000
# abc : 65
# ref model mem : 1008
# abc : 66
# ref model mem : 1016
# abc : 67
# ref model mem : 1024
# abc : 68
# ref model mem : 1032
# abc : 69
# ref model mem : 1040
# abc : 70
# ref model mem : 1048
# abc : 71
# ref model mem : 1056
# abc : 72
# ref model mem : 1064
# abc : 73
# ref model mem : 1072
# abc : 74
# ref model mem : 1080
# abc : 75
# ref model mem : 1088
# abc : 76
# ref model mem : 1096
# abc : 77
# ref model mem : 1104
# abc : 78
# ref model mem : 1112
# abc : 79
# ref model mem : 1120
# abc : 80
# ref model mem : 1128
# abc : 81
# ref model mem : 1136
# abc : 82
# ref model mem : 1144
# abc : 83
# ref model mem : 1152
# abc : 84
# ref model mem : 1160
# abc : 85
# ref model mem : 1168
# abc : 86
# ref model mem : 1176
# abc : 87
# ref model mem : 1184
# abc : 88
# ref model mem : 1192
# abc : 89
# ref model mem : 1200
# abc : 90
# ref model mem : 1208
# abc : 91
# ref model mem : 1216
# abc : 92
# ref model mem : 1224
# abc : 93
# ref model mem : 1232
# abc : 94
# ref model mem : 1240
# abc : 95
# ref model mem : 1248
# abc : 96
# ref model mem : 1256
# abc : 97
# ref model mem : 1264
# xyz : 1
# xyz : 2
# xyz : 3
# xyz : 4
# xyz : 5
# xyz : 6
# xyz : 7
# xyz : 8
# xyz : 9
# xyz : 10
# xyz : 11
# xyz : 12
# xyz : 13
# xyz : 14
# xyz : 15
# xyz : 16
# xyz : 17
# xyz : 18
# xyz : 19
# xyz : 20
# xyz : 21
# xyz : 22
# xyz : 23
# xyz : 24
# xyz : 25
# xyz : 26
# xyz : 27
# xyz : 28
# xyz : 29
# xyz : 30
# xyz : 31
# xyz : 32
# xyz : 33
# xyz : 34
# xyz : 35
# xyz : 36
# xyz : 37
# xyz : 38
# xyz : 39
# xyz : 40
# xyz : 41
# xyz : 42
# xyz : 43
# xyz : 44
# xyz : 45
# xyz : 46
# xyz : 47
# xyz : 48
# xyz : 49
# xyz : 50
# xyz : 51
# xyz : 52
# xyz : 53
# xyz : 54
# xyz : 55
# xyz : 56
# xyz : 57
# xyz : 58
# xyz : 59
# xyz : 60
# xyz : 61
# xyz : 62
# xyz : 63
# xyz : 64
# xyz : 65
# xyz : 66
# xyz : 67
# xyz : 68
# xyz : 69
# xyz : 70
#                 1445wlast : 1
# AFFTER W CHANNEL
# WID: 14337 , AWID : 14337
# req kind_e : WRITE
# match arid : 0 , rid : 0
# UVM_INFO ../env/s_agent/axi_s_drv.sv(31) @ 1445: uvm_test_top.env_h.s_uvc_h.s_agent_h[0].s_drv_h [ID MATCH] aaaaa
# s seqs arid : 35198
# INIDE_SLAVE_SEQ_CTR=9
# match arid : 897e , rid : 897e
# UVM_INFO ../env/s_agent/axi_s_drv.sv(31) @ 1445: uvm_test_top.env_h.s_uvc_h.s_agent_h[0].s_drv_h [ID MATCH] aaaaa
# s seqs arid : 21001
# INIDE_SLAVE_SEQ_CTR=10
# match arid : 5209 , rid : 5209
# UVM_INFO ../env/s_agent/axi_s_drv.sv(31) @ 1445: uvm_test_top.env_h.s_uvc_h.s_agent_h[0].s_drv_h [ID MATCH] aaaaa
# s seqs arid : 27690
# INIDE_SLAVE_SEQ_CTR=11
# match arid : 6c2a , rid : 6c2a
# UVM_INFO ../env/s_agent/axi_s_drv.sv(31) @ 1445: uvm_test_top.env_h.s_uvc_h.s_agent_h[0].s_drv_h [ID MATCH] aaaaa
# s seqs arid : 55326
# INIDE_SLAVE_SEQ_CTR=12
# match arid : d81e , rid : d81e
# UVM_INFO ../env/s_agent/axi_s_drv.sv(31) @ 1445: uvm_test_top.env_h.s_uvc_h.s_agent_h[0].s_drv_h [ID MATCH] aaaaa
# s seqs arid : 56093
# INIDE_SLAVE_SEQ_CTR=13
# match arid : db1d , rid : db1d
# UVM_INFO ../env/s_agent/axi_s_drv.sv(31) @ 1445: uvm_test_top.env_h.s_uvc_h.s_agent_h[0].s_drv_h [ID MATCH] aaaaa
# s seqs arid : 44591
# INIDE_SLAVE_SEQ_CTR=14
# match arid : ae2f , rid : ae2f
# UVM_INFO ../env/s_agent/axi_s_drv.sv(31) @ 1445: uvm_test_top.env_h.s_uvc_h.s_agent_h[0].s_drv_h [ID MATCH] aaaaa
# s seqs arid : 8855
# INIDE_SLAVE_SEQ_CTR=15
# match arid : 2297 , rid : 2297
# UVM_INFO ../env/s_agent/axi_s_drv.sv(31) @ 1445: uvm_test_top.env_h.s_uvc_h.s_agent_h[0].s_drv_h [ID MATCH] aaaaa
# s seqs arid : 31238
# INIDE_SLAVE_SEQ_CTR=16
# match arid : 7a06 , rid : 7a06
# UVM_INFO ../env/s_agent/axi_s_drv.sv(31) @ 1445: uvm_test_top.env_h.s_uvc_h.s_agent_h[0].s_drv_h [ID MATCH] aaaaa
# s seqs arid : 27406
# INIDE_SLAVE_SEQ_CTR=17
# match arid : 6b0e , rid : 6b0e
# UVM_INFO ../env/s_agent/axi_s_drv.sv(31) @ 1445: uvm_test_top.env_h.s_uvc_h.s_agent_h[0].s_drv_h [ID MATCH] aaaaa
# s seqs arid : 5592
# INIDE_SLAVE_SEQ_CTR=18
# match arid : 15d8 , rid : 15d8
# UVM_INFO ../env/s_agent/axi_s_drv.sv(31) @ 1445: uvm_test_top.env_h.s_uvc_h.s_agent_h[0].s_drv_h [ID MATCH] aaaaa
# rd data in s drv: 9a7006f2 , len : 3 , last:0 , valid : 1
#                 1455wlast : 0
# WID: 14337 , AWID : 14337
# m mon rid : 897e
# rd data in s drv: 12700678 , len : 3 , last:0 , valid : 1
#                 1465wlast : 0
# WID: 14337 , AWID : 14337
# m mon rid : 897e
# UVM_INFO ../env/m_agent/axi_base_m_seqs.sv(26) @ 1465: uvm_test_top.env_h.m_uvc_h.m_agent_h[0].m_seqr_h@@vseqs_h.m_wseqs_h [IN V SEQS] Got B-channel response from driver
# rd data in s drv: 33176b28 , len : 3 , last:0 , valid : 1
#                 1475wlast : 0
# WID: 14337 , AWID : 14337
# m mon rid : 897e
# rd data in s drv: 8461d643 , len : 3 , last:1 , valid : 1
#                 1485wlast : 0
# WID: 14337 , AWID : 14337
# req kind : READ
# m mon rid : 897e
# UVM_INFO ../env/axi_sb.sv(67) @ 1485: uvm_test_top.env_h.sb_h [after event in sb] aaaa
# UVM_INFO ../env/axi_sb.sv(65) @ 1485: uvm_test_top.env_h.sb_h [before event in sb] aaaa
# rd data in s drv: e089b550 , len : 10 , last:0 , valid : 1
#                 1495wlast : 0
# WID: 14337 , AWID : 14337
# m mon rid : 5209
# rd data in s drv: 70623ff6 , len : 10 , last:0 , valid : 1
#                 1505wlast : 0
# WID: 14337 , AWID : 14337
# m mon rid : 5209
# rd data in s drv: dc132441 , len : 10 , last:0 , valid : 1
#                 1515wlast : 0
# WID: 14337 , AWID : 14337
# m mon rid : 5209
# rd data in s drv: 815cc1ca , len : 10 , last:0 , valid : 1
#                 1525wlast : 0
# WID: 14337 , AWID : 14337
# m mon rid : 5209
# rd data in s drv: 76575969 , len : 10 , last:0 , valid : 1
#                 1535wlast : 0
# WID: 14337 , AWID : 14337
# m mon rid : 5209
# rd data in s drv: 91f56562 , len : 10 , last:0 , valid : 1
#                 1545wlast : 0
# WID: 14337 , AWID : 14337
# m mon rid : 5209
# rd data in s drv: 7674addc , len : 10 , last:0 , valid : 1
#                 1555wlast : 0
# WID: 14337 , AWID : 14337
# m mon rid : 5209
# rd data in s drv: 1559cccf , len : 10 , last:0 , valid : 1
#                 1565wlast : 0
# WID: 14337 , AWID : 14337
# m mon rid : 5209
# rd data in s drv: 294f20dd , len : 10 , last:0 , valid : 1
#                 1575wlast : 0
# WID: 14337 , AWID : 14337
# m mon rid : 5209
# rd data in s drv: a75597b4 , len : 10 , last:0 , valid : 1
#                 1585wlast : 0
# WID: 14337 , AWID : 14337
# m mon rid : 5209
# rd data in s drv: df2398d1 , len : 10 , last:1 , valid : 1
#                 1595wlast : 0
# WID: 14337 , AWID : 14337
# req kind : READ
# m mon rid : 5209
# UVM_INFO ../env/axi_sb.sv(67) @ 1595: uvm_test_top.env_h.sb_h [after event in sb] aaaa
# UVM_INFO ../env/axi_sb.sv(65) @ 1595: uvm_test_top.env_h.sb_h [before event in sb] aaaa
# rd data in s drv: 9ed42024 , len : 0 , last:1 , valid : 1
#                 1605wlast : 0
# WID: 14337 , AWID : 14337
# req kind : READ
# m mon rid : 6c2a
# UVM_INFO ../env/axi_sb.sv(67) @ 1605: uvm_test_top.env_h.sb_h [after event in sb] aaaa
# UVM_INFO ../env/axi_sb.sv(65) @ 1605: uvm_test_top.env_h.sb_h [before event in sb] aaaa
# rd data in s drv: d2127ce6 , len : 10 , last:0 , valid : 1
#                 1615wlast : 0
# WID: 14337 , AWID : 14337
# m mon rid : d81e
# rd data in s drv: d73048df , len : 10 , last:0 , valid : 1
#                 1625wlast : 0
# WID: 14337 , AWID : 14337
# m mon rid : d81e
# rd data in s drv: af7bfd78 , len : 10 , last:0 , valid : 1
#                 1635wlast : 0
# WID: 14337 , AWID : 14337
# m mon rid : d81e
# rd data in s drv: 9ed42024 , len : 10 , last:0 , valid : 1
#                 1645wlast : 0
# WID: 14337 , AWID : 14337
# m mon rid : d81e
# rd data in s drv: ef5ee43a , len : 10 , last:0 , valid : 1
#                 1655wlast : 0
# WID: 14337 , AWID : 14337
# m mon rid : d81e
# rd data in s drv: 48ef78bd , len : 10 , last:0 , valid : 1
#                 1665wlast : 0
# WID: 14337 , AWID : 14337
# m mon rid : d81e
# rd data in s drv: 207eaa5 , len : 10 , last:0 , valid : 1
#                 1675wlast : 0
# WID: 14337 , AWID : 14337
# m mon rid : d81e
# rd data in s drv: 2350c27a , len : 10 , last:0 , valid : 1
#                 1685wlast : 0
# WID: 14337 , AWID : 14337
# m mon rid : d81e
# rd data in s drv: 203721c4 , len : 10 , last:0 , valid : 1
#                 1695wlast : 0
# WID: 14337 , AWID : 14337
# m mon rid : d81e
# rd data in s drv: f47468c9 , len : 10 , last:0 , valid : 1
#                 1705wlast : 0
# WID: 14337 , AWID : 14337
# m mon rid : d81e
# rd data in s drv: 23465313 , len : 10 , last:1 , valid : 1
#                 1715wlast : 0
# WID: 14337 , AWID : 14337
# req kind : READ
# m mon rid : d81e
# UVM_INFO ../env/axi_sb.sv(67) @ 1715: uvm_test_top.env_h.sb_h [after event in sb] aaaa
# UVM_INFO ../env/axi_sb.sv(65) @ 1715: uvm_test_top.env_h.sb_h [before event in sb] aaaa
# rd data in s drv: ceeeb4b9 , len : 3 , last:0 , valid : 1
#                 1725wlast : 0
# WID: 14337 , AWID : 14337
# m mon rid : db1d
# rd data in s drv: 3984b125 , len : 3 , last:0 , valid : 1
#                 1735wlast : 0
# WID: 14337 , AWID : 14337
# m mon rid : db1d
# rd data in s drv: e8eba5de , len : 3 , last:0 , valid : 1
#                 1745wlast : 0
# WID: 14337 , AWID : 14337
# m mon rid : db1d
# rd data in s drv: 783450a2 , len : 3 , last:1 , valid : 1
#                 1755wlast : 0
# WID: 14337 , AWID : 14337
# req kind : READ
# m mon rid : db1d
# UVM_INFO ../env/axi_sb.sv(67) @ 1755: uvm_test_top.env_h.sb_h [after event in sb] aaaa
# UVM_INFO ../env/axi_sb.sv(65) @ 1755: uvm_test_top.env_h.sb_h [before event in sb] aaaa
# rd data in s drv: 8384b473 , len : 4 , last:0 , valid : 1
#                 1765wlast : 0
# WID: 14337 , AWID : 14337
# m mon rid : ae2f
# rd data in s drv: cfbbe053 , len : 4 , last:0 , valid : 1
#                 1775wlast : 0
# WID: 14337 , AWID : 14337
# m mon rid : ae2f
# rd data in s drv: 39eb2116 , len : 4 , last:0 , valid : 1
#                 1785wlast : 0
# WID: 14337 , AWID : 14337
# m mon rid : ae2f
# rd data in s drv: d2127ce6 , len : 4 , last:0 , valid : 1
# abc : 1
# ref model mem : 219
# abc : 2
# ref model mem : 227
# abc : 3
# ref model mem : 235
# abc : 4
# ref model mem : 243
# abc : 5
# ref model mem : 251
# abc : 6
# ref model mem : 259
# abc : 7
# ref model mem : 267
# abc : 8
# ref model mem : 275
# abc : 9
# ref model mem : 283
# abc : 10
# ref model mem : 291
# abc : 11
# ref model mem : 299
# abc : 12
# ref model mem : 307
# abc : 13
# ref model mem : 315
# abc : 14
# ref model mem : 323
# abc : 15
# ref model mem : 331
# abc : 16
# ref model mem : 339
# abc : 17
# ref model mem : 347
# abc : 18
# ref model mem : 355
# abc : 19
# ref model mem : 363
# abc : 20
# ref model mem : 371
# abc : 21
# ref model mem : 379
# abc : 22
# ref model mem : 387
# abc : 23
# ref model mem : 395
# abc : 24
# ref model mem : 403
# abc : 25
# ref model mem : 411
# abc : 26
# ref model mem : 419
# abc : 27
# ref model mem : 427
# abc : 28
# ref model mem : 435
# abc : 29
# ref model mem : 443
# abc : 30
# ref model mem : 451
# abc : 31
# ref model mem : 459
# abc : 32
# ref model mem : 467
# abc : 33
# ref model mem : 475
# abc : 34
# ref model mem : 483
# abc : 35
# ref model mem : 491
# xyz : 1
# xyz : 2
# xyz : 3
# xyz : 4
# xyz : 5
# xyz : 6
# xyz : 7
# xyz : 8
# xyz : 9
# xyz : 10
# xyz : 11
# xyz : 12
# xyz : 13
# xyz : 14
# xyz : 15
# xyz : 16
# xyz : 17
#                 1795wlast : 1
# AFFTER W CHANNEL
# WID: 2105 , AWID : 2105
# req kind_e : WRITE
# m mon rid : ae2f
# match arid : 0 , rid : 0
# UVM_INFO ../env/s_agent/axi_s_drv.sv(31) @ 1795: uvm_test_top.env_h.s_uvc_h.s_agent_h[0].s_drv_h [ID MATCH] aaaaa
# s seqs arid : 7915
# INIDE_SLAVE_SEQ_CTR=19
# match arid : 1eeb , rid : 1eeb
# UVM_INFO ../env/s_agent/axi_s_drv.sv(31) @ 1795: uvm_test_top.env_h.s_uvc_h.s_agent_h[0].s_drv_h [ID MATCH] aaaaa
# s seqs arid : 47319
# INIDE_SLAVE_SEQ_CTR=20
# match arid : b8d7 , rid : b8d7
# UVM_INFO ../env/s_agent/axi_s_drv.sv(31) @ 1795: uvm_test_top.env_h.s_uvc_h.s_agent_h[0].s_drv_h [ID MATCH] aaaaa
# s seqs arid : 40717
# INIDE_SLAVE_SEQ_CTR=21
# match arid : 9f0d , rid : 9f0d
# UVM_INFO ../env/s_agent/axi_s_drv.sv(31) @ 1795: uvm_test_top.env_h.s_uvc_h.s_agent_h[0].s_drv_h [ID MATCH] aaaaa
# rd data in s drv: d73048df , len : 4 , last:1 , valid : 1
#                 1805wlast : 0
# WID: 2105 , AWID : 2105
# req kind : READ
# m mon rid : ae2f
# UVM_INFO ../env/axi_sb.sv(67) @ 1805: uvm_test_top.env_h.sb_h [after event in sb] aaaa
# UVM_INFO ../env/axi_sb.sv(65) @ 1805: uvm_test_top.env_h.sb_h [before event in sb] aaaa
# rd data in s drv: d156af5 , len : 9 , last:0 , valid : 1
#                 1815wlast : 0
# WID: 2105 , AWID : 2105
# m mon rid : 2297
# UVM_INFO ../env/m_agent/axi_base_m_seqs.sv(26) @ 1815: uvm_test_top.env_h.m_uvc_h.m_agent_h[0].m_seqr_h@@vseqs_h.m_wseqs_h [IN V SEQS] Got B-channel response from driver
# rd data in s drv: 46865c28 , len : 9 , last:0 , valid : 1
#                 1825wlast : 0
# WID: 2105 , AWID : 2105
# m mon rid : 2297
# rd data in s drv: b01a73b8 , len : 9 , last:0 , valid : 1
#                 1835wlast : 0
# WID: 2105 , AWID : 2105
# m mon rid : 2297
# rd data in s drv: cccf0a59 , len : 9 , last:0 , valid : 1
#                 1845wlast : 0
# WID: 2105 , AWID : 2105
# m mon rid : 2297
# rd data in s drv: 32f5b491 , len : 9 , last:0 , valid : 1
#                 1855wlast : 0
# WID: 2105 , AWID : 2105
# m mon rid : 2297
# rd data in s drv: c33c2238 , len : 9 , last:0 , valid : 1
#                 1865wlast : 0
# WID: 2105 , AWID : 2105
# m mon rid : 2297
# rd data in s drv: 4384e1b8 , len : 9 , last:0 , valid : 1
#                 1875wlast : 0
# WID: 2105 , AWID : 2105
# m mon rid : 2297
# rd data in s drv: ed2dbf74 , len : 9 , last:0 , valid : 1
#                 1885wlast : 0
# WID: 2105 , AWID : 2105
# m mon rid : 2297
# rd data in s drv: ceeeb4b9 , len : 9 , last:0 , valid : 1
#                 1895wlast : 0
# WID: 2105 , AWID : 2105
# m mon rid : 2297
# rd data in s drv: 3984b125 , len : 9 , last:1 , valid : 1
#                 1905wlast : 0
# WID: 2105 , AWID : 2105
# req kind : READ
# m mon rid : 2297
# UVM_INFO ../env/axi_sb.sv(67) @ 1905: uvm_test_top.env_h.sb_h [after event in sb] aaaa
# UVM_INFO ../env/axi_sb.sv(65) @ 1905: uvm_test_top.env_h.sb_h [before event in sb] aaaa
# rd data in s drv: d561d903 , len : 3 , last:0 , valid : 1
#                 1915wlast : 0
# WID: 2105 , AWID : 2105
# m mon rid : 7a06
# rd data in s drv: df127cef , len : 3 , last:0 , valid : 1
#                 1925wlast : 0
# WID: 2105 , AWID : 2105
# m mon rid : 7a06
# rd data in s drv: 8fb3cacb , len : 3 , last:0 , valid : 1
#                 1935wlast : 0
# WID: 2105 , AWID : 2105
# m mon rid : 7a06
# rd data in s drv: b6c75ca8 , len : 3 , last:1 , valid : 1
#                 1945wlast : 0
# WID: 2105 , AWID : 2105
# req kind : READ
# m mon rid : 7a06
# UVM_INFO ../env/axi_sb.sv(67) @ 1945: uvm_test_top.env_h.sb_h [after event in sb] aaaa
# UVM_INFO ../env/axi_sb.sv(65) @ 1945: uvm_test_top.env_h.sb_h [before event in sb] aaaa
# rd data in s drv: 203721c4 , len : 10 , last:0 , valid : 1
#                 1955wlast : 0
# WID: 2105 , AWID : 2105
# m mon rid : 6b0e
# rd data in s drv: f47468c9 , len : 10 , last:0 , valid : 1
#                 1965wlast : 0
# WID: 2105 , AWID : 2105
# m mon rid : 6b0e
# rd data in s drv: 23465313 , len : 10 , last:0 , valid : 1
#                 1975wlast : 0
# WID: 2105 , AWID : 2105
# m mon rid : 6b0e
# rd data in s drv: bbeb1675 , len : 10 , last:0 , valid : 1
#                 1985wlast : 0
# WID: 2105 , AWID : 2105
# m mon rid : 6b0e
# rd data in s drv: 84dcc389 , len : 10 , last:0 , valid : 1
#                 1995wlast : 0
# WID: 2105 , AWID : 2105
# m mon rid : 6b0e
# rd data in s drv: 324423aa , len : 10 , last:0 , valid : 1
#                 2005wlast : 0
# WID: 2105 , AWID : 2105
# m mon rid : 6b0e
# rd data in s drv: aa497a28 , len : 10 , last:0 , valid : 1
#                 2015wlast : 0
# WID: 2105 , AWID : 2105
# m mon rid : 6b0e
# rd data in s drv: ffdee124 , len : 10 , last:0 , valid : 1
#                 2025wlast : 0
# WID: 2105 , AWID : 2105
# m mon rid : 6b0e
# rd data in s drv: 44ea84d4 , len : 10 , last:0 , valid : 1
#                 2035wlast : 0
# WID: 2105 , AWID : 2105
# m mon rid : 6b0e
# rd data in s drv: d561d903 , len : 10 , last:0 , valid : 1
#                 2045wlast : 0
# WID: 2105 , AWID : 2105
# m mon rid : 6b0e
# rd data in s drv: df127cef , len : 10 , last:1 , valid : 1
#                 2055wlast : 0
# WID: 2105 , AWID : 2105
# req kind : READ
# m mon rid : 6b0e
# UVM_INFO ../env/axi_sb.sv(67) @ 2055: uvm_test_top.env_h.sb_h [after event in sb] aaaa
# UVM_INFO ../env/axi_sb.sv(65) @ 2055: uvm_test_top.env_h.sb_h [before event in sb] aaaa
# rd data in s drv: 70623ff6 , len : 8 , last:0 , valid : 1
#                 2065wlast : 0
# WID: 2105 , AWID : 2105
# m mon rid : 15d8
# rd data in s drv: dc132441 , len : 8 , last:0 , valid : 1
#                 2075wlast : 0
# WID: 2105 , AWID : 2105
# m mon rid : 15d8
# rd data in s drv: 815cc1ca , len : 8 , last:0 , valid : 1
#                 2085wlast : 0
# WID: 2105 , AWID : 2105
# m mon rid : 15d8
# rd data in s drv: 76575969 , len : 8 , last:0 , valid : 1
#                 2095wlast : 0
# WID: 2105 , AWID : 2105
# m mon rid : 15d8
# rd data in s drv: 91f56562 , len : 8 , last:0 , valid : 1
#                 2105wlast : 0
# WID: 2105 , AWID : 2105
# m mon rid : 15d8
# rd data in s drv: 7674addc , len : 8 , last:0 , valid : 1
#                 2115wlast : 0
# WID: 2105 , AWID : 2105
# m mon rid : 15d8
# rd data in s drv: 1559cccf , len : 8 , last:0 , valid : 1
#                 2125wlast : 0
# WID: 2105 , AWID : 2105
# m mon rid : 15d8
# rd data in s drv: 294f20dd , len : 8 , last:0 , valid : 1
#                 2135wlast : 0
# WID: 2105 , AWID : 2105
# m mon rid : 15d8
# rd data in s drv: a75597b4 , len : 8 , last:1 , valid : 1
#                 2145wlast : 0
# WID: 2105 , AWID : 2105
# req kind : READ
# m mon rid : 15d8
# UVM_INFO ../env/axi_sb.sv(67) @ 2145: uvm_test_top.env_h.sb_h [after event in sb] aaaa
# UVM_INFO ../env/axi_sb.sv(65) @ 2145: uvm_test_top.env_h.sb_h [before event in sb] aaaa
# rd data in s drv: 5d000000 , len : 4 , last:0 , valid : 1
# abc : 1
# ref model mem : 801
# abc : 2
# ref model mem : 809
# abc : 3
# ref model mem : 817
# abc : 4
# ref model mem : 825
# abc : 5
# ref model mem : 833
# abc : 6
# ref model mem : 841
# abc : 7
# ref model mem : 849
# abc : 8
# ref model mem : 857
# abc : 9
# ref model mem : 865
# abc : 10
# ref model mem : 873
# abc : 11
# ref model mem : 881
# abc : 12
# ref model mem : 889
# abc : 13
# ref model mem : 897
# abc : 14
# ref model mem : 905
# abc : 15
# ref model mem : 913
# abc : 16
# ref model mem : 921
# abc : 17
# ref model mem : 929
# abc : 18
# ref model mem : 937
# abc : 19
# ref model mem : 945
# abc : 20
# ref model mem : 953
# abc : 21
# ref model mem : 961
# abc : 22
# ref model mem : 969
# abc : 23
# ref model mem : 977
# abc : 24
# ref model mem : 985
# abc : 25
# ref model mem : 993
# abc : 26
# ref model mem : 1001
# abc : 27
# ref model mem : 1009
# abc : 28
# ref model mem : 1017
# abc : 29
# ref model mem : 1025
# abc : 30
# ref model mem : 1033
# abc : 31
# ref model mem : 1041
# abc : 32
# ref model mem : 1049
# abc : 33
# ref model mem : 1057
# abc : 34
# ref model mem : 1065
# abc : 35
# ref model mem : 1073
# abc : 36
# ref model mem : 1081
# xyz : 1
# xyz : 2
# xyz : 3
# xyz : 4
# xyz : 5
# xyz : 6
# xyz : 7
# xyz : 8
# xyz : 9
# xyz : 10
# xyz : 11
# xyz : 12
# xyz : 13
# xyz : 14
# xyz : 15
# xyz : 16
# xyz : 17
# xyz : 18
# xyz : 19
# xyz : 20
# xyz : 21
# xyz : 22
# xyz : 23
# xyz : 24
# xyz : 25
# xyz : 26
#                 2155wlast : 1
# AFFTER W CHANNEL
# WID: 47026 , AWID : 47026
# req kind_e : WRITE
# m mon rid : 1eeb
# match arid : 0 , rid : 0
# UVM_INFO ../env/s_agent/axi_s_drv.sv(31) @ 2155: uvm_test_top.env_h.s_uvc_h.s_agent_h[0].s_drv_h [ID MATCH] aaaaa
# s seqs arid : 29180
# INIDE_SLAVE_SEQ_CTR=22
# match arid : 71fc , rid : 71fc
# UVM_INFO ../env/s_agent/axi_s_drv.sv(31) @ 2155: uvm_test_top.env_h.s_uvc_h.s_agent_h[0].s_drv_h [ID MATCH] aaaaa
# s seqs arid : 5462
# INIDE_SLAVE_SEQ_CTR=23
# match arid : 1556 , rid : 1556
# UVM_INFO ../env/s_agent/axi_s_drv.sv(31) @ 2155: uvm_test_top.env_h.s_uvc_h.s_agent_h[0].s_drv_h [ID MATCH] aaaaa
# s seqs arid : 53371
# INIDE_SLAVE_SEQ_CTR=24
# match arid : d07b , rid : d07b
# UVM_INFO ../env/s_agent/axi_s_drv.sv(31) @ 2155: uvm_test_top.env_h.s_uvc_h.s_agent_h[0].s_drv_h [ID MATCH] aaaaa
# rd data in s drv: bc4409c3 , len : 4 , last:0 , valid : 1
#                 2165wlast : 0
# WID: 47026 , AWID : 47026
# m mon rid : 1eeb
# rd data in s drv: 87a6d1a8 , len : 4 , last:0 , valid : 1
#                 2175wlast : 0
# WID: 47026 , AWID : 47026
# m mon rid : 1eeb
# UVM_INFO ../env/m_agent/axi_base_m_seqs.sv(26) @ 2175: uvm_test_top.env_h.m_uvc_h.m_agent_h[0].m_seqr_h@@vseqs_h.m_wseqs_h [IN V SEQS] Got B-channel response from driver
# rd data in s drv: e4fdda80 , len : 4 , last:0 , valid : 1
#                 2185wlast : 0
# WID: 47026 , AWID : 47026
# m mon rid : 1eeb
# rd data in s drv: 29439b51 , len : 4 , last:1 , valid : 1
#                 2195wlast : 0
# WID: 47026 , AWID : 47026
# req kind : READ
# m mon rid : 1eeb
# UVM_INFO ../env/axi_sb.sv(67) @ 2195: uvm_test_top.env_h.sb_h [after event in sb] aaaa
# UVM_INFO ../env/axi_sb.sv(65) @ 2195: uvm_test_top.env_h.sb_h [before event in sb] aaaa
# rd data in s drv: 9283a42f , len : 0 , last:1 , valid : 1
#                 2205wlast : 0
# WID: 47026 , AWID : 47026
# req kind : READ
# m mon rid : b8d7
# UVM_INFO ../env/axi_sb.sv(67) @ 2205: uvm_test_top.env_h.sb_h [after event in sb] aaaa
# UVM_INFO ../env/axi_sb.sv(65) @ 2205: uvm_test_top.env_h.sb_h [before event in sb] aaaa
# rd data in s drv: 87a6d1a8 , len : 10 , last:0 , valid : 1
#                 2215wlast : 0
# WID: 47026 , AWID : 47026
# m mon rid : 9f0d
# rd data in s drv: e4fdda80 , len : 10 , last:0 , valid : 1
#                 2225wlast : 0
# WID: 47026 , AWID : 47026
# m mon rid : 9f0d
# rd data in s drv: 29439b51 , len : 10 , last:0 , valid : 1
#                 2235wlast : 0
# WID: 47026 , AWID : 47026
# m mon rid : 9f0d
# rd data in s drv: cab1e8bb , len : 10 , last:0 , valid : 1
#                 2245wlast : 0
# WID: 47026 , AWID : 47026
# m mon rid : 9f0d
# rd data in s drv: 73fe9d35 , len : 10 , last:0 , valid : 1
#                 2255wlast : 0
# WID: 47026 , AWID : 47026
# m mon rid : 9f0d
# rd data in s drv: 1c742f60 , len : 10 , last:0 , valid : 1
#                 2265wlast : 0
# WID: 47026 , AWID : 47026
# m mon rid : 9f0d
# rd data in s drv: 7bc93035 , len : 10 , last:0 , valid : 1
#                 2275wlast : 0
# WID: 47026 , AWID : 47026
# m mon rid : 9f0d
# rd data in s drv: dd68f02e , len : 10 , last:0 , valid : 1
#                 2285wlast : 0
# WID: 47026 , AWID : 47026
# m mon rid : 9f0d
# rd data in s drv: 46f07cc2 , len : 10 , last:0 , valid : 1
#                 2295wlast : 0
# WID: 47026 , AWID : 47026
# m mon rid : 9f0d
# rd data in s drv: 87afc273 , len : 10 , last:0 , valid : 1
#                 2305wlast : 0
# WID: 47026 , AWID : 47026
# m mon rid : 9f0d
# rd data in s drv: 8b0a4c4 , len : 10 , last:1 , valid : 1
#                 2315wlast : 0
# WID: 47026 , AWID : 47026
# req kind : READ
# m mon rid : 9f0d
# UVM_INFO ../env/axi_sb.sv(67) @ 2315: uvm_test_top.env_h.sb_h [after event in sb] aaaa
# UVM_INFO ../env/axi_sb.sv(65) @ 2315: uvm_test_top.env_h.sb_h [before event in sb] aaaa
# rd data in s drv: d9df8c00 , len : 9 , last:0 , valid : 1
#                 2325wlast : 0
# WID: 47026 , AWID : 47026
# m mon rid : 71fc
# rd data in s drv: 8cd08070 , len : 9 , last:0 , valid : 1
#                 2335wlast : 0
# WID: 47026 , AWID : 47026
# m mon rid : 71fc
# rd data in s drv: 368c9717 , len : 9 , last:0 , valid : 1
#                 2345wlast : 0
# WID: 47026 , AWID : 47026
# m mon rid : 71fc
# rd data in s drv: 83f8d060 , len : 9 , last:0 , valid : 1
#                 2355wlast : 0
# WID: 47026 , AWID : 47026
# m mon rid : 71fc
# rd data in s drv: f7b98418 , len : 9 , last:0 , valid : 1
#                 2365wlast : 0
# WID: 47026 , AWID : 47026
# m mon rid : 71fc
# rd data in s drv: 7a738195 , len : 9 , last:0 , valid : 1
#                 2375wlast : 0
# WID: 47026 , AWID : 47026
# m mon rid : 71fc
# rd data in s drv: 5e85e8e5 , len : 9 , last:0 , valid : 1
#                 2385wlast : 0
# WID: 47026 , AWID : 47026
# m mon rid : 71fc
# rd data in s drv: 32d55153 , len : 9 , last:0 , valid : 1
#                 2395wlast : 0
# WID: 47026 , AWID : 47026
# m mon rid : 71fc
# rd data in s drv: c7ec920a , len : 9 , last:0 , valid : 1
#                 2405wlast : 0
# WID: 47026 , AWID : 47026
# m mon rid : 71fc
# rd data in s drv: 21786c28 , len : 9 , last:1 , valid : 1
#                 2415wlast : 0
# WID: 47026 , AWID : 47026
# req kind : READ
# m mon rid : 71fc
# UVM_INFO ../env/axi_sb.sv(67) @ 2415: uvm_test_top.env_h.sb_h [after event in sb] aaaa
# UVM_INFO ../env/axi_sb.sv(65) @ 2415: uvm_test_top.env_h.sb_h [before event in sb] aaaa
# rd data in s drv: 5e85e8e5 , len : 6 , last:0 , valid : 1
#                 2425wlast : 0
# WID: 47026 , AWID : 47026
# m mon rid : 1556
# rd data in s drv: 32d55153 , len : 6 , last:0 , valid : 1
#                 2435wlast : 0
# WID: 47026 , AWID : 47026
# m mon rid : 1556
# rd data in s drv: c7ec920a , len : 6 , last:0 , valid : 1
#                 2445wlast : 0
# WID: 47026 , AWID : 47026
# m mon rid : 1556
# rd data in s drv: 21786c28 , len : 6 , last:0 , valid : 1
#                 2455wlast : 0
# WID: 47026 , AWID : 47026
# m mon rid : 1556
# rd data in s drv: 5ecfca26 , len : 6 , last:0 , valid : 1
#                 2465wlast : 0
# WID: 47026 , AWID : 47026
# m mon rid : 1556
# rd data in s drv: 21c74ff5 , len : 6 , last:0 , valid : 1
#                 2475wlast : 0
# WID: 47026 , AWID : 47026
# m mon rid : 1556
# rd data in s drv: 21d87f8a , len : 6 , last:1 , valid : 1
#                 2485wlast : 0
# WID: 47026 , AWID : 47026
# req kind : READ
# m mon rid : 1556
# UVM_INFO ../env/axi_sb.sv(67) @ 2485: uvm_test_top.env_h.sb_h [after event in sb] aaaa
# UVM_INFO ../env/axi_sb.sv(65) @ 2485: uvm_test_top.env_h.sb_h [before event in sb] aaaa
# rd data in s drv: 798a61f8 , len : 8 , last:0 , valid : 1
#                 2495wlast : 0
# WID: 47026 , AWID : 47026
# m mon rid : d07b
# rd data in s drv: 48d5a76c , len : 8 , last:0 , valid : 1
#                 2505wlast : 0
# WID: 47026 , AWID : 47026
# m mon rid : d07b
# rd data in s drv: d3cda97f , len : 8 , last:0 , valid : 1
#                 2515wlast : 0
# WID: 47026 , AWID : 47026
# m mon rid : d07b
# rd data in s drv: dcaec745 , len : 8 , last:0 , valid : 1
#                 2525wlast : 0
# WID: 47026 , AWID : 47026
# m mon rid : d07b
# rd data in s drv: ec041bcd , len : 8 , last:0 , valid : 1
#                 2535wlast : 0
# WID: 47026 , AWID : 47026
# m mon rid : d07b
# rd data in s drv: 99cc224d , len : 8 , last:0 , valid : 1
#                 2545wlast : 0
# WID: 47026 , AWID : 47026
# m mon rid : d07b
# rd data in s drv: ac7c027 , len : 8 , last:0 , valid : 1
#                 2555wlast : 0
# WID: 47026 , AWID : 47026
# m mon rid : d07b
# rd data in s drv: 85daf8df , len : 8 , last:0 , valid : 1
#                 2565wlast : 0
# WID: 47026 , AWID : 47026
# m mon rid : d07b
# rd data in s drv: 178d3b32 , len : 8 , last:1 , valid : 1
#                 2575wlast : 0
# WID: 47026 , AWID : 47026
# req kind : READ
# m mon rid : d07b
# UVM_INFO ../env/axi_sb.sv(67) @ 2575: uvm_test_top.env_h.sb_h [after event in sb] aaaa
# UVM_INFO ../env/axi_sb.sv(65) @ 2575: uvm_test_top.env_h.sb_h [before event in sb] aaaa
#                 2585wlast : 0
# WID: 47026 , AWID : 47026
#                 2595wlast : 0
# WID: 47026 , AWID : 47026
#                 2605wlast : 0
# WID: 47026 , AWID : 47026
#                 2615wlast : 0
# WID: 47026 , AWID : 47026
#                 2625wlast : 0
# WID: 47026 , AWID : 47026
#                 2635wlast : 0
# WID: 47026 , AWID : 47026
#                 2645wlast : 0
# WID: 47026 , AWID : 47026
#                 2655wlast : 0
# WID: 47026 , AWID : 47026
#                 2665wlast : 0
# WID: 47026 , AWID : 47026
#                 2675wlast : 0
# WID: 47026 , AWID : 47026
#                 2685wlast : 0
# WID: 47026 , AWID : 47026
#                 2695wlast : 0
# WID: 47026 , AWID : 47026
#                 2705wlast : 0
# WID: 47026 , AWID : 47026
#                 2715wlast : 0
# WID: 47026 , AWID : 47026
#                 2725wlast : 0
# WID: 47026 , AWID : 47026
#                 2735wlast : 0
# WID: 47026 , AWID : 47026
#                 2745wlast : 0
# WID: 47026 , AWID : 47026
#                 2755wlast : 0
# WID: 47026 , AWID : 47026
#                 2765wlast : 0
# WID: 47026 , AWID : 47026
#                 2775wlast : 0
# WID: 47026 , AWID : 47026
#                 2785wlast : 0
# WID: 47026 , AWID : 47026
#                 2795wlast : 0
# WID: 47026 , AWID : 47026
#                 2805wlast : 0
# WID: 47026 , AWID : 47026
#                 2815wlast : 0
# WID: 47026 , AWID : 47026
#                 2825wlast : 0
# WID: 47026 , AWID : 47026
#                 2835wlast : 0
# WID: 47026 , AWID : 47026
#                 2845wlast : 0
# WID: 47026 , AWID : 47026
#                 2855wlast : 0
# WID: 47026 , AWID : 47026
#                 2865wlast : 0
# WID: 47026 , AWID : 47026
#                 2875wlast : 0
# WID: 47026 , AWID : 47026
#                 2885wlast : 0
# WID: 47026 , AWID : 47026
#                 2895wlast : 0
# WID: 47026 , AWID : 47026
#                 2905wlast : 0
# WID: 47026 , AWID : 47026
#                 2915wlast : 0
# WID: 47026 , AWID : 47026
#                 2925wlast : 0
# WID: 47026 , AWID : 47026
#                 2935wlast : 0
# WID: 47026 , AWID : 47026
#                 2945wlast : 0
# WID: 47026 , AWID : 47026
#                 2955wlast : 0
# WID: 47026 , AWID : 47026
#                 2965wlast : 0
# WID: 47026 , AWID : 47026
#                 2975wlast : 0
# WID: 47026 , AWID : 47026
#                 2985wlast : 0
# WID: 47026 , AWID : 47026
#                 2995wlast : 0
# WID: 47026 , AWID : 47026
#                 3005wlast : 0
# WID: 47026 , AWID : 47026
#                 3015wlast : 0
# WID: 47026 , AWID : 47026
# abc : 1
# ref model mem : 970
# abc : 2
# ref model mem : 978
# abc : 3
# ref model mem : 986
# abc : 4
# ref model mem : 994
# abc : 5
# ref model mem : 1002
# abc : 6
# ref model mem : 1010
# abc : 7
# ref model mem : 1018
# abc : 8
# ref model mem : 1026
# abc : 9
# ref model mem : 1034
# abc : 10
# ref model mem : 1042
# abc : 11
# ref model mem : 1050
# abc : 12
# ref model mem : 1058
# abc : 13
# ref model mem : 1066
# abc : 14
# ref model mem : 1074
# abc : 15
# ref model mem : 1082
# abc : 16
# ref model mem : 1090
# abc : 17
# ref model mem : 1098
# abc : 18
# ref model mem : 1106
# abc : 19
# ref model mem : 1114
# abc : 20
# ref model mem : 1122
# abc : 21
# ref model mem : 1130
# abc : 22
# ref model mem : 1138
# abc : 23
# ref model mem : 1146
# abc : 24
# ref model mem : 1154
# abc : 25
# ref model mem : 1162
# abc : 26
# ref model mem : 1170
# abc : 27
# ref model mem : 1178
# abc : 28
# ref model mem : 1186
# abc : 29
# ref model mem : 1194
# abc : 30
# ref model mem : 1202
# abc : 31
# ref model mem : 1210
# abc : 32
# ref model mem : 1218
# abc : 33
# ref model mem : 1226
# abc : 34
# ref model mem : 1234
# abc : 35
# ref model mem : 1242
# abc : 36
# ref model mem : 1250
# abc : 37
# ref model mem : 1258
# abc : 38
# ref model mem : 1266
# abc : 39
# ref model mem : 1274
# abc : 40
# ref model mem : 1282
# abc : 41
# ref model mem : 1290
# abc : 42
# ref model mem : 1298
# abc : 43
# ref model mem : 1306
# abc : 44
# ref model mem : 1314
# abc : 45
# ref model mem : 1322
# abc : 46
# ref model mem : 1330
# abc : 47
# ref model mem : 1338
# abc : 48
# ref model mem : 1346
# abc : 49
# ref model mem : 1354
# abc : 50
# ref model mem : 1362
# abc : 51
# ref model mem : 1370
# abc : 52
# ref model mem : 1378
# abc : 53
# ref model mem : 1386
# abc : 54
# ref model mem : 1394
# abc : 55
# ref model mem : 1402
# abc : 56
# ref model mem : 1410
# abc : 57
# ref model mem : 1418
# abc : 58
# ref model mem : 1426
# abc : 59
# ref model mem : 1434
# abc : 60
# ref model mem : 1442
# abc : 61
# ref model mem : 1450
# abc : 62
# ref model mem : 1458
# abc : 63
# ref model mem : 1466
# abc : 64
# ref model mem : 1474
# abc : 65
# ref model mem : 1482
# abc : 66
# ref model mem : 1490
# abc : 67
# ref model mem : 1498
# abc : 68
# ref model mem : 1506
# abc : 69
# ref model mem : 1514
# abc : 70
# ref model mem : 1522
# abc : 71
# ref model mem : 1530
# abc : 72
# ref model mem : 1538
# abc : 73
# ref model mem : 1546
# abc : 74
# ref model mem : 1554
# abc : 75
# ref model mem : 1562
# abc : 76
# ref model mem : 1570
# abc : 77
# ref model mem : 1578
# abc : 78
# ref model mem : 1586
# abc : 79
# ref model mem : 1594
# abc : 80
# ref model mem : 1602
# abc : 81
# ref model mem : 1610
# abc : 82
# ref model mem : 1618
# abc : 83
# ref model mem : 1626
# abc : 84
# ref model mem : 1634
# abc : 85
# ref model mem : 1642
# abc : 86
# ref model mem : 1650
# abc : 87
# ref model mem : 1658
# xyz : 1
# xyz : 2
# xyz : 3
# xyz : 4
# xyz : 5
#                 3025wlast : 1
# AFFTER W CHANNEL
# WID: 1578 , AWID : 1578
# req kind_e : WRITE
# match arid : 0 , rid : 0
# UVM_INFO ../env/s_agent/axi_s_drv.sv(31) @ 3025: uvm_test_top.env_h.s_uvc_h.s_agent_h[0].s_drv_h [ID MATCH] aaaaa
# s seqs arid : 21255
# INIDE_SLAVE_SEQ_CTR=25
# match arid : 5307 , rid : 5307
# UVM_INFO ../env/s_agent/axi_s_drv.sv(31) @ 3025: uvm_test_top.env_h.s_uvc_h.s_agent_h[0].s_drv_h [ID MATCH] aaaaa
# rd data in s drv: 8ecc0000 , len : 4 , last:0 , valid : 1
#                 3035wlast : 0
# WID: 1578 , AWID : 1578
# m mon rid : 5307
# rd data in s drv: 3304486a , len : 4 , last:0 , valid : 1
#                 3045wlast : 0
# WID: 1578 , AWID : 1578
# m mon rid : 5307
# UVM_INFO ../env/m_agent/axi_base_m_seqs.sv(26) @ 3045: uvm_test_top.env_h.m_uvc_h.m_agent_h[0].m_seqr_h@@vseqs_h.m_wseqs_h [IN V SEQS] Got B-channel response from driver
# rd data in s drv: 4adf45cd , len : 4 , last:0 , valid : 1
#                 3055wlast : 0
# WID: 1578 , AWID : 1578
# m mon rid : 5307
# rd data in s drv: 5946a142 , len : 4 , last:0 , valid : 1
#                 3065wlast : 0
# WID: 1578 , AWID : 1578
# m mon rid : 5307
# rd data in s drv: af56822d , len : 4 , last:1 , valid : 1
#                 3075wlast : 0
# WID: 1578 , AWID : 1578
# req kind : READ
# m mon rid : 5307
# UVM_INFO ../env/axi_sb.sv(67) @ 3075: uvm_test_top.env_h.sb_h [after event in sb] aaaa
# UVM_INFO ../env/axi_sb.sv(65) @ 3075: uvm_test_top.env_h.sb_h [before event in sb] aaaa
#                 3085wlast : 0
# WID: 1578 , AWID : 1578
#                 3095wlast : 0
# WID: 1578 , AWID : 1578
#                 3105wlast : 0
# WID: 1578 , AWID : 1578
#                 3115wlast : 0
# WID: 1578 , AWID : 1578
#                 3125wlast : 0
# WID: 1578 , AWID : 1578
#                 3135wlast : 0
# WID: 1578 , AWID : 1578
#                 3145wlast : 0
# WID: 1578 , AWID : 1578
#                 3155wlast : 0
# WID: 1578 , AWID : 1578
#                 3165wlast : 0
# WID: 1578 , AWID : 1578
#                 3175wlast : 0
# WID: 1578 , AWID : 1578
#                 3185wlast : 0
# WID: 1578 , AWID : 1578
#                 3195wlast : 0
# WID: 1578 , AWID : 1578
#                 3205wlast : 0
# WID: 1578 , AWID : 1578
#                 3215wlast : 0
# WID: 1578 , AWID : 1578
#                 3225wlast : 0
# WID: 1578 , AWID : 1578
#                 3235wlast : 0
# WID: 1578 , AWID : 1578
#                 3245wlast : 0
# WID: 1578 , AWID : 1578
#                 3255wlast : 0
# WID: 1578 , AWID : 1578
#                 3265wlast : 0
# WID: 1578 , AWID : 1578
#                 3275wlast : 0
# WID: 1578 , AWID : 1578
#                 3285wlast : 0
# WID: 1578 , AWID : 1578
#                 3295wlast : 0
# WID: 1578 , AWID : 1578
#                 3305wlast : 0
# WID: 1578 , AWID : 1578
#                 3315wlast : 0
# WID: 1578 , AWID : 1578
#                 3325wlast : 0
# WID: 1578 , AWID : 1578
#                 3335wlast : 0
# WID: 1578 , AWID : 1578
#                 3345wlast : 0
# WID: 1578 , AWID : 1578
#                 3355wlast : 0
# WID: 1578 , AWID : 1578
#                 3365wlast : 0
# WID: 1578 , AWID : 1578
# abc : 1
# ref model mem : 656
# abc : 2
# ref model mem : 664
# abc : 3
# ref model mem : 672
# abc : 4
# ref model mem : 680
# abc : 5
# ref model mem : 688
# abc : 6
# ref model mem : 696
# abc : 7
# ref model mem : 704
# abc : 8
# ref model mem : 712
# abc : 9
# ref model mem : 720
# abc : 10
# ref model mem : 728
# abc : 11
# ref model mem : 736
# abc : 12
# ref model mem : 744
# abc : 13
# ref model mem : 752
# abc : 14
# ref model mem : 760
# abc : 15
# ref model mem : 768
# abc : 16
# ref model mem : 776
# abc : 17
# ref model mem : 784
# abc : 18
# ref model mem : 792
# abc : 19
# ref model mem : 800
# abc : 20
# ref model mem : 808
# abc : 21
# ref model mem : 816
# abc : 22
# ref model mem : 824
# abc : 23
# ref model mem : 832
# abc : 24
# ref model mem : 840
# abc : 25
# ref model mem : 848
# abc : 26
# ref model mem : 856
# abc : 27
# ref model mem : 864
# abc : 28
# ref model mem : 872
# abc : 29
# ref model mem : 880
# abc : 30
# ref model mem : 888
# abc : 31
# ref model mem : 896
# abc : 32
# ref model mem : 904
# abc : 33
# ref model mem : 912
# abc : 34
# ref model mem : 920
# abc : 35
# ref model mem : 928
#                 3375wlast : 1
# AFFTER W CHANNEL
# WID: 26387 , AWID : 26387
# req kind_e : WRITE
# match arid : 0 , rid : 0
# UVM_INFO ../env/s_agent/axi_s_drv.sv(31) @ 3375: uvm_test_top.env_h.s_uvc_h.s_agent_h[0].s_drv_h [ID MATCH] aaaaa
#                 3385wlast : 0
# WID: 26387 , AWID : 26387
#                 3395wlast : 0
# WID: 26387 , AWID : 26387
# UVM_INFO ../env/m_agent/axi_base_m_seqs.sv(26) @ 3395: uvm_test_top.env_h.m_uvc_h.m_agent_h[0].m_seqr_h@@vseqs_h.m_wseqs_h [IN V SEQS] Got B-channel response from driver
#                 3405wlast : 0
# WID: 26387 , AWID : 26387
#                 3415wlast : 0
# WID: 26387 , AWID : 26387
#                 3425wlast : 0
# WID: 26387 , AWID : 26387
#                 3435wlast : 0
# WID: 26387 , AWID : 26387
#                 3445wlast : 0
# WID: 26387 , AWID : 26387
#                 3455wlast : 0
# WID: 26387 , AWID : 26387
#                 3465wlast : 0
# WID: 26387 , AWID : 26387
#                 3475wlast : 0
# WID: 26387 , AWID : 26387
#                 3485wlast : 0
# WID: 26387 , AWID : 26387
#                 3495wlast : 0
# WID: 26387 , AWID : 26387
#                 3505wlast : 0
# WID: 26387 , AWID : 26387
#                 3515wlast : 0
# WID: 26387 , AWID : 26387
#                 3525wlast : 0
# WID: 26387 , AWID : 26387
#                 3535wlast : 0
# WID: 26387 , AWID : 26387
#                 3545wlast : 0
# WID: 26387 , AWID : 26387
#                 3555wlast : 0
# WID: 26387 , AWID : 26387
#                 3565wlast : 0
# WID: 26387 , AWID : 26387
#                 3575wlast : 0
# WID: 26387 , AWID : 26387
#                 3585wlast : 0
# WID: 26387 , AWID : 26387
#                 3595wlast : 0
# WID: 26387 , AWID : 26387
#                 3605wlast : 0
# WID: 26387 , AWID : 26387
#                 3615wlast : 0
# WID: 26387 , AWID : 26387
#                 3625wlast : 0
# WID: 26387 , AWID : 26387
#                 3635wlast : 0
# WID: 26387 , AWID : 26387
#                 3645wlast : 0
# WID: 26387 , AWID : 26387
#                 3655wlast : 0
# WID: 26387 , AWID : 26387
#                 3665wlast : 0
# WID: 26387 , AWID : 26387
#                 3675wlast : 0
# WID: 26387 , AWID : 26387
#                 3685wlast : 0
# WID: 26387 , AWID : 26387
#                 3695wlast : 0
# WID: 26387 , AWID : 26387
#                 3705wlast : 0
# WID: 26387 , AWID : 26387
#                 3715wlast : 0
# WID: 26387 , AWID : 26387
#                 3725wlast : 0
# WID: 26387 , AWID : 26387
#                 3735wlast : 0
# WID: 26387 , AWID : 26387
#                 3745wlast : 0
# WID: 26387 , AWID : 26387
#                 3755wlast : 0
# WID: 26387 , AWID : 26387
#                 3765wlast : 0
# WID: 26387 , AWID : 26387
#                 3775wlast : 0
# WID: 26387 , AWID : 26387
#                 3785wlast : 0
# WID: 26387 , AWID : 26387
#                 3795wlast : 0
# WID: 26387 , AWID : 26387
#                 3805wlast : 0
# WID: 26387 , AWID : 26387
#                 3815wlast : 0
# WID: 26387 , AWID : 26387
#                 3825wlast : 0
# WID: 26387 , AWID : 26387
#                 3835wlast : 0
# WID: 26387 , AWID : 26387
#                 3845wlast : 0
# WID: 26387 , AWID : 26387
#                 3855wlast : 0
# WID: 26387 , AWID : 26387
#                 3865wlast : 0
# WID: 26387 , AWID : 26387
#                 3875wlast : 0
# WID: 26387 , AWID : 26387
#                 3885wlast : 0
# WID: 26387 , AWID : 26387
#                 3895wlast : 0
# WID: 26387 , AWID : 26387
#                 3905wlast : 0
# WID: 26387 , AWID : 26387
#                 3915wlast : 0
# WID: 26387 , AWID : 26387
#                 3925wlast : 0
# WID: 26387 , AWID : 26387
#                 3935wlast : 0
# WID: 26387 , AWID : 26387
#                 3945wlast : 0
# WID: 26387 , AWID : 26387
#                 3955wlast : 0
# WID: 26387 , AWID : 26387
#                 3965wlast : 0
# WID: 26387 , AWID : 26387
#                 3975wlast : 0
# WID: 26387 , AWID : 26387
#                 3985wlast : 0
# WID: 26387 , AWID : 26387
#                 3995wlast : 0
# WID: 26387 , AWID : 26387
#                 4005wlast : 0
# WID: 26387 , AWID : 26387
#                 4015wlast : 0
# WID: 26387 , AWID : 26387
#                 4025wlast : 0
# WID: 26387 , AWID : 26387
#                 4035wlast : 0
# WID: 26387 , AWID : 26387
#                 4045wlast : 0
# WID: 26387 , AWID : 26387
#                 4055wlast : 0
# WID: 26387 , AWID : 26387
#                 4065wlast : 0
# WID: 26387 , AWID : 26387
#                 4075wlast : 0
# WID: 26387 , AWID : 26387
#                 4085wlast : 0
# WID: 26387 , AWID : 26387
#                 4095wlast : 0
# WID: 26387 , AWID : 26387
#                 4105wlast : 0
# WID: 26387 , AWID : 26387
#                 4115wlast : 0
# WID: 26387 , AWID : 26387
#                 4125wlast : 0
# WID: 26387 , AWID : 26387
#                 4135wlast : 0
# WID: 26387 , AWID : 26387
#                 4145wlast : 0
# WID: 26387 , AWID : 26387
#                 4155wlast : 0
# WID: 26387 , AWID : 26387
# abc : 1
# ref model mem : 403
# abc : 2
# ref model mem : 411
# abc : 3
# ref model mem : 419
# abc : 4
# ref model mem : 427
# abc : 5
# ref model mem : 435
# abc : 6
# ref model mem : 443
# abc : 7
# ref model mem : 451
# abc : 8
# ref model mem : 459
# abc : 9
# ref model mem : 467
# abc : 10
# ref model mem : 475
# abc : 11
# ref model mem : 483
# abc : 12
# ref model mem : 491
# abc : 13
# ref model mem : 499
# abc : 14
# ref model mem : 507
# abc : 15
# ref model mem : 515
# abc : 16
# ref model mem : 523
# abc : 17
# ref model mem : 531
# abc : 18
# ref model mem : 539
# abc : 19
# ref model mem : 547
# abc : 20
# ref model mem : 555
# abc : 21
# ref model mem : 563
# abc : 22
# ref model mem : 571
# abc : 23
# ref model mem : 579
# abc : 24
# ref model mem : 587
# abc : 25
# ref model mem : 595
# abc : 26
# ref model mem : 603
# abc : 27
# ref model mem : 611
# abc : 28
# ref model mem : 619
# abc : 29
# ref model mem : 627
# abc : 30
# ref model mem : 635
# abc : 31
# ref model mem : 643
# abc : 32
# ref model mem : 651
# abc : 33
# ref model mem : 659
# abc : 34
# ref model mem : 667
# abc : 35
# ref model mem : 675
# abc : 36
# ref model mem : 683
# abc : 37
# ref model mem : 691
# abc : 38
# ref model mem : 699
# abc : 39
# ref model mem : 707
# abc : 40
# ref model mem : 715
# abc : 41
# ref model mem : 723
# abc : 42
# ref model mem : 731
# abc : 43
# ref model mem : 739
# abc : 44
# ref model mem : 747
# abc : 45
# ref model mem : 755
# abc : 46
# ref model mem : 763
# abc : 47
# ref model mem : 771
# abc : 48
# ref model mem : 779
# abc : 49
# ref model mem : 787
# abc : 50
# ref model mem : 795
# abc : 51
# ref model mem : 803
# abc : 52
# ref model mem : 811
# abc : 53
# ref model mem : 819
# abc : 54
# ref model mem : 827
# abc : 55
# ref model mem : 835
# abc : 56
# ref model mem : 843
# abc : 57
# ref model mem : 851
# abc : 58
# ref model mem : 859
# abc : 59
# ref model mem : 867
# abc : 60
# ref model mem : 875
# abc : 61
# ref model mem : 883
# abc : 62
