# vsim -coverage -voptargs="+acc" axi_tb_top -c -do "coverage save -onexit -directive -cvg -codeall axi_incr_cov_test.ucdb; run -all; exit" "+UVM_TESTNAME=axi_incr_cov_test" -l axi_incr_cov_test.log 
# Start time: 12:46:55 on May 13,2026
# ** Note: (vsim-8009) Loading existing optimized design _opt1
# //  Questa Sim-64
# //  Version 2023.4 linux_x86_64 Oct  9 2023
# //
# //  Copyright 1991-2023 Mentor Graphics Corporation
# //  All Rights Reserved.
# //
# //  QuestaSim and its associated documentation contain trade
# //  secrets and commercial or financial information that are the property of
# //  Mentor Graphics Corporation and are privileged, confidential,
# //  and exempt from disclosure under the Freedom of Information Act,
# //  5 U.S.C. Section 552. Furthermore, this information
# //  is prohibited from disclosure under the Trade Secrets Act,
# //  18 U.S.C. Section 1905.
# //
# Loading sv_std.std
# Loading work.axi_s_inf(fast)
# Loading work.axi_m_inf(fast)
# Loading mtiUvm.uvm_pkg(fast)
# Loading work.axi_s_agent_pkg(fast)
# Loading work.axi_m_agent_pkg(fast)
# Loading work.axi_env_pkg(fast)
# Loading work.axi_test_pkg(fast)
# Loading mtiUvm.questa_uvm_pkg(fast)
# Loading work.axi_tb_top(fast)
# Loading work.axi_m_inf(fast__2)
# Loading work.axi_s_inf(fast__2)
# ** Warning: (vsim-8441) Clocking block output s_vif.s_drv_cb.RDATA is not legal in this
# or another expression.
#    Time: 0 ns  Iteration: 0  Region: /axi_s_agent_pkg::axi_s_drv #(32, 32) File: ../env/s_agent/axi_s_drv.sv Line: 113
# ** Warning: (vsim-8441) Clocking block output s_vif.s_drv_cb.RVALID is not legal in this
# or another expression.
#    Time: 0 ns  Iteration: 0  Region: /axi_s_agent_pkg::axi_s_drv #(32, 32) File: ../env/s_agent/axi_s_drv.sv Line: 115
# ** Warning: (vsim-8441) Clocking block output s_vif.s_drv_cb.RLAST is not legal in this
# or another expression.
#    Time: 0 ns  Iteration: 0  Region: /axi_s_agent_pkg::axi_s_drv #(32, 32) File: ../env/s_agent/axi_s_drv.sv Line: 116
# ** Warning: (vsim-8441) Clocking block output s_vif.s_drv_cb.RDATA is not legal in this
# or another expression.
#    Time: 0 ns  Iteration: 0  Region: /axi_s_agent_pkg::axi_s_drv #(32, 32) File: ../env/s_agent/axi_s_drv.sv Line: 113
# ** Warning: (vsim-8441) Clocking block output s_vif.s_drv_cb.RLAST is not legal in this
# or another expression.
#    Time: 0 ns  Iteration: 0  Region: /axi_s_agent_pkg::axi_s_drv #(32, 32) File: ../env/s_agent/axi_s_drv.sv Line: 116
# ** Warning: (vsim-8441) Clocking block output s_vif.s_drv_cb.RVALID is not legal in this
# or another expression.
#    Time: 0 ns  Iteration: 0  Region: /axi_s_agent_pkg::axi_s_drv #(32, 32) File: ../env/s_agent/axi_s_drv.sv Line: 115
# ** Warning: (vsim-8441) Clocking block output s_vif.s_drv_cb.RVALID is not legal in this
# or another expression.
#    Time: 0 ns  Iteration: 0  Region: /axi_s_agent_pkg::axi_s_drv #(32, 32) File: ../env/s_agent/axi_s_drv.sv Line: 115
# ** Warning: (vsim-8441) Clocking block output s_vif.s_drv_cb.RLAST is not legal in this
# or another expression.
#    Time: 0 ns  Iteration: 0  Region: /axi_s_agent_pkg::axi_s_drv #(32, 32) File: ../env/s_agent/axi_s_drv.sv Line: 116
# Loading /tools/mentor/questa/2023.4/questasim/uvm-1.1d/linux_x86_64/uvm_dpi.so
# coverage save -onexit -directive -cvg -codeall axi_incr_cov_test.ucdb
#  run -all
# ----------------------------------------------------------------
# UVM-1.1d
# (C) 2007-2013 Mentor Graphics Corporation
# (C) 2007-2013 Cadence Design Systems, Inc.
# (C) 2006-2013 Synopsys, Inc.
# (C) 2011-2013 Cypress Semiconductor Corp.
# ----------------------------------------------------------------
# 
#   ***********       IMPORTANT RELEASE NOTES         ************
# 
#   You are using a version of the UVM library that has been compiled
#   with `UVM_NO_DEPRECATED undefined.
#   See http://www.eda.org/svdb/view.php?id=3313 for more details.
# 
#   You are using a version of the UVM library that has been compiled
#   with `UVM_OBJECT_MUST_HAVE_CONSTRUCTOR undefined.
#   See http://www.eda.org/svdb/view.php?id=3770 for more details.
# 
#       (Specify +UVM_NO_RELNOTES to turn off this notice)
# 
# UVM_INFO verilog_src/questa_uvm_pkg-1.2/src/questa_uvm_pkg.sv(277) @ 0: reporter [Questa UVM] QUESTA_UVM-1.2.3
# UVM_INFO verilog_src/questa_uvm_pkg-1.2/src/questa_uvm_pkg.sv(278) @ 0: reporter [Questa UVM]  questa_uvm::init(+struct)
# UVM_INFO @ 0: reporter [RNTST] Running test axi_incr_cov_test...
# UVM_INFO ../env/s_agent/axi_s_seqr.sv(25) @ 0: uvm_test_top.env_h.s_uvc_h.s_agent_h[0].s_seqr_h [Data in s seqr] Data got in slave seqr
# UVM_INFO @ 0: reporter [UVMTOP] UVM testbench topology:
# --------------------------------------------------------------------------------
# Name                             Type                                Size  Value
# --------------------------------------------------------------------------------
# uvm_test_top                     axi_incr_cov_test                   -     @479 
#   env_h                          axi_env                             -     @491 
#     m_uvc_h                      uvm_agent                           -     @513 
#       m_agent_h[0]               uvm_agent                           -     @693 
#         m_drv_h                  uvm_driver #(REQ,RSP)               -     @814 
#           rsp_port               uvm_analysis_port                   -     @829 
#           seq_item_port          uvm_seq_item_pull_port              -     @821 
#         m_mon_h                  axi_m_mon#(ADDR_WIDTH, DATA_WIDTH)  -     @837 
#           s_port                 uvm_analysis_port                   -     @844 
#         m_seqr_h                 uvm_sequencer                       -     @705 
#           rsp_export             uvm_analysis_export                 -     @712 
#           seq_item_export        uvm_seq_item_pull_imp               -     @806 
#           arbitration_queue      array                               0     -    
#           lock_queue             array                               0     -    
#           num_last_reqs          integral                            32    'd1  
#           num_last_rsps          integral                            32    'd1  
#     ref_model_h                  axi_ref_model                       -     @558 
#       mon_imp                    uvm_analysis_imp                    -     @565 
#       sb_imp                     uvm_analysis_port                   -     @573 
#     s_uvc_h                      uvm_agent                           -     @520 
#       s_agent_h[0]               uvm_agent                           -     @860 
#         s_drv_h                  uvm_driver #(REQ,RSP)               -     @1036
#           rsp_port               uvm_analysis_port                   -     @1051
#           seq_item_port          uvm_seq_item_pull_port              -     @1043
#         s_mon_h                  axi_s_mon#(ADDR_WIDTH, DATA_WIDTH)  -     @1059
#           s_port                 uvm_analysis_port                   -     @1066
#         s_seqr_h                 uvm_sequencer                       -     @872 
#           item_collected_export  uvm_analysis_export                 -     @981 
#           item_req_fifo          uvm_tlm_analysis_fifo #(T)          -     @989 
#             analysis_export      uvm_analysis_imp                    -     @1028
#             get_ap               uvm_analysis_port                   -     @1020
#             get_peek_export      uvm_get_peek_imp                    -     @1004
#             put_ap               uvm_analysis_port                   -     @1012
#             put_export           uvm_put_imp                         -     @996 
#           rsp_export             uvm_analysis_export                 -     @879 
#           seq_item_export        uvm_seq_item_pull_imp               -     @973 
#           arbitration_queue      array                               0     -    
#           lock_queue             array                               0     -    
#           num_last_reqs          integral                            32    'd1  
#           num_last_rsps          integral                            32    'd1  
#     sb_h                         axi_sb                              -     @527 
#       anl_imp_m                  uvm_analysis_imp_m                  -     @534 
#       anl_imp_ref                uvm_analysis_imp_ref                -     @542 
#     vseqr_h                      axi_virtual_seqr                    -     @581 
#       rsp_export                 uvm_analysis_export                 -     @588 
#       seq_item_export            uvm_seq_item_pull_imp               -     @682 
#       arbitration_queue          array                               0     -    
#       lock_queue                 array                               0     -    
#       num_last_reqs              integral                            32    'd1  
#       num_last_rsps              integral                            32    'd1  
# --------------------------------------------------------------------------------
# 
# UVM_INFO ../env/axi_sb.sv(80) @ 0: uvm_test_top.env_h.sb_h [before event in sb] aaaa
# UVM_INFO ../env/m_agent/axi_m_mon.sv(28) @ 0: uvm_test_top.env_h.m_uvc_h.m_agent_h[0].m_mon_h [M MON RUN PHASE before] Inside master mon run phase
# UVM_INFO ../env/m_agent/axi_m_mon.sv(36) @ 0: uvm_test_top.env_h.m_uvc_h.m_agent_h[0].m_mon_h [M MON run PHASE after] Inside master mon
# UVM_INFO ../env/m_agent/axi_m_mon.sv(41) @ 0: uvm_test_top.env_h.m_uvc_h.m_agent_h[0].m_mon_h [M MON write addr PHASE before] Inside master mon
# UVM_INFO ../env/m_agent/axi_m_mon.sv(60) @ 0: uvm_test_top.env_h.m_uvc_h.m_agent_h[0].m_mon_h [M MON write data PHASE before] Inside master mon
# UVM_INFO ../env/m_agent/axi_m_mon.sv(99) @ 0: uvm_test_top.env_h.m_uvc_h.m_agent_h[0].m_mon_h [M MON read addr PHASE before] Inside master mon
# UVM_INFO ../env/m_agent/axi_m_mon.sv(118) @ 0: uvm_test_top.env_h.m_uvc_h.m_agent_h[0].m_mon_h [M MON read data PHASE before] Inside master mon
# Before AW CHANNEL
# Before W CHANNEL
# Before AR CHANNEL
# Before R CHANNEL
# AWLEN IN M DRV:8
# cnt : 1
# AWLEN IN M DRV:7
# cnt : 2
# AWLEN IN M DRV:5
# cnt : 3
# AWLEN IN M DRV:13
# cnt : 4
# AWLEN IN M DRV:0
# cnt : 5
# AWLEN IN M DRV:8
# cnt : 6
# AWLEN IN M DRV:1
# cnt : 7
# AWLEN IN M DRV:1
# cnt : 8
# AWLEN IN M DRV:120
# cnt : 9
# AWLEN IN M DRV:243
# cnt : 10
# AWLEN IN M DRV:209
# cnt : 11
# AWLEN IN M DRV:148
# cnt : 12
# AWLEN IN M DRV:74
# cnt : 13
# AWLEN IN M DRV:68
# cnt : 14
# AWLEN IN M DRV:250
# cnt : 15
# AWLEN IN M DRV:152
# cnt : 16
# AWLEN IN M DRV:6
# cnt : 17
# AWLEN IN M DRV:9
# cnt : 18
# AWLEN IN M DRV:171
# cnt : 19
# AWLEN IN M DRV:241
# cnt : 20
# AWLEN IN M DRV:2
# cnt : 21
# AWLEN IN M DRV:3
# cnt : 22
# AWLEN IN M DRV:15
# cnt : 23
# AWLEN IN M DRV:10
# cnt : 24
# AWLEN IN M DRV:11
# cnt : 25
# AWLEN IN M DRV:14
# cnt : 26
# AWLEN IN M DRV:1
# cnt : 27
# AWLEN IN M DRV:0
# cnt : 28
# AWLEN IN M DRV:56
# cnt : 29
# AWLEN IN M DRV:190
# cnt : 30
# AWLEN IN M DRV:244
# cnt : 31
# AWLEN IN M DRV:159
# cnt : 32
# AWLEN IN M DRV:54
# cnt : 33
# AWLEN IN M DRV:125
# cnt : 34
# AWLEN IN M DRV:188
# cnt : 35
# AWLEN IN M DRV:95
# cnt : 36
# AWLEN IN M DRV:10
# cnt : 37
# AWLEN IN M DRV:8
# cnt : 38
# AWLEN IN M DRV:14
# cnt : 39
# AWLEN IN M DRV:9
# cnt : 40
# INIDE_SLAVE_MON_CTR=1
# arid in s mon : 60203
# m mon ar id : eb2b
# INIDE_SLAVE_MON_CTR=2
# arid in s mon : 59707
# m mon ar id : e93b
# INIDE_SLAVE_MON_CTR=3
# arid in s mon : 59859
# m mon ar id : e9d3
# INIDE_SLAVE_MON_CTR=4
# arid in s mon : 10426
# m mon ar id : 28ba
# INIDE_SLAVE_MON_CTR=5
# arid in s mon : 61524
# m mon ar id : f054
# INIDE_SLAVE_MON_CTR=6
# arid in s mon : 26459
# m mon ar id : 675b
# INIDE_SLAVE_MON_CTR=7
# arid in s mon : 22357
# m mon ar id : 5755
# INIDE_SLAVE_MON_CTR=8
# arid in s mon : 58966
# abc : 1
# ref model mem : 0
# abc : 2
# ref model mem : 1
# abc : 3
# ref model mem : 2
# abc : 4
# ref model mem : 3
# abc : 5
# ref model mem : 4
# abc : 6
# ref model mem : 5
# abc : 7
# ref model mem : 6
# abc : 8
# ref model mem : 7
# abc : 9
# ref model mem : 8
# xyz : 1
# xyz : 2
# xyz : 3
# xyz : 4
# xyz : 5
# xyz : 6
# xyz : 7
# xyz : 8
# xyz : 9
# AR ADDR IN SB : ffffffff
# xyz : 10
# xyz : 11
# xyz : 12
# xyz : 13
# xyz : 14
# xyz : 15
# AR ADDR IN SB : ffffffff
# xyz : 16
# AR ADDR IN SB : ffffffff
# xyz : 17
# xyz : 18
# AR ADDR IN SB : ffffffff
# xyz : 19
# xyz : 20
# xyz : 21
# xyz : 22
# xyz : 23
# xyz : 24
# xyz : 25
# xyz : 26
# xyz : 27
# xyz : 28
# xyz : 29
# xyz : 30
# xyz : 31
# xyz : 32
# xyz : 33
# xyz : 34
# xyz : 35
# xyz : 36
# xyz : 37
# xyz : 38
# xyz : 39
# xyz : 40
# xyz : 41
# xyz : 42
# xyz : 43
# xyz : 44
# xyz : 45
# xyz : 46
# xyz : 47
# xyz : 48
# xyz : 49
# xyz : 50
# xyz : 51
# xyz : 52
# xyz : 53
# xyz : 54
# xyz : 55
# xyz : 56
# xyz : 57
# xyz : 58
# xyz : 59
# xyz : 60
# xyz : 61
# xyz : 62
# xyz : 63
# xyz : 64
# xyz : 65
# xyz : 66
# xyz : 67
# xyz : 68
# xyz : 69
# xyz : 70
# xyz : 71
# xyz : 72
# xyz : 73
# xyz : 74
# xyz : 75
# xyz : 76
# xyz : 77
# xyz : 78
# xyz : 79
# xyz : 80
# xyz : 81
# xyz : 82
# xyz : 83
# xyz : 84
# xyz : 85
# xyz : 86
# xyz : 87
# xyz : 88
# xyz : 89
# xyz : 90
# xyz : 91
# xyz : 92
# xyz : 93
# xyz : 94
# xyz : 95
# xyz : 96
# xyz : 97
# xyz : 98
# xyz : 99
# xyz : 100
# xyz : 101
# xyz : 102
# xyz : 103
# xyz : 104
# xyz : 105
# xyz : 106
# xyz : 107
# xyz : 108
# xyz : 109
# xyz : 110
# xyz : 111
# xyz : 112
# xyz : 113
# xyz : 114
# xyz : 115
# xyz : 116
# xyz : 117
# xyz : 118
# xyz : 119
# xyz : 120
# xyz : 121
# xyz : 122
# xyz : 123
# xyz : 124
# xyz : 125
# xyz : 126
# xyz : 127
# xyz : 128
# xyz : 129
# xyz : 130
# xyz : 131
# xyz : 132
# xyz : 133
# xyz : 134
# xyz : 135
# xyz : 136
# xyz : 137
# xyz : 138
# xyz : 139
# AR ADDR IN SB : 0
# xyz : 140
# xyz : 141
# xyz : 142
# xyz : 143
# xyz : 144
# xyz : 145
# xyz : 146
# xyz : 147
# xyz : 148
# xyz : 149
# xyz : 150
# xyz : 151
# xyz : 152
# xyz : 153
# xyz : 154
# xyz : 155
# xyz : 156
# xyz : 157
# xyz : 158
# xyz : 159
# xyz : 160
# xyz : 161
# xyz : 162
# xyz : 163
# xyz : 164
# xyz : 165
# xyz : 166
# xyz : 167
# xyz : 168
# xyz : 169
# xyz : 170
# xyz : 171
# xyz : 172
# xyz : 173
# xyz : 174
# xyz : 175
# xyz : 176
# xyz : 177
# xyz : 178
# xyz : 179
# xyz : 180
# xyz : 181
# xyz : 182
# xyz : 183
# xyz : 184
# xyz : 185
# xyz : 186
# xyz : 187
# xyz : 188
# xyz : 189
# xyz : 190
# xyz : 191
# xyz : 192
# xyz : 193
# xyz : 194
# xyz : 195
# xyz : 196
# xyz : 197
# xyz : 198
# xyz : 199
# xyz : 200
# xyz : 201
# xyz : 202
# xyz : 203
# xyz : 204
# xyz : 205
# xyz : 206
# xyz : 207
# xyz : 208
# xyz : 209
# xyz : 210
# xyz : 211
# xyz : 212
# xyz : 213
# xyz : 214
# xyz : 215
# xyz : 216
# xyz : 217
# xyz : 218
# xyz : 219
# xyz : 220
# xyz : 221
# xyz : 222
# xyz : 223
# xyz : 224
# xyz : 225
# xyz : 226
# xyz : 227
# xyz : 228
# xyz : 229
# xyz : 230
# xyz : 231
# xyz : 232
# xyz : 233
# xyz : 234
# xyz : 235
# xyz : 236
# xyz : 237
# xyz : 238
# xyz : 239
# xyz : 240
# xyz : 241
# xyz : 242
# xyz : 243
# xyz : 244
# xyz : 245
# xyz : 246
# xyz : 247
# xyz : 248
# xyz : 249
# xyz : 250
# xyz : 251
# xyz : 252
# xyz : 253
# xyz : 254
# xyz : 255
# xyz : 256
# xyz : 257
# xyz : 258
# xyz : 259
# xyz : 260
# xyz : 261
# xyz : 262
# xyz : 263
# xyz : 264
# xyz : 265
# xyz : 266
# xyz : 267
# xyz : 268
# xyz : 269
# xyz : 270
# xyz : 271
# xyz : 272
# xyz : 273
# xyz : 274
# xyz : 275
# xyz : 276
# xyz : 277
# xyz : 278
# xyz : 279
# xyz : 280
# xyz : 281
# xyz : 282
# xyz : 283
# xyz : 284
# xyz : 285
# xyz : 286
# xyz : 287
# xyz : 288
# xyz : 289
# xyz : 290
# xyz : 291
# xyz : 292
# xyz : 293
# xyz : 294
# xyz : 295
# xyz : 296
# xyz : 297
# xyz : 298
# xyz : 299
# xyz : 300
# xyz : 301
# xyz : 302
# xyz : 303
# xyz : 304
# xyz : 305
# xyz : 306
# xyz : 307
# xyz : 308
# xyz : 309
# xyz : 310
# xyz : 311
# xyz : 312
# xyz : 313
# xyz : 314
# xyz : 315
# xyz : 316
# xyz : 317
# xyz : 318
# xyz : 319
# xyz : 320
# xyz : 321
# xyz : 322
# xyz : 323
# xyz : 324
# xyz : 325
# xyz : 326
# xyz : 327
# xyz : 328
# xyz : 329
# xyz : 330
# xyz : 331
# xyz : 332
# xyz : 333
# xyz : 334
# xyz : 335
# xyz : 336
# xyz : 337
# xyz : 338
# xyz : 339
# xyz : 340
# xyz : 341
# xyz : 342
# xyz : 343
# xyz : 344
# xyz : 345
# xyz : 346
# xyz : 347
# xyz : 348
# xyz : 349
# AR ADDR IN SB : 0
# xyz : 350
# xyz : 351
# xyz : 352
# xyz : 353
# xyz : 354
# xyz : 355
# xyz : 356
# xyz : 357
# xyz : 358
# xyz : 359
# xyz : 360
# xyz : 361
# xyz : 362
# xyz : 363
# xyz : 364
# xyz : 365
# xyz : 366
# xyz : 367
# xyz : 368
# xyz : 369
# xyz : 370
# xyz : 371
# xyz : 372
# xyz : 373
# xyz : 374
# xyz : 375
# xyz : 376
# xyz : 377
# xyz : 378
# xyz : 379
# xyz : 380
# xyz : 381
# xyz : 382
# xyz : 383
# xyz : 384
# xyz : 385
# xyz : 386
# xyz : 387
# xyz : 388
# xyz : 389
# xyz : 390
# xyz : 391
# xyz : 392
# xyz : 393
# xyz : 394
# xyz : 395
# xyz : 396
# xyz : 397
# xyz : 398
# xyz : 399
# xyz : 400
# xyz : 401
# xyz : 402
# xyz : 403
# xyz : 404
# xyz : 405
# xyz : 406
# xyz : 407
# xyz : 408
# xyz : 409
# xyz : 410
# xyz : 411
# xyz : 412
# xyz : 413
# xyz : 414
# xyz : 415
# xyz : 416
# xyz : 417
# xyz : 418
# xyz : 419
# xyz : 420
# xyz : 421
# xyz : 422
# xyz : 423
# xyz : 424
# AR ADDR IN SB : 0
# xyz : 425
# xyz : 426
# xyz : 427
# xyz : 428
# xyz : 429
# xyz : 430
# xyz : 431
# xyz : 432
# xyz : 433
# xyz : 434
# xyz : 435
# xyz : 436
# xyz : 437
# xyz : 438
# xyz : 439
# xyz : 440
# xyz : 441
# xyz : 442
# xyz : 443
# xyz : 444
# xyz : 445
# xyz : 446
# xyz : 447
# xyz : 448
# xyz : 449
# xyz : 450
# xyz : 451
# xyz : 452
# xyz : 453
# xyz : 454
# xyz : 455
# xyz : 456
# xyz : 457
# xyz : 458
# xyz : 459
# xyz : 460
# xyz : 461
# xyz : 462
# xyz : 463
# xyz : 464
# xyz : 465
# xyz : 466
# xyz : 467
# xyz : 468
# xyz : 469
# xyz : 470
# xyz : 471
# xyz : 472
# xyz : 473
# xyz : 474
# xyz : 475
# xyz : 476
# xyz : 477
# xyz : 478
# xyz : 479
# xyz : 480
# xyz : 481
# xyz : 482
# xyz : 483
# xyz : 484
# xyz : 485
# xyz : 486
# xyz : 487
# xyz : 488
# xyz : 489
# xyz : 490
# xyz : 491
# xyz : 492
# xyz : 493
# xyz : 494
# xyz : 495
# xyz : 496
# xyz : 497
# xyz : 498
# xyz : 499
# xyz : 500
# xyz : 501
# xyz : 502
# xyz : 503
# xyz : 504
# xyz : 505
# xyz : 506
# xyz : 507
# xyz : 508
# xyz : 509
# xyz : 510
# xyz : 511
# xyz : 512
# xyz : 513
# xyz : 514
# xyz : 515
# xyz : 516
# xyz : 517
# xyz : 518
# xyz : 519
# xyz : 520
# xyz : 521
# xyz : 522
# xyz : 523
# xyz : 524
# xyz : 525
# xyz : 526
# xyz : 527
# xyz : 528
# xyz : 529
# xyz : 530
# xyz : 531
# xyz : 532
# xyz : 533
# xyz : 534
# xyz : 535
# xyz : 536
# xyz : 537
# xyz : 538
# xyz : 539
# xyz : 540
# xyz : 541
# xyz : 542
# xyz : 543
# xyz : 544
# xyz : 545
# xyz : 546
# xyz : 547
# xyz : 548
# xyz : 549
# xyz : 550
# xyz : 551
# xyz : 552
# xyz : 553
# xyz : 554
# xyz : 555
# xyz : 556
# xyz : 557
# xyz : 558
# xyz : 559
# xyz : 560
# xyz : 561
# xyz : 562
# xyz : 563
# xyz : 564
# xyz : 565
# xyz : 566
# xyz : 567
# xyz : 568
# xyz : 569
# xyz : 570
# xyz : 571
# xyz : 572
# xyz : 573
# xyz : 574
# xyz : 575
# xyz : 576
# xyz : 577
# xyz : 578
# xyz : 579
# xyz : 580
# xyz : 581
# xyz : 582
# xyz : 583
# xyz : 584
# xyz : 585
# xyz : 586
# xyz : 587
# xyz : 588
# xyz : 589
# xyz : 590
# xyz : 591
# xyz : 592
# xyz : 593
# xyz : 594
# xyz : 595
# xyz : 596
# xyz : 597
# xyz : 598
# xyz : 599
# xyz : 600
# xyz : 601
# xyz : 602
# xyz : 603
# xyz : 604
# xyz : 605
# xyz : 606
# xyz : 607
# xyz : 608
# xyz : 609
# xyz : 610
# xyz : 611
# xyz : 612
# xyz : 613
# xyz : 614
# xyz : 615
# xyz : 616
# xyz : 617
# xyz : 618
# xyz : 619
# xyz : 620
# xyz : 621
# xyz : 622
# xyz : 623
# xyz : 624
# xyz : 625
# xyz : 626
# xyz : 627
# xyz : 628
# xyz : 629
# xyz : 630
# xyz : 631
# xyz : 632
# xyz : 633
# xyz : 634
# xyz : 635
# xyz : 636
# xyz : 637
# xyz : 638
# xyz : 639
# xyz : 640
# xyz : 641
# xyz : 642
# xyz : 643
# xyz : 644
# xyz : 645
# xyz : 646
# xyz : 647
# xyz : 648
# xyz : 649
# xyz : 650
# xyz : 651
# xyz : 652
# xyz : 653
# xyz : 654
# xyz : 655
# xyz : 656
# xyz : 657
# xyz : 658
# xyz : 659
# xyz : 660
# xyz : 661
# xyz : 662
# xyz : 663
# xyz : 664
# xyz : 665
# xyz : 666
# xyz : 667
# xyz : 668
# xyz : 669
# xyz : 670
# xyz : 671
# xyz : 672
# xyz : 673
# xyz : 674
# xyz : 675
# AR ADDR IN SB : 0
# AFFTER W CHANNEL
# m mon ar id : e656
# match arid : 0 , rid : 0
# UVM_INFO ../env/s_agent/axi_s_drv.sv(31) @ 95: uvm_test_top.env_h.s_uvc_h.s_agent_h[0].s_drv_h [ID MATCH] aaaaa
# s seqs arid : 60203
# INIDE_SLAVE_SEQ_CTR=1
# match arid : eb2b , rid : eb2b
# UVM_INFO ../env/s_agent/axi_s_drv.sv(31) @ 95: uvm_test_top.env_h.s_uvc_h.s_agent_h[0].s_drv_h [ID MATCH] aaaaa
# s seqs arid : 59859
# INIDE_SLAVE_SEQ_CTR=2
# match arid : e9d3 , rid : e9d3
# UVM_INFO ../env/s_agent/axi_s_drv.sv(31) @ 95: uvm_test_top.env_h.s_uvc_h.s_agent_h[0].s_drv_h [ID MATCH] aaaaa
# s seqs arid : 61524
# INIDE_SLAVE_SEQ_CTR=3
# match arid : f054 , rid : f054
# UVM_INFO ../env/s_agent/axi_s_drv.sv(31) @ 95: uvm_test_top.env_h.s_uvc_h.s_agent_h[0].s_drv_h [ID MATCH] aaaaa
# s seqs arid : 22357
# INIDE_SLAVE_SEQ_CTR=4
# match arid : 5755 , rid : 5755
# UVM_INFO ../env/s_agent/axi_s_drv.sv(31) @ 95: uvm_test_top.env_h.s_uvc_h.s_agent_h[0].s_drv_h [ID MATCH] aaaaa
# rd data in s drv: 0 , len : 8 , last:0 , valid : 1
# INIDE_SLAVE_MON_CTR=9
# arid in s mon : 64759
# xyz : 1
# xyz : 2
# xyz : 3
# xyz : 4
# xyz : 5
# xyz : 6
# xyz : 7
# AR ADDR IN SB : ffffffff
# m mon ar id : fcf7
# m mon rid : eb2b
# s seqs arid : 59707
# INIDE_SLAVE_SEQ_CTR=5
# match arid : e93b , rid : e93b
# UVM_INFO ../env/s_agent/axi_s_drv.sv(31) @ 105: uvm_test_top.env_h.s_uvc_h.s_agent_h[0].s_drv_h [ID MATCH] aaaaa
# s seqs arid : 26459
# INIDE_SLAVE_SEQ_CTR=6
# match arid : 675b , rid : 675b
# UVM_INFO ../env/s_agent/axi_s_drv.sv(31) @ 105: uvm_test_top.env_h.s_uvc_h.s_agent_h[0].s_drv_h [ID MATCH] aaaaa
# s seqs arid : 64759
# INIDE_SLAVE_SEQ_CTR=7
# match arid : fcf7 , rid : fcf7
# UVM_INFO ../env/s_agent/axi_s_drv.sv(31) @ 105: uvm_test_top.env_h.s_uvc_h.s_agent_h[0].s_drv_h [ID MATCH] aaaaa
# rd data in s drv: ffffffff , len : 8 , last:0 , valid : 1
# INIDE_SLAVE_MON_CTR=10
# arid in s mon : 43156
# xyz : 1
# xyz : 2
# xyz : 3
# xyz : 4
# xyz : 5
# xyz : 6
# xyz : 7
# xyz : 8
# xyz : 9
# xyz : 10
# xyz : 11
# xyz : 12
# xyz : 13
# xyz : 14
# xyz : 15
# xyz : 16
# xyz : 17
# xyz : 18
# xyz : 19
# xyz : 20
# xyz : 21
# xyz : 22
# xyz : 23
# xyz : 24
# xyz : 25
# xyz : 26
# xyz : 27
# xyz : 28
# xyz : 29
# xyz : 30
# xyz : 31
# xyz : 32
# xyz : 33
# xyz : 34
# xyz : 35
# xyz : 36
# xyz : 37
# xyz : 38
# xyz : 39
# xyz : 40
# xyz : 41
# xyz : 42
# xyz : 43
# xyz : 44
# xyz : 45
# xyz : 46
# xyz : 47
# xyz : 48
# xyz : 49
# xyz : 50
# xyz : 51
# xyz : 52
# xyz : 53
# xyz : 54
# xyz : 55
# xyz : 56
# xyz : 57
# xyz : 58
# xyz : 59
# xyz : 60
# xyz : 61
# xyz : 62
# xyz : 63
# xyz : 64
# xyz : 65
# xyz : 66
# xyz : 67
# xyz : 68
# xyz : 69
# xyz : 70
# xyz : 71
# xyz : 72
# xyz : 73
# xyz : 74
# xyz : 75
# xyz : 76
# xyz : 77
# xyz : 78
# xyz : 79
# xyz : 80
# xyz : 81
# xyz : 82
# xyz : 83
# xyz : 84
# xyz : 85
# xyz : 86
# xyz : 87
# xyz : 88
# xyz : 89
# xyz : 90
# xyz : 91
# xyz : 92
# xyz : 93
# xyz : 94
# xyz : 95
# xyz : 96
# xyz : 97
# xyz : 98
# xyz : 99
# xyz : 100
# xyz : 101
# xyz : 102
# xyz : 103
# xyz : 104
# xyz : 105
# xyz : 106
# xyz : 107
# xyz : 108
# xyz : 109
# xyz : 110
# xyz : 111
# xyz : 112
# xyz : 113
# xyz : 114
# xyz : 115
# xyz : 116
# xyz : 117
# xyz : 118
# xyz : 119
# xyz : 120
# xyz : 121
# xyz : 122
# xyz : 123
# xyz : 124
# xyz : 125
# xyz : 126
# xyz : 127
# xyz : 128
# xyz : 129
# xyz : 130
# xyz : 131
# xyz : 132
# xyz : 133
# xyz : 134
# xyz : 135
# xyz : 136
# xyz : 137
# xyz : 138
# xyz : 139
# xyz : 140
# xyz : 141
# xyz : 142
# xyz : 143
# xyz : 144
# xyz : 145
# xyz : 146
# xyz : 147
# xyz : 148
# xyz : 149
# xyz : 150
# xyz : 151
# xyz : 152
# xyz : 153
# xyz : 154
# xyz : 155
# xyz : 156
# xyz : 157
# xyz : 158
# xyz : 159
# xyz : 160
# xyz : 161
# xyz : 162
# xyz : 163
# xyz : 164
# xyz : 165
# xyz : 166
# xyz : 167
# xyz : 168
# xyz : 169
# xyz : 170
# xyz : 171
# xyz : 172
# AR ADDR IN SB : 0
# m mon rid : eb2b
# m mon ar id : a894
# req wid : 48469 , bid:48469
# s seqs arid : 10426
# INIDE_SLAVE_SEQ_CTR=8
# UVM_INFO ../env/m_agent/axi_base_m_seqs.sv(26) @ 115: uvm_test_top.env_h.m_uvc_h.m_agent_h[0].m_seqr_h@@vseqs_h.m_wseqs_h [IN V SEQS] Got B-channel response from driver
# match arid : 28ba , rid : 28ba
# UVM_INFO ../env/s_agent/axi_s_drv.sv(31) @ 115: uvm_test_top.env_h.s_uvc_h.s_agent_h[0].s_drv_h [ID MATCH] aaaaa
# s seqs arid : 43156
# INIDE_SLAVE_SEQ_CTR=9
# match arid : a894 , rid : a894
# UVM_INFO ../env/s_agent/axi_s_drv.sv(31) @ 115: uvm_test_top.env_h.s_uvc_h.s_agent_h[0].s_drv_h [ID MATCH] aaaaa
# rd data in s drv: ffffffff , len : 8 , last:0 , valid : 1
# INIDE_SLAVE_MON_CTR=11
# arid in s mon : 52439
# xyz : 1
# xyz : 2
# xyz : 3
# AR ADDR IN SB : ffffffff
# m mon ar id : ccd7
# m mon rid : eb2b
# s seqs arid : 58966
# INIDE_SLAVE_SEQ_CTR=10
# match arid : e656 , rid : e656
# UVM_INFO ../env/s_agent/axi_s_drv.sv(31) @ 125: uvm_test_top.env_h.s_uvc_h.s_agent_h[0].s_drv_h [ID MATCH] aaaaa
# rd data in s drv: ffffffff , len : 8 , last:0 , valid : 1
# INIDE_SLAVE_MON_CTR=12
# arid in s mon : 4905
# xyz : 1
# xyz : 2
# xyz : 3
# xyz : 4
# xyz : 5
# xyz : 6
# xyz : 7
# xyz : 8
# xyz : 9
# ** Warning: (vsim-3829) Non-existent associative array entry. Returning default value.
#    Time: 135 ns  Iteration: 2  Process: /axi_s_agent_pkg::axi_s_mon #(32, 32)::monitor/#FORK#35_7fefec46530 File: ../env/axi_ref_model.sv Line: 79
# xyz : 10
# ** Warning: (vsim-3829) Non-existent associative array entry. Returning default value.
#    Time: 135 ns  Iteration: 2  Process: /axi_s_agent_pkg::axi_s_mon #(32, 32)::monitor/#FORK#35_7fefec46530 File: ../env/axi_ref_model.sv Line: 79
# xyz : 11
# ** Warning: (vsim-3829) Non-existent associative array entry. Returning default value.
#    Time: 135 ns  Iteration: 2  Process: /axi_s_agent_pkg::axi_s_mon #(32, 32)::monitor/#FORK#35_7fefec46530 File: ../env/axi_ref_model.sv Line: 79
# xyz : 12
# ** Warning: (vsim-3829) Non-existent associative array entry. Returning default value.
#    Time: 135 ns  Iteration: 2  Process: /axi_s_agent_pkg::axi_s_mon #(32, 32)::monitor/#FORK#35_7fefec46530 File: ../env/axi_ref_model.sv Line: 79
# xyz : 13
# ** Warning: (vsim-3829) Non-existent associative array entry. Returning default value.
#    Time: 135 ns  Iteration: 2  Process: /axi_s_agent_pkg::axi_s_mon #(32, 32)::monitor/#FORK#35_7fefec46530 File: ../env/axi_ref_model.sv Line: 79
# xyz : 14
# ** Warning: (vsim-3829) Non-existent associative array entry. Returning default value.
#    Time: 135 ns  Iteration: 2  Process: /axi_s_agent_pkg::axi_s_mon #(32, 32)::monitor/#FORK#35_7fefec46530 File: ../env/axi_ref_model.sv Line: 79
# xyz : 15
# ** Warning: (vsim-3829) Non-existent associative array entry. Returning default value.
#    Time: 135 ns  Iteration: 2  Process: /axi_s_agent_pkg::axi_s_mon #(32, 32)::monitor/#FORK#35_7fefec46530 File: ../env/axi_ref_model.sv Line: 79
# xyz : 16
# AR ADDR IN SB : ffffffff
# m mon rid : eb2b
# m mon ar id : 1329
# s seqs arid : 52439
# INIDE_SLAVE_SEQ_CTR=11
# match arid : ccd7 , rid : ccd7
# UVM_INFO ../env/s_agent/axi_s_drv.sv(31) @ 135: uvm_test_top.env_h.s_uvc_h.s_agent_h[0].s_drv_h [ID MATCH] aaaaa
# rd data in s drv: 55555555 , len : 8 , last:0 , valid : 1
# INIDE_SLAVE_MON_CTR=13
# arid in s mon : 35577
# xyz : 1
# xyz : 2
# xyz : 3
# xyz : 4
# xyz : 5
# xyz : 6
# xyz : 7
# xyz : 8
# xyz : 9
# ** Warning: (vsim-3829) Non-existent associative array entry. Returning default value.
#    Time: 145 ns  Iteration: 2  Process: /axi_s_agent_pkg::axi_s_mon #(32, 32)::monitor/#FORK#35_7fefec46530 File: ../env/axi_ref_model.sv Line: 79
# xyz : 10
# ** Warning: (vsim-3829) Non-existent associative array entry. Returning default value.
#    Time: 145 ns  Iteration: 2  Process: /axi_s_agent_pkg::axi_s_mon #(32, 32)::monitor/#FORK#35_7fefec46530 File: ../env/axi_ref_model.sv Line: 79
# xyz : 11
# ** Warning: (vsim-3829) Non-existent associative array entry. Returning default value.
#    Time: 145 ns  Iteration: 2  Process: /axi_s_agent_pkg::axi_s_mon #(32, 32)::monitor/#FORK#35_7fefec46530 File: ../env/axi_ref_model.sv Line: 79
# xyz : 12
# AR ADDR IN SB : ffffffff
# m mon ar id : 8af9
# m mon rid : eb2b
# ** Warning: (vsim-3829) Non-existent associative array entry. Returning default value.
#    Time: 145 ns  Iteration: 3  Process: /uvm_pkg::uvm_sequence_base::start/#FORK#294_7fefec26ef1 File: ../env/s_agent/axi_base_s_seqs.sv Line: 103
# ** Warning: (vsim-3829) Non-existent associative array entry. Returning default value.
#    Time: 145 ns  Iteration: 3  Process: /uvm_pkg::uvm_sequence_base::start/#FORK#294_7fefec26ef1 File: ../env/s_agent/axi_base_s_seqs.sv Line: 103
# ** Warning: (vsim-3829) Non-existent associative array entry. Returning default value.
#    Time: 145 ns  Iteration: 3  Process: /uvm_pkg::uvm_sequence_base::start/#FORK#294_7fefec26ef1 File: ../env/s_agent/axi_base_s_seqs.sv Line: 103
# ** Warning: (vsim-3829) Non-existent associative array entry. Returning default value.
#    Time: 145 ns  Iteration: 3  Process: /uvm_pkg::uvm_sequence_base::start/#FORK#294_7fefec26ef1 File: ../env/s_agent/axi_base_s_seqs.sv Line: 103
# ** Warning: (vsim-3829) Non-existent associative array entry. Returning default value.
#    Time: 145 ns  Iteration: 3  Process: /uvm_pkg::uvm_sequence_base::start/#FORK#294_7fefec26ef1 File: ../env/s_agent/axi_base_s_seqs.sv Line: 103
# ** Warning: (vsim-3829) Non-existent associative array entry. Returning default value.
#    Time: 145 ns  Iteration: 3  Process: /uvm_pkg::uvm_sequence_base::start/#FORK#294_7fefec26ef1 File: ../env/s_agent/axi_base_s_seqs.sv Line: 103
# ** Warning: (vsim-3829) Non-existent associative array entry. Returning default value.
#    Time: 145 ns  Iteration: 3  Process: /uvm_pkg::uvm_sequence_base::start/#FORK#294_7fefec26ef1 File: ../env/s_agent/axi_base_s_seqs.sv Line: 103
# s seqs arid : 4905
# INIDE_SLAVE_SEQ_CTR=12
# match arid : 1329 , rid : 1329
# UVM_INFO ../env/s_agent/axi_s_drv.sv(31) @ 145: uvm_test_top.env_h.s_uvc_h.s_agent_h[0].s_drv_h [ID MATCH] aaaaa
# rd data in s drv: ffffffff , len : 8 , last:0 , valid : 1
# INIDE_SLAVE_MON_CTR=14
# arid in s mon : 25219
# xyz : 1
# xyz : 2
# AR ADDR IN SB : ffffffff
# abc : 1
# ref model mem : 0
# abc : 2
# ref model mem : 1
# abc : 3
# ref model mem : 2
# abc : 4
# ref model mem : 3
# abc : 5
# ref model mem : 4
# abc : 6
# ref model mem : 5
# AFFTER W CHANNEL
# m mon rid : eb2b
# m mon ar id : 6283
# ** Warning: (vsim-3829) Non-existent associative array entry. Returning default value.
#    Time: 155 ns  Iteration: 3  Process: /uvm_pkg::uvm_sequence_base::start/#FORK#294_7fefec26ef1 File: ../env/s_agent/axi_base_s_seqs.sv Line: 103
# ** Warning: (vsim-3829) Non-existent associative array entry. Returning default value.
#    Time: 155 ns  Iteration: 3  Process: /uvm_pkg::uvm_sequence_base::start/#FORK#294_7fefec26ef1 File: ../env/s_agent/axi_base_s_seqs.sv Line: 103
# ** Warning: (vsim-3829) Non-existent associative array entry. Returning default value.
#    Time: 155 ns  Iteration: 3  Process: /uvm_pkg::uvm_sequence_base::start/#FORK#294_7fefec26ef1 File: ../env/s_agent/axi_base_s_seqs.sv Line: 103
# s seqs arid : 35577
# INIDE_SLAVE_SEQ_CTR=13
# match arid : 8af9 , rid : 8af9
# UVM_INFO ../env/s_agent/axi_s_drv.sv(31) @ 155: uvm_test_top.env_h.s_uvc_h.s_agent_h[0].s_drv_h [ID MATCH] aaaaa
# match arid : 0 , rid : 0
# UVM_INFO ../env/s_agent/axi_s_drv.sv(31) @ 155: uvm_test_top.env_h.s_uvc_h.s_agent_h[0].s_drv_h [ID MATCH] aaaaa
# s seqs arid : 25219
# INIDE_SLAVE_SEQ_CTR=14
# match arid : 6283 , rid : 6283
# UVM_INFO ../env/s_agent/axi_s_drv.sv(31) @ 155: uvm_test_top.env_h.s_uvc_h.s_agent_h[0].s_drv_h [ID MATCH] aaaaa
# rd data in s drv: ffffffff , len : 8 , last:0 , valid : 1
# abc : 1
# ref model mem : 0
# INIDE_SLAVE_MON_CTR=15
# arid in s mon : 47995
# xyz : 1
# xyz : 2
# xyz : 3
# xyz : 4
# xyz : 5
# xyz : 6
# xyz : 7
# xyz : 8
# xyz : 9
# xyz : 10
# xyz : 11
# xyz : 12
# xyz : 13
# xyz : 14
# xyz : 15
# xyz : 16
# xyz : 17
# xyz : 18
# xyz : 19
# xyz : 20
# xyz : 21
# xyz : 22
# xyz : 23
# xyz : 24
# xyz : 25
# xyz : 26
# xyz : 27
# xyz : 28
# xyz : 29
# xyz : 30
# xyz : 31
# xyz : 32
# xyz : 33
# xyz : 34
# xyz : 35
# xyz : 36
# xyz : 37
# xyz : 38
# xyz : 39
# xyz : 40
# xyz : 41
# xyz : 42
# xyz : 43
# xyz : 44
# xyz : 45
# xyz : 46
# xyz : 47
# xyz : 48
# xyz : 49
# xyz : 50
# xyz : 51
# xyz : 52
# xyz : 53
# xyz : 54
# xyz : 55
# xyz : 56
# xyz : 57
# AR ADDR IN SB : 0
# AFFTER W CHANNEL
# m mon ar id : bb7b
# m mon rid : eb2b
# match arid : 0 , rid : 0
# UVM_INFO ../env/s_agent/axi_s_drv.sv(31) @ 165: uvm_test_top.env_h.s_uvc_h.s_agent_h[0].s_drv_h [ID MATCH] aaaaa
# s seqs arid : 47995
# INIDE_SLAVE_SEQ_CTR=15
# match arid : bb7b , rid : bb7b
# UVM_INFO ../env/s_agent/axi_s_drv.sv(31) @ 165: uvm_test_top.env_h.s_uvc_h.s_agent_h[0].s_drv_h [ID MATCH] aaaaa
# rd data in s drv: 55555555 , len : 8 , last:0 , valid : 1
# INIDE_SLAVE_MON_CTR=16
# arid in s mon : 51276
# xyz : 1
# xyz : 2
# xyz : 3
# xyz : 4
# xyz : 5
# xyz : 6
# xyz : 7
# xyz : 8
# xyz : 9
# xyz : 10
# xyz : 11
# xyz : 12
# xyz : 13
# xyz : 14
# xyz : 15
# xyz : 16
# xyz : 17
# xyz : 18
# xyz : 19
# xyz : 20
# xyz : 21
# xyz : 22
# xyz : 23
# xyz : 24
# xyz : 25
# xyz : 26
# xyz : 27
# xyz : 28
# xyz : 29
# xyz : 30
# xyz : 31
# xyz : 32
# xyz : 33
# xyz : 34
# xyz : 35
# xyz : 36
# xyz : 37
# xyz : 38
# xyz : 39
# xyz : 40
# xyz : 41
# xyz : 42
# xyz : 43
# xyz : 44
# xyz : 45
# xyz : 46
# xyz : 47
# xyz : 48
# xyz : 49
# xyz : 50
# xyz : 51
# xyz : 52
# xyz : 53
# xyz : 54
# xyz : 55
# xyz : 56
# xyz : 57
# xyz : 58
# xyz : 59
# xyz : 60
# xyz : 61
# xyz : 62
# xyz : 63
# xyz : 64
# xyz : 65
# xyz : 66
# xyz : 67
# xyz : 68
# xyz : 69
# xyz : 70
# xyz : 71
# xyz : 72
# xyz : 73
# xyz : 74
# xyz : 75
# xyz : 76
# xyz : 77
# xyz : 78
# xyz : 79
# xyz : 80
# xyz : 81
# xyz : 82
# xyz : 83
# xyz : 84
# xyz : 85
# xyz : 86
# xyz : 87
# xyz : 88
# xyz : 89
# xyz : 90
# xyz : 91
# xyz : 92
# xyz : 93
# xyz : 94
# xyz : 95
# xyz : 96
# xyz : 97
# xyz : 98
# xyz : 99
# xyz : 100
# xyz : 101
# xyz : 102
# xyz : 103
# xyz : 104
# xyz : 105
# xyz : 106
# xyz : 107
# xyz : 108
# xyz : 109
# xyz : 110
# xyz : 111
# xyz : 112
# xyz : 113
# xyz : 114
# xyz : 115
# xyz : 116
# xyz : 117
# xyz : 118
# xyz : 119
# xyz : 120
# xyz : 121
# xyz : 122
# xyz : 123
# xyz : 124
# xyz : 125
# xyz : 126
# xyz : 127
# xyz : 128
# xyz : 129
# xyz : 130
# xyz : 131
# xyz : 132
# xyz : 133
# xyz : 134
# xyz : 135
# xyz : 136
# xyz : 137
# xyz : 138
# xyz : 139
# xyz : 140
# xyz : 141
# xyz : 142
# xyz : 143
# xyz : 144
# xyz : 145
# xyz : 146
# xyz : 147
# xyz : 148
# xyz : 149
# xyz : 150
# xyz : 151
# xyz : 152
# xyz : 153
# xyz : 154
# xyz : 155
# xyz : 156
# xyz : 157
# xyz : 158
# xyz : 159
# xyz : 160
# xyz : 161
# xyz : 162
# xyz : 163
# xyz : 164
# xyz : 165
# xyz : 166
# xyz : 167
# xyz : 168
# xyz : 169
# xyz : 170
# xyz : 171
# xyz : 172
# xyz : 173
# xyz : 174
# xyz : 175
# xyz : 176
# xyz : 177
# xyz : 178
# xyz : 179
# xyz : 180
# xyz : 181
# xyz : 182
# xyz : 183
# xyz : 184
# xyz : 185
# xyz : 186
# xyz : 187
# xyz : 188
# xyz : 189
# xyz : 190
# xyz : 191
# xyz : 192
# xyz : 193
# xyz : 194
# xyz : 195
# xyz : 196
# xyz : 197
# xyz : 198
# xyz : 199
# xyz : 200
# xyz : 201
# xyz : 202
# xyz : 203
# xyz : 204
# xyz : 205
# xyz : 206
# xyz : 207
# xyz : 208
# xyz : 209
# xyz : 210
# xyz : 211
# xyz : 212
# xyz : 213
# xyz : 214
# xyz : 215
# xyz : 216
# xyz : 217
# xyz : 218
# xyz : 219
# xyz : 220
# xyz : 221
# xyz : 222
# xyz : 223
# xyz : 224
# xyz : 225
# xyz : 226
# xyz : 227
# xyz : 228
# xyz : 229
# xyz : 230
# xyz : 231
# xyz : 232
# xyz : 233
# xyz : 234
# xyz : 235
# xyz : 236
# xyz : 237
# xyz : 238
# xyz : 239
# xyz : 240
# xyz : 241
# xyz : 242
# xyz : 243
# xyz : 244
# xyz : 245
# AR ADDR IN SB : 0
# m mon rid : eb2b
# m mon ar id : c84c
# req wid : 48924 , bid:48924
# s seqs arid : 51276
# INIDE_SLAVE_SEQ_CTR=16
# UVM_INFO ../env/m_agent/axi_base_m_seqs.sv(26) @ 175: uvm_test_top.env_h.m_uvc_h.m_agent_h[0].m_seqr_h@@vseqs_h.m_wseqs_h [IN V SEQS] Got B-channel response from driver
# match arid : c84c , rid : c84c
# UVM_INFO ../env/s_agent/axi_s_drv.sv(31) @ 175: uvm_test_top.env_h.s_uvc_h.s_agent_h[0].s_drv_h [ID MATCH] aaaaa
# rd data in s drv: fffeffff , len : 8 , last:1 , valid : 1
# abc : 1
# ref model mem : 0
# abc : 2
# ref model mem : 1
# INIDE_SLAVE_MON_CTR=17
# arid in s mon : 44353
# xyz : 1
# xyz : 2
# xyz : 3
# xyz : 4
# xyz : 5
# xyz : 6
# xyz : 7
# xyz : 8
# xyz : 9
# xyz : 10
# xyz : 11
# xyz : 12
# xyz : 13
# xyz : 14
# xyz : 15
# xyz : 16
# xyz : 17
# xyz : 18
# xyz : 19
# xyz : 20
# xyz : 21
# xyz : 22
# xyz : 23
# xyz : 24
# xyz : 25
# xyz : 26
# xyz : 27
# xyz : 28
# xyz : 29
# xyz : 30
# xyz : 31
# xyz : 32
# xyz : 33
# xyz : 34
# xyz : 35
# xyz : 36
# xyz : 37
# xyz : 38
# xyz : 39
# xyz : 40
# xyz : 41
# xyz : 42
# xyz : 43
# xyz : 44
# xyz : 45
# xyz : 46
# xyz : 47
# xyz : 48
# xyz : 49
# xyz : 50
# xyz : 51
# xyz : 52
# xyz : 53
# xyz : 54
# xyz : 55
# AR ADDR IN SB : 0
# AFFTER W CHANNEL
# m mon ar id : ad41
# req kind : READ
# INSIDE BEORE SAMPLE
# ---------------------------------------------------
# Name            Type               Size  Value     
# ---------------------------------------------------
# axi_m_seq_item  uvm_sequence_item  -     @1358     
#   AWID          integral           16    'h0       
#   AWADDR        integral           32    'h0       
#   AWLEN         integral           8     'd0       
#   AWSIZE        integral           3     'd0       
#   AWBURST       integral           2     'd0       
#   WID           integral           16    'h0       
#   WDATA         da(integral)       0     -         
#   WSTRB         da(integral)       0     -         
#   WLAST         integral           1     'd0       
#   BID           integral           16    'h0       
#   BRESP         integral           2     'd0       
#   ARID          integral           16    'heb2b    
#   ARADDR        integral           32    'hffffffff
#   ARLEN         integral           8     'd8       
#   ARSIZE        integral           3     'd3       
#   ARBURST       integral           2     'd0       
#   RID           integral           16    'heb2b    
#   RDATA         da(integral)       9     -         
#     [0]         integral           32    'h0       
#     [1]         integral           32    'hffffffff
#     [2]         integral           32    'hffffffff
#     [3]         integral           32    'hffffffff
#     [4]         integral           32    'h55555555
#     [5]         integral           32    'hffffffff
#     [6]         integral           32    'hffffffff
#     [7]         integral           32    'h55555555
#     [8]         integral           32    'hfffeffff
#   RRESP         integral           2     'd0       
#   RLAST         integral           1     'd0       
#   burst_kind_e  burst_kind         2     FIXED     
#   kind_e        trans_kind         2     READ      
# ---------------------------------------------------
# RDATa IN SB : 0 4294967295 4294967295 4294967295 1431655765 4294967295 4294967295 1431655765 4294901759
# m mon rid : eb2b
# UVM_INFO ../env/axi_sb.sv(82) @ 185: uvm_test_top.env_h.sb_h [after event in sb] aaaa
# UVM_INFO ../env/axi_sb.sv(80) @ 185: uvm_test_top.env_h.sb_h [before event in sb] aaaa
# match arid : 0 , rid : 0
# UVM_INFO ../env/s_agent/axi_s_drv.sv(31) @ 185: uvm_test_top.env_h.s_uvc_h.s_agent_h[0].s_drv_h [ID MATCH] aaaaa
# s seqs arid : 44353
# INIDE_SLAVE_SEQ_CTR=17
# match arid : ad41 , rid : ad41
# UVM_INFO ../env/s_agent/axi_s_drv.sv(31) @ 185: uvm_test_top.env_h.s_uvc_h.s_agent_h[0].s_drv_h [ID MATCH] aaaaa
# rd data in s drv: 0 , len : 0 , last:1 , valid : 1
# INIDE_SLAVE_MON_CTR=18
# arid in s mon : 34273
# xyz : 1
# xyz : 2
# xyz : 3
# xyz : 4
# xyz : 5
# xyz : 6
# xyz : 7
# xyz : 8
# xyz : 9
# xyz : 10
# xyz : 11
# xyz : 12
# xyz : 13
# xyz : 14
# xyz : 15
# xyz : 16
# xyz : 17
# xyz : 18
# xyz : 19
# xyz : 20
# xyz : 21
# xyz : 22
# xyz : 23
# xyz : 24
# xyz : 25
# xyz : 26
# xyz : 27
# xyz : 28
# xyz : 29
# xyz : 30
# xyz : 31
# xyz : 32
# xyz : 33
# xyz : 34
# xyz : 35
# xyz : 36
# xyz : 37
# xyz : 38
# xyz : 39
# xyz : 40
# xyz : 41
# xyz : 42
# xyz : 43
# xyz : 44
# xyz : 45
# xyz : 46
# xyz : 47
# xyz : 48
# xyz : 49
# xyz : 50
# xyz : 51
# xyz : 52
# xyz : 53
# xyz : 54
# xyz : 55
# xyz : 56
# xyz : 57
# xyz : 58
# xyz : 59
# xyz : 60
# xyz : 61
# xyz : 62
# xyz : 63
# xyz : 64
# xyz : 65
# xyz : 66
# xyz : 67
# xyz : 68
# xyz : 69
# xyz : 70
# xyz : 71
# xyz : 72
# xyz : 73
# xyz : 74
# xyz : 75
# xyz : 76
# xyz : 77
# xyz : 78
# xyz : 79
# xyz : 80
# xyz : 81
# xyz : 82
# xyz : 83
# xyz : 84
# xyz : 85
# xyz : 86
# xyz : 87
# xyz : 88
# xyz : 89
# xyz : 90
# xyz : 91
# xyz : 92
# xyz : 93
# xyz : 94
# xyz : 95
# xyz : 96
# xyz : 97
# xyz : 98
# xyz : 99
# xyz : 100
# xyz : 101
# xyz : 102
# xyz : 103
# xyz : 104
# xyz : 105
# xyz : 106
# xyz : 107
# xyz : 108
# xyz : 109
# xyz : 110
# xyz : 111
# xyz : 112
# xyz : 113
# xyz : 114
# xyz : 115
# xyz : 116
# xyz : 117
# xyz : 118
# xyz : 119
# xyz : 120
# xyz : 121
# xyz : 122
# xyz : 123
# xyz : 124
# xyz : 125
# xyz : 126
# xyz : 127
# xyz : 128
# xyz : 129
# xyz : 130
# xyz : 131
# xyz : 132
# xyz : 133
# xyz : 134
# xyz : 135
# xyz : 136
# xyz : 137
# xyz : 138
# xyz : 139
# xyz : 140
# xyz : 141
# xyz : 142
# xyz : 143
# xyz : 144
# xyz : 145
# xyz : 146
# xyz : 147
# xyz : 148
# xyz : 149
# xyz : 150
# xyz : 151
# xyz : 152
# xyz : 153
# xyz : 154
# xyz : 155
# xyz : 156
# xyz : 157
# xyz : 158
# xyz : 159
# xyz : 160
# xyz : 161
# xyz : 162
# xyz : 163
# xyz : 164
# xyz : 165
# xyz : 166
# xyz : 167
# xyz : 168
# xyz : 169
# xyz : 170
# xyz : 171
# xyz : 172
# xyz : 173
# xyz : 174
# xyz : 175
# xyz : 176
# xyz : 177
# xyz : 178
# xyz : 179
# xyz : 180
# xyz : 181
# xyz : 182
# xyz : 183
# xyz : 184
# xyz : 185
# xyz : 186
# xyz : 187
# xyz : 188
# xyz : 189
# AR ADDR IN SB : 0
# req kind : READ
# INSIDE BEORE SAMPLE
# ---------------------------------------------------
# Name            Type               Size  Value     
# ---------------------------------------------------
# axi_m_seq_item  uvm_sequence_item  -     @1410     
#   AWID          integral           16    'h0       
#   AWADDR        integral           32    'h0       
#   AWLEN         integral           8     'd0       
#   AWSIZE        integral           3     'd0       
#   AWBURST       integral           2     'd0       
#   WID           integral           16    'h0       
#   WDATA         da(integral)       0     -         
#   WSTRB         da(integral)       0     -         
#   WLAST         integral           1     'd0       
#   BID           integral           16    'h0       
#   BRESP         integral           2     'd0       
#   ARID          integral           16    'he9d3    
#   ARADDR        integral           32    'hffffffff
#   ARLEN         integral           8     'd0       
#   ARSIZE        integral           3     'd3       
#   ARBURST       integral           2     'd0       
#   RID           integral           16    'he9d3    
#   RDATA         da(integral)       1     -         
#     [0]         integral           32    'h0       
#   RRESP         integral           2     'd0       
#   RLAST         integral           1     'd0       
#   burst_kind_e  burst_kind         2     FIXED     
#   kind_e        trans_kind         2     READ      
# ---------------------------------------------------
# RDATa IN SB : 0
# m mon rid : e9d3
# m mon ar id : 85e1
# req wid : 11091 , bid:11091
# s seqs arid : 34273
# INIDE_SLAVE_SEQ_CTR=18
# UVM_INFO ../env/m_agent/axi_base_m_seqs.sv(26) @ 195: uvm_test_top.env_h.m_uvc_h.m_agent_h[0].m_seqr_h@@vseqs_h.m_wseqs_h [IN V SEQS] Got B-channel response from driver
# UVM_INFO ../env/axi_sb.sv(82) @ 195: uvm_test_top.env_h.sb_h [after event in sb] aaaa
# UVM_INFO ../env/axi_sb.sv(80) @ 195: uvm_test_top.env_h.sb_h [before event in sb] aaaa
# match arid : 85e1 , rid : 85e1
# UVM_INFO ../env/s_agent/axi_s_drv.sv(31) @ 195: uvm_test_top.env_h.s_uvc_h.s_agent_h[0].s_drv_h [ID MATCH] aaaaa
# rd data in s drv: 0 , len : 120 , last:0 , valid : 1
# INIDE_SLAVE_MON_CTR=19
# arid in s mon : 40878
# xyz : 1
# xyz : 2
# xyz : 3
# xyz : 4
# xyz : 5
# xyz : 6
# xyz : 7
# xyz : 8
# xyz : 9
# ** Warning: (vsim-3829) Non-existent associative array entry. Returning default value.
#    Time: 205 ns  Iteration: 2  Process: /axi_s_agent_pkg::axi_s_mon #(32, 32)::monitor/#FORK#35_7fefec46530 File: ../env/axi_ref_model.sv Line: 79
# xyz : 10
# ** Warning: (vsim-3829) Non-existent associative array entry. Returning default value.
#    Time: 205 ns  Iteration: 2  Process: /axi_s_agent_pkg::axi_s_mon #(32, 32)::monitor/#FORK#35_7fefec46530 File: ../env/axi_ref_model.sv Line: 79
# xyz : 11
# AR ADDR IN SB : ffffffff
# m mon ar id : 9fae
# m mon rid : f054
# ** Warning: (vsim-3829) Non-existent associative array entry. Returning default value.
#    Time: 205 ns  Iteration: 3  Process: /uvm_pkg::uvm_sequence_base::start/#FORK#294_7fefec26ef1 File: ../env/s_agent/axi_base_s_seqs.sv Line: 103
# ** Warning: (vsim-3829) Non-existent associative array entry. Returning default value.
#    Time: 205 ns  Iteration: 3  Process: /uvm_pkg::uvm_sequence_base::start/#FORK#294_7fefec26ef1 File: ../env/s_agent/axi_base_s_seqs.sv Line: 103
# s seqs arid : 40878
# INIDE_SLAVE_SEQ_CTR=19
# match arid : 9fae , rid : 9fae
# UVM_INFO ../env/s_agent/axi_s_drv.sv(31) @ 205: uvm_test_top.env_h.s_uvc_h.s_agent_h[0].s_drv_h [ID MATCH] aaaaa
# rd data in s drv: 0 , len : 120 , last:0 , valid : 1
# INIDE_SLAVE_MON_CTR=20
# arid in s mon : 65033
# xyz : 1
# xyz : 2
# xyz : 3
# xyz : 4
# xyz : 5
# xyz : 6
# xyz : 7
# xyz : 8
# xyz : 9
# ** Warning: (vsim-3829) Non-existent associative array entry. Returning default value.
#    Time: 215 ns  Iteration: 2  Process: /axi_s_agent_pkg::axi_s_mon #(32, 32)::monitor/#FORK#35_7fefec46530 File: ../env/axi_ref_model.sv Line: 79
# xyz : 10
# ** Warning: (vsim-3829) Non-existent associative array entry. Returning default value.
#    Time: 215 ns  Iteration: 2  Process: /axi_s_agent_pkg::axi_s_mon #(32, 32)::monitor/#FORK#35_7fefec46530 File: ../env/axi_ref_model.sv Line: 79
# xyz : 11
# ** Warning: (vsim-3829) Non-existent associative array entry. Returning default value.
#    Time: 215 ns  Iteration: 2  Process: /axi_s_agent_pkg::axi_s_mon #(32, 32)::monitor/#FORK#35_7fefec46530 File: ../env/axi_ref_model.sv Line: 79
# xyz : 12
# ** Warning: (vsim-3829) Non-existent associative array entry. Returning default value.
#    Time: 215 ns  Iteration: 2  Process: /axi_s_agent_pkg::axi_s_mon #(32, 32)::monitor/#FORK#35_7fefec46530 File: ../env/axi_ref_model.sv Line: 79
# xyz : 13
# ** Warning: (vsim-3829) Non-existent associative array entry. Returning default value.
#    Time: 215 ns  Iteration: 2  Process: /axi_s_agent_pkg::axi_s_mon #(32, 32)::monitor/#FORK#35_7fefec46530 File: ../env/axi_ref_model.sv Line: 79
# xyz : 14
# ** Warning: (vsim-3829) Non-existent associative array entry. Returning default value.
#    Time: 215 ns  Iteration: 2  Process: /axi_s_agent_pkg::axi_s_mon #(32, 32)::monitor/#FORK#35_7fefec46530 File: ../env/axi_ref_model.sv Line: 79
# xyz : 15
# AR ADDR IN SB : ffffffff
# m mon rid : f054
# m mon ar id : fe09
# req wid : 42546 , bid:42546
# ** Warning: (vsim-3829) Non-existent associative array entry. Returning default value.
#    Time: 215 ns  Iteration: 3  Process: /uvm_pkg::uvm_sequence_base::start/#FORK#294_7fefec26ef1 File: ../env/s_agent/axi_base_s_seqs.sv Line: 103
# ** Warning: (vsim-3829) Non-existent associative array entry. Returning default value.
#    Time: 215 ns  Iteration: 3  Process: /uvm_pkg::uvm_sequence_base::start/#FORK#294_7fefec26ef1 File: ../env/s_agent/axi_base_s_seqs.sv Line: 103
# ** Warning: (vsim-3829) Non-existent associative array entry. Returning default value.
#    Time: 215 ns  Iteration: 3  Process: /uvm_pkg::uvm_sequence_base::start/#FORK#294_7fefec26ef1 File: ../env/s_agent/axi_base_s_seqs.sv Line: 103
# ** Warning: (vsim-3829) Non-existent associative array entry. Returning default value.
#    Time: 215 ns  Iteration: 3  Process: /uvm_pkg::uvm_sequence_base::start/#FORK#294_7fefec26ef1 File: ../env/s_agent/axi_base_s_seqs.sv Line: 103
# ** Warning: (vsim-3829) Non-existent associative array entry. Returning default value.
#    Time: 215 ns  Iteration: 3  Process: /uvm_pkg::uvm_sequence_base::start/#FORK#294_7fefec26ef1 File: ../env/s_agent/axi_base_s_seqs.sv Line: 103
# ** Warning: (vsim-3829) Non-existent associative array entry. Returning default value.
#    Time: 215 ns  Iteration: 3  Process: /uvm_pkg::uvm_sequence_base::start/#FORK#294_7fefec26ef1 File: ../env/s_agent/axi_base_s_seqs.sv Line: 103
# s seqs arid : 65033
# INIDE_SLAVE_SEQ_CTR=20
# UVM_INFO ../env/m_agent/axi_base_m_seqs.sv(26) @ 215: uvm_test_top.env_h.m_uvc_h.m_agent_h[0].m_seqr_h@@vseqs_h.m_wseqs_h [IN V SEQS] Got B-channel response from driver
# match arid : fe09 , rid : fe09
# UVM_INFO ../env/s_agent/axi_s_drv.sv(31) @ 215: uvm_test_top.env_h.s_uvc_h.s_agent_h[0].s_drv_h [ID MATCH] aaaaa
# rd data in s drv: 0 , len : 120 , last:0 , valid : 1
# m mon rid : f054
# rd data in s drv: 0 , len : 120 , last:0 , valid : 1
# m mon rid : f054
# rd data in s drv: 0 , len : 120 , last:0 , valid : 1
# m mon rid : f054
# rd data in s drv: 0 , len : 120 , last:0 , valid : 1
# m mon rid : f054
# rd data in s drv: 0 , len : 120 , last:0 , valid : 1
# m mon rid : f054
# rd data in s drv: 0 , len : 120 , last:0 , valid : 1
# m mon rid : f054
# rd data in s drv: 0 , len : 120 , last:0 , valid : 1
# m mon rid : f054
# rd data in s drv: 0 , len : 120 , last:0 , valid : 1
# m mon rid : f054
# rd data in s drv: 0 , len : 120 , last:0 , valid : 1
# m mon rid : f054
# rd data in s drv: 0 , len : 120 , last:0 , valid : 1
# m mon rid : f054
# rd data in s drv: 0 , len : 120 , last:0 , valid : 1
# m mon rid : f054
# rd data in s drv: 0 , len : 120 , last:0 , valid : 1
# m mon rid : f054
# rd data in s drv: 0 , len : 120 , last:0 , valid : 1
# m mon rid : f054
# rd data in s drv: 0 , len : 120 , last:0 , valid : 1
# m mon rid : f054
# rd data in s drv: 0 , len : 120 , last:0 , valid : 1
# m mon rid : f054
# rd data in s drv: 0 , len : 120 , last:0 , valid : 1
# m mon rid : f054
# rd data in s drv: 0 , len : 120 , last:0 , valid : 1
# m mon rid : f054
# rd data in s drv: 0 , len : 120 , last:0 , valid : 1
# m mon rid : f054
# rd data in s drv: 0 , len : 120 , last:0 , valid : 1
# m mon rid : f054
# rd data in s drv: 0 , len : 120 , last:0 , valid : 1
# m mon rid : f054
# rd data in s drv: 0 , len : 120 , last:0 , valid : 1
# m mon rid : f054
# rd data in s drv: 0 , len : 120 , last:0 , valid : 1
# m mon rid : f054
# rd data in s drv: 0 , len : 120 , last:0 , valid : 1
# m mon rid : f054
# rd data in s drv: 0 , len : 120 , last:0 , valid : 1
# m mon rid : f054
# rd data in s drv: 0 , len : 120 , last:0 , valid : 1
# m mon rid : f054
# rd data in s drv: 0 , len : 120 , last:0 , valid : 1
# m mon rid : f054
# rd data in s drv: 0 , len : 120 , last:0 , valid : 1
# m mon rid : f054
# rd data in s drv: 0 , len : 120 , last:0 , valid : 1
# m mon rid : f054
# rd data in s drv: 0 , len : 120 , last:0 , valid : 1
# m mon rid : f054
# rd data in s drv: 0 , len : 120 , last:0 , valid : 1
# m mon rid : f054
# rd data in s drv: 0 , len : 120 , last:0 , valid : 1
# m mon rid : f054
# rd data in s drv: 0 , len : 120 , last:0 , valid : 1
# m mon rid : f054
# rd data in s drv: 0 , len : 120 , last:0 , valid : 1
# m mon rid : f054
# rd data in s drv: 0 , len : 120 , last:0 , valid : 1
# m mon rid : f054
# rd data in s drv: 0 , len : 120 , last:0 , valid : 1
# m mon rid : f054
# rd data in s drv: 0 , len : 120 , last:0 , valid : 1
# m mon rid : f054
# rd data in s drv: 0 , len : 120 , last:0 , valid : 1
# m mon rid : f054
# rd data in s drv: 0 , len : 120 , last:0 , valid : 1
# m mon rid : f054
# rd data in s drv: 0 , len : 120 , last:0 , valid : 1
# m mon rid : f054
# rd data in s drv: 0 , len : 120 , last:0 , valid : 1
# m mon rid : f054
# rd data in s drv: 0 , len : 120 , last:0 , valid : 1
# m mon rid : f054
# rd data in s drv: 0 , len : 120 , last:0 , valid : 1
# m mon rid : f054
# rd data in s drv: 0 , len : 120 , last:0 , valid : 1
# m mon rid : f054
# rd data in s drv: 0 , len : 120 , last:0 , valid : 1
# m mon rid : f054
# rd data in s drv: 0 , len : 120 , last:0 , valid : 1
# m mon rid : f054
# rd data in s drv: 0 , len : 120 , last:0 , valid : 1
# m mon rid : f054
# rd data in s drv: 0 , len : 120 , last:0 , valid : 1
# m mon rid : f054
# rd data in s drv: 0 , len : 120 , last:0 , valid : 1
# m mon rid : f054
# rd data in s drv: 0 , len : 120 , last:0 , valid : 1
# m mon rid : f054
# rd data in s drv: 0 , len : 120 , last:0 , valid : 1
# m mon rid : f054
# rd data in s drv: 0 , len : 120 , last:0 , valid : 1
# m mon rid : f054
# rd data in s drv: 0 , len : 120 , last:0 , valid : 1
# m mon rid : f054
# rd data in s drv: 0 , len : 120 , last:0 , valid : 1
# m mon rid : f054
# rd data in s drv: 0 , len : 120 , last:0 , valid : 1
# m mon rid : f054
# rd data in s drv: 0 , len : 120 , last:0 , valid : 1
# m mon rid : f054
# rd data in s drv: 0 , len : 120 , last:0 , valid : 1
# m mon rid : f054
# rd data in s drv: 0 , len : 120 , last:0 , valid : 1
# m mon rid : f054
# rd data in s drv: 0 , len : 120 , last:0 , valid : 1
# m mon rid : f054
# rd data in s drv: 0 , len : 120 , last:0 , valid : 1
# m mon rid : f054
# rd data in s drv: 0 , len : 120 , last:0 , valid : 1
# m mon rid : f054
# rd data in s drv: 0 , len : 120 , last:0 , valid : 1
# m mon rid : f054
# rd data in s drv: 0 , len : 120 , last:0 , valid : 1
# m mon rid : f054
# rd data in s drv: 0 , len : 120 , last:0 , valid : 1
# m mon rid : f054
# rd data in s drv: 0 , len : 120 , last:0 , valid : 1
# m mon rid : f054
# rd data in s drv: 0 , len : 120 , last:0 , valid : 1
# m mon rid : f054
# rd data in s drv: 0 , len : 120 , last:0 , valid : 1
# m mon rid : f054
# rd data in s drv: 0 , len : 120 , last:0 , valid : 1
# m mon rid : f054
# rd data in s drv: 0 , len : 120 , last:0 , valid : 1
# m mon rid : f054
# rd data in s drv: 0 , len : 120 , last:0 , valid : 1
# m mon rid : f054
# rd data in s drv: 0 , len : 120 , last:0 , valid : 1
# m mon rid : f054
# rd data in s drv: 0 , len : 120 , last:0 , valid : 1
# m mon rid : f054
# rd data in s drv: 0 , len : 120 , last:0 , valid : 1
# m mon rid : f054
# rd data in s drv: 0 , len : 120 , last:0 , valid : 1
# m mon rid : f054
# rd data in s drv: 0 , len : 120 , last:0 , valid : 1
# m mon rid : f054
# rd data in s drv: 0 , len : 120 , last:0 , valid : 1
# m mon rid : f054
# rd data in s drv: 0 , len : 120 , last:0 , valid : 1
# m mon rid : f054
# rd data in s drv: 0 , len : 120 , last:0 , valid : 1
# m mon rid : f054
# rd data in s drv: 0 , len : 120 , last:0 , valid : 1
# m mon rid : f054
# rd data in s drv: 0 , len : 120 , last:0 , valid : 1
# m mon rid : f054
# rd data in s drv: 0 , len : 120 , last:0 , valid : 1
# m mon rid : f054
# rd data in s drv: 0 , len : 120 , last:0 , valid : 1
# m mon rid : f054
# rd data in s drv: 0 , len : 120 , last:0 , valid : 1
# m mon rid : f054
# rd data in s drv: 0 , len : 120 , last:0 , valid : 1
# m mon rid : f054
# rd data in s drv: 0 , len : 120 , last:0 , valid : 1
# m mon rid : f054
# rd data in s drv: 0 , len : 120 , last:0 , valid : 1
# m mon rid : f054
# rd data in s drv: 0 , len : 120 , last:0 , valid : 1
# m mon rid : f054
# rd data in s drv: 0 , len : 120 , last:0 , valid : 1
# m mon rid : f054
# rd data in s drv: 0 , len : 120 , last:0 , valid : 1
# m mon rid : f054
# rd data in s drv: 0 , len : 120 , last:0 , valid : 1
# m mon rid : f054
# rd data in s drv: 0 , len : 120 , last:0 , valid : 1
# m mon rid : f054
# rd data in s drv: 0 , len : 120 , last:0 , valid : 1
# m mon rid : f054
# rd data in s drv: 0 , len : 120 , last:0 , valid : 1
# m mon rid : f054
# rd data in s drv: 0 , len : 120 , last:0 , valid : 1
# m mon rid : f054
# rd data in s drv: 0 , len : 120 , last:0 , valid : 1
# m mon rid : f054
# rd data in s drv: 0 , len : 120 , last:0 , valid : 1
# m mon rid : f054
# rd data in s drv: 0 , len : 120 , last:0 , valid : 1
# m mon rid : f054
# rd data in s drv: 0 , len : 120 , last:0 , valid : 1
# m mon rid : f054
# rd data in s drv: 0 , len : 120 , last:0 , valid : 1
# m mon rid : f054
# rd data in s drv: 0 , len : 120 , last:0 , valid : 1
# m mon rid : f054
# rd data in s drv: 0 , len : 120 , last:0 , valid : 1
# m mon rid : f054
# rd data in s drv: 0 , len : 120 , last:0 , valid : 1
# m mon rid : f054
# rd data in s drv: 0 , len : 120 , last:0 , valid : 1
# m mon rid : f054
# rd data in s drv: 0 , len : 120 , last:0 , valid : 1
# m mon rid : f054
# rd data in s drv: 0 , len : 120 , last:0 , valid : 1
# m mon rid : f054
# rd data in s drv: 0 , len : 120 , last:0 , valid : 1
# m mon rid : f054
# rd data in s drv: 0 , len : 120 , last:0 , valid : 1
# m mon rid : f054
# rd data in s drv: 0 , len : 120 , last:0 , valid : 1
# m mon rid : f054
# rd data in s drv: 0 , len : 120 , last:0 , valid : 1
# m mon rid : f054
# rd data in s drv: 0 , len : 120 , last:0 , valid : 1
# m mon rid : f054
# rd data in s drv: 0 , len : 120 , last:0 , valid : 1
# m mon rid : f054
# rd data in s drv: 0 , len : 120 , last:0 , valid : 1
# m mon rid : f054
# rd data in s drv: 0 , len : 120 , last:0 , valid : 1
# m mon rid : f054
# rd data in s drv: 0 , len : 120 , last:0 , valid : 1
# m mon rid : f054
# rd data in s drv: 0 , len : 120 , last:0 , valid : 1
# m mon rid : f054
# rd data in s drv: 0 , len : 120 , last:0 , valid : 1
# m mon rid : f054
# rd data in s drv: 0 , len : 120 , last:0 , valid : 1
# m mon rid : f054
# rd data in s drv: 0 , len : 120 , last:0 , valid : 1
# m mon rid : f054
# rd data in s drv: 0 , len : 120 , last:0 , valid : 1
# abc : 1
# ref model mem : 8
# abc : 2
# ref model mem : 16
# abc : 3
# ref model mem : 24
# abc : 4
# ref model mem : 32
# abc : 5
# ref model mem : 40
# abc : 6
# ref model mem : 48
# abc : 7
# ref model mem : 56
# abc : 8
# ref model mem : 64
# abc : 9
# ref model mem : 72
# abc : 10
# ref model mem : 80
# abc : 11
# ref model mem : 88
# abc : 12
# ref model mem : 96
# abc : 13
# ref model mem : 104
# abc : 14
# ref model mem : 112
# abc : 15
# ref model mem : 120
# abc : 16
# ref model mem : 128
# abc : 17
# ref model mem : 136
# abc : 18
# ref model mem : 144
# abc : 19
# ref model mem : 152
# abc : 20
# ref model mem : 160
# abc : 21
# ref model mem : 168
# abc : 22
# ref model mem : 176
# abc : 23
# ref model mem : 184
# abc : 24
# ref model mem : 192
# abc : 25
# ref model mem : 200
# abc : 26
# ref model mem : 208
# abc : 27
# ref model mem : 216
# abc : 28
# ref model mem : 224
# abc : 29
# ref model mem : 232
# abc : 30
# ref model mem : 240
# abc : 31
# ref model mem : 248
# abc : 32
# ref model mem : 256
# abc : 33
# ref model mem : 264
# abc : 34
# ref model mem : 272
# abc : 35
# ref model mem : 280
# abc : 36
# ref model mem : 288
# abc : 37
# ref model mem : 296
# abc : 38
# ref model mem : 304
# abc : 39
# ref model mem : 312
# abc : 40
# ref model mem : 320
# abc : 41
# ref model mem : 328
# abc : 42
# ref model mem : 336
# abc : 43
# ref model mem : 344
# abc : 44
# ref model mem : 352
# abc : 45
# ref model mem : 360
# abc : 46
# ref model mem : 368
# abc : 47
# ref model mem : 376
# abc : 48
# ref model mem : 384
# abc : 49
# ref model mem : 392
# abc : 50
# ref model mem : 400
# abc : 51
# ref model mem : 408
# abc : 52
# ref model mem : 416
# abc : 53
# ref model mem : 424
# abc : 54
# ref model mem : 432
# abc : 55
# ref model mem : 440
# abc : 56
# ref model mem : 448
# abc : 57
# ref model mem : 456
# abc : 58
# ref model mem : 464
# abc : 59
# ref model mem : 472
# abc : 60
# ref model mem : 480
# abc : 61
# ref model mem : 488
# abc : 62
# ref model mem : 496
# abc : 63
# ref model mem : 504
# abc : 64
# ref model mem : 512
# abc : 65
# ref model mem : 520
# abc : 66
# ref model mem : 528
# abc : 67
# ref model mem : 536
# abc : 68
# ref model mem : 544
# abc : 69
# ref model mem : 552
# abc : 70
# ref model mem : 560
# abc : 71
# ref model mem : 568
# abc : 72
# ref model mem : 576
# abc : 73
# ref model mem : 584
# abc : 74
# ref model mem : 592
# abc : 75
# ref model mem : 600
# abc : 76
# ref model mem : 608
# abc : 77
# ref model mem : 616
# abc : 78
# ref model mem : 624
# abc : 79
# ref model mem : 632
# abc : 80
# ref model mem : 640
# abc : 81
# ref model mem : 648
# abc : 82
# ref model mem : 656
# abc : 83
# ref model mem : 664
# abc : 84
# ref model mem : 672
# abc : 85
# ref model mem : 680
# abc : 86
# ref model mem : 688
# abc : 87
# ref model mem : 696
# abc : 88
# ref model mem : 704
# abc : 89
# ref model mem : 712
# abc : 90
# ref model mem : 720
# abc : 91
# ref model mem : 728
# abc : 92
# ref model mem : 736
# abc : 93
# ref model mem : 744
# abc : 94
# ref model mem : 752
# abc : 95
# ref model mem : 760
# abc : 96
# ref model mem : 768
# abc : 97
# ref model mem : 776
# abc : 98
# ref model mem : 784
# abc : 99
# ref model mem : 792
# abc : 100
# ref model mem : 800
# abc : 101
# ref model mem : 808
# abc : 102
# ref model mem : 816
# abc : 103
# ref model mem : 824
# abc : 104
# ref model mem : 832
# abc : 105
# ref model mem : 840
# abc : 106
# ref model mem : 848
# abc : 107
# ref model mem : 856
# abc : 108
# ref model mem : 864
# abc : 109
# ref model mem : 872
# abc : 110
# ref model mem : 880
# abc : 111
# ref model mem : 888
# abc : 112
# ref model mem : 896
# abc : 113
# ref model mem : 904
# abc : 114
# ref model mem : 912
# abc : 115
# ref model mem : 920
# abc : 116
# ref model mem : 928
# abc : 117
# ref model mem : 936
# abc : 118
# ref model mem : 944
# abc : 119
# ref model mem : 952
# abc : 120
# ref model mem : 960
# abc : 121
# ref model mem : 968
# AFFTER W CHANNEL
# m mon rid : f054
# match arid : 0 , rid : 0
# UVM_INFO ../env/s_agent/axi_s_drv.sv(31) @ 1395: uvm_test_top.env_h.s_uvc_h.s_agent_h[0].s_drv_h [ID MATCH] aaaaa
# rd data in s drv: 0 , len : 120 , last:1 , valid : 1
# req kind : READ
# INSIDE BEORE SAMPLE
# -----------------------------------------------
# Name            Type               Size  Value 
# -----------------------------------------------
# axi_m_seq_item  uvm_sequence_item  -     @1478 
#   AWID          integral           16    'h0   
#   AWADDR        integral           32    'h0   
#   AWLEN         integral           8     'd0   
#   AWSIZE        integral           3     'd0   
#   AWBURST       integral           2     'd0   
#   WID           integral           16    'h0   
#   WDATA         da(integral)       0     -     
#   WSTRB         da(integral)       0     -     
#   WLAST         integral           1     'd0   
#   BID           integral           16    'h0   
#   BRESP         integral           2     'd0   
#   ARID          integral           16    'hf054
#   ARADDR        integral           32    'h0   
#   ARLEN         integral           8     'd120 
#   ARSIZE        integral           3     'd3   
#   ARBURST       integral           2     'd1   
#   RID           integral           16    'hf054
#   RDATA         da(integral)       121   -     
#     [0]         integral           32    'h0   
#     [1]         integral           32    'h0   
#     [2]         integral           32    'h0   
#     [3]         integral           32    'h0   
#     [4]         integral           32    'h0   
#     ...         ...                ...   ...   
#     [116]       integral           32    'h0   
#     [117]       integral           32    'h0   
#     [118]       integral           32    'h0   
#     [119]       integral           32    'h0   
#     [120]       integral           32    'h0   
#   RRESP         integral           2     'd0   
#   RLAST         integral           1     'd0   
#   burst_kind_e  burst_kind         2     FIXED 
#   kind_e        trans_kind         2     READ  
# -----------------------------------------------
# RDATa IN SB : 0 0 0 0 0 0 0 0 0 0 0 0 0 0 0 0 0 0 0 0 0 0 0 0 0 0 0 0 0 0 0 0 0 0 0 0 0 0 0 0 0 0 0 0 0 0 0 0 0 0 0 0 0 0 0 0 0 0 0 0 0 0 0 0 0 0 0 0 0 0 0 0 0 0 0 0 0 0 0 0 0 0 0 0 0 0 0 0 0 0 0 0 0 0 0 0 0 0 0 0 0 0 0 0 0 0 0 0 0 0 0 0 0 0 0 0 0 0 0 0 0
# m mon rid : f054
# UVM_INFO ../env/axi_sb.sv(82) @ 1405: uvm_test_top.env_h.sb_h [after event in sb] aaaa
# UVM_INFO ../env/axi_sb.sv(80) @ 1405: uvm_test_top.env_h.sb_h [before event in sb] aaaa
# rd data in s drv: 0 , len : 74 , last:0 , valid : 1
# m mon rid : 5755
# req wid : 32817 , bid:32817
# UVM_INFO ../env/m_agent/axi_base_m_seqs.sv(26) @ 1415: uvm_test_top.env_h.m_uvc_h.m_agent_h[0].m_seqr_h@@vseqs_h.m_wseqs_h [IN V SEQS] Got B-channel response from driver
# rd data in s drv: 0 , len : 74 , last:0 , valid : 1
# m mon rid : 5755
# rd data in s drv: 0 , len : 74 , last:0 , valid : 1
# m mon rid : 5755
# rd data in s drv: 0 , len : 74 , last:0 , valid : 1
# m mon rid : 5755
# rd data in s drv: 0 , len : 74 , last:0 , valid : 1
# m mon rid : 5755
# rd data in s drv: 0 , len : 74 , last:0 , valid : 1
# m mon rid : 5755
# rd data in s drv: 0 , len : 74 , last:0 , valid : 1
# m mon rid : 5755
# rd data in s drv: 0 , len : 74 , last:0 , valid : 1
# m mon rid : 5755
# rd data in s drv: 0 , len : 74 , last:0 , valid : 1
# m mon rid : 5755
# rd data in s drv: 0 , len : 74 , last:0 , valid : 1
# m mon rid : 5755
# rd data in s drv: 0 , len : 74 , last:0 , valid : 1
# m mon rid : 5755
# rd data in s drv: 0 , len : 74 , last:0 , valid : 1
# m mon rid : 5755
# rd data in s drv: 0 , len : 74 , last:0 , valid : 1
# m mon rid : 5755
# rd data in s drv: 0 , len : 74 , last:0 , valid : 1
# m mon rid : 5755
# rd data in s drv: 0 , len : 74 , last:0 , valid : 1
# m mon rid : 5755
# rd data in s drv: 0 , len : 74 , last:0 , valid : 1
# m mon rid : 5755
# rd data in s drv: 0 , len : 74 , last:0 , valid : 1
# m mon rid : 5755
# rd data in s drv: 0 , len : 74 , last:0 , valid : 1
# m mon rid : 5755
# rd data in s drv: 0 , len : 74 , last:0 , valid : 1
# m mon rid : 5755
# rd data in s drv: 0 , len : 74 , last:0 , valid : 1
# m mon rid : 5755
# rd data in s drv: 0 , len : 74 , last:0 , valid : 1
# m mon rid : 5755
# rd data in s drv: 0 , len : 74 , last:0 , valid : 1
# m mon rid : 5755
# rd data in s drv: 0 , len : 74 , last:0 , valid : 1
# m mon rid : 5755
# rd data in s drv: 0 , len : 74 , last:0 , valid : 1
# m mon rid : 5755
# rd data in s drv: 0 , len : 74 , last:0 , valid : 1
# m mon rid : 5755
# rd data in s drv: 0 , len : 74 , last:0 , valid : 1
# m mon rid : 5755
# rd data in s drv: 0 , len : 74 , last:0 , valid : 1
# m mon rid : 5755
# rd data in s drv: 0 , len : 74 , last:0 , valid : 1
# m mon rid : 5755
# rd data in s drv: 0 , len : 74 , last:0 , valid : 1
# m mon rid : 5755
# rd data in s drv: 0 , len : 74 , last:0 , valid : 1
# m mon rid : 5755
# rd data in s drv: 0 , len : 74 , last:0 , valid : 1
# m mon rid : 5755
# rd data in s drv: 0 , len : 74 , last:0 , valid : 1
# m mon rid : 5755
# rd data in s drv: 0 , len : 74 , last:0 , valid : 1
# m mon rid : 5755
# rd data in s drv: 0 , len : 74 , last:0 , valid : 1
# m mon rid : 5755
# rd data in s drv: 0 , len : 74 , last:0 , valid : 1
# m mon rid : 5755
# rd data in s drv: 0 , len : 74 , last:0 , valid : 1
# m mon rid : 5755
# rd data in s drv: 0 , len : 74 , last:0 , valid : 1
# m mon rid : 5755
# rd data in s drv: 0 , len : 74 , last:0 , valid : 1
# m mon rid : 5755
# rd data in s drv: 0 , len : 74 , last:0 , valid : 1
# m mon rid : 5755
# rd data in s drv: 0 , len : 74 , last:0 , valid : 1
# m mon rid : 5755
# rd data in s drv: 0 , len : 74 , last:0 , valid : 1
# m mon rid : 5755
# rd data in s drv: 0 , len : 74 , last:0 , valid : 1
# m mon rid : 5755
# rd data in s drv: 0 , len : 74 , last:0 , valid : 1
# m mon rid : 5755
# rd data in s drv: 0 , len : 74 , last:0 , valid : 1
# m mon rid : 5755
# rd data in s drv: 0 , len : 74 , last:0 , valid : 1
# m mon rid : 5755
# rd data in s drv: 0 , len : 74 , last:0 , valid : 1
# m mon rid : 5755
# rd data in s drv: 0 , len : 74 , last:0 , valid : 1
# m mon rid : 5755
# rd data in s drv: 0 , len : 74 , last:0 , valid : 1
# m mon rid : 5755
# rd data in s drv: 0 , len : 74 , last:0 , valid : 1
# m mon rid : 5755
# rd data in s drv: 0 , len : 74 , last:0 , valid : 1
# m mon rid : 5755
# rd data in s drv: 0 , len : 74 , last:0 , valid : 1
# m mon rid : 5755
# rd data in s drv: 0 , len : 74 , last:0 , valid : 1
# m mon rid : 5755
# rd data in s drv: 0 , len : 74 , last:0 , valid : 1
# m mon rid : 5755
# rd data in s drv: 0 , len : 74 , last:0 , valid : 1
# m mon rid : 5755
# rd data in s drv: 0 , len : 74 , last:0 , valid : 1
# m mon rid : 5755
# rd data in s drv: 0 , len : 74 , last:0 , valid : 1
# m mon rid : 5755
# rd data in s drv: 0 , len : 74 , last:0 , valid : 1
# m mon rid : 5755
# rd data in s drv: 0 , len : 74 , last:0 , valid : 1
# m mon rid : 5755
# rd data in s drv: 0 , len : 74 , last:0 , valid : 1
# m mon rid : 5755
# rd data in s drv: 0 , len : 74 , last:0 , valid : 1
# m mon rid : 5755
# rd data in s drv: 0 , len : 74 , last:0 , valid : 1
# m mon rid : 5755
# rd data in s drv: 0 , len : 74 , last:0 , valid : 1
# m mon rid : 5755
# rd data in s drv: 0 , len : 74 , last:0 , valid : 1
# m mon rid : 5755
# rd data in s drv: 0 , len : 74 , last:0 , valid : 1
# m mon rid : 5755
# rd data in s drv: 0 , len : 74 , last:0 , valid : 1
# m mon rid : 5755
# rd data in s drv: 0 , len : 74 , last:0 , valid : 1
# m mon rid : 5755
# rd data in s drv: 0 , len : 74 , last:0 , valid : 1
# m mon rid : 5755
# rd data in s drv: 0 , len : 74 , last:0 , valid : 1
# m mon rid : 5755
# rd data in s drv: 0 , len : 74 , last:0 , valid : 1
# m mon rid : 5755
# rd data in s drv: 0 , len : 74 , last:0 , valid : 1
# m mon rid : 5755
# rd data in s drv: 0 , len : 74 , last:0 , valid : 1
# m mon rid : 5755
# rd data in s drv: 0 , len : 74 , last:0 , valid : 1
# m mon rid : 5755
# rd data in s drv: 0 , len : 74 , last:0 , valid : 1
# m mon rid : 5755
# rd data in s drv: 0 , len : 74 , last:0 , valid : 1
# m mon rid : 5755
# rd data in s drv: 0 , len : 74 , last:1 , valid : 1
# req kind : READ
# INSIDE BEORE SAMPLE
# -----------------------------------------------
# Name            Type               Size  Value 
# -----------------------------------------------
# axi_m_seq_item  uvm_sequence_item  -     @1562 
#   AWID          integral           16    'h0   
#   AWADDR        integral           32    'h0   
#   AWLEN         integral           8     'd0   
#   AWSIZE        integral           3     'd0   
#   AWBURST       integral           2     'd0   
#   WID           integral           16    'h0   
#   WDATA         da(integral)       0     -     
#   WSTRB         da(integral)       0     -     
#   WLAST         integral           1     'd0   
#   BID           integral           16    'h0   
#   BRESP         integral           2     'd0   
#   ARID          integral           16    'h5755
#   ARADDR        integral           32    'h0   
#   ARLEN         integral           8     'd74  
#   ARSIZE        integral           3     'd3   
#   ARBURST       integral           2     'd1   
#   RID           integral           16    'h5755
#   RDATA         da(integral)       75    -     
#     [0]         integral           32    'h0   
#     [1]         integral           32    'h0   
#     [2]         integral           32    'h0   
#     [3]         integral           32    'h0   
#     [4]         integral           32    'h0   
#     ...         ...                ...   ...   
#     [70]        integral           32    'h0   
#     [71]        integral           32    'h0   
#     [72]        integral           32    'h0   
#     [73]        integral           32    'h0   
#     [74]        integral           32    'h0   
#   RRESP         integral           2     'd0   
#   RLAST         integral           1     'd0   
#   burst_kind_e  burst_kind         2     FIXED 
#   kind_e        trans_kind         2     READ  
# -----------------------------------------------
# RDATa IN SB : 0 0 0 0 0 0 0 0 0 0 0 0 0 0 0 0 0 0 0 0 0 0 0 0 0 0 0 0 0 0 0 0 0 0 0 0 0 0 0 0 0 0 0 0 0 0 0 0 0 0 0 0 0 0 0 0 0 0 0 0 0 0 0 0 0 0 0 0 0 0 0 0 0 0 0
# m mon rid : 5755
# UVM_INFO ../env/axi_sb.sv(82) @ 2155: uvm_test_top.env_h.sb_h [after event in sb] aaaa
# UVM_INFO ../env/axi_sb.sv(80) @ 2155: uvm_test_top.env_h.sb_h [before event in sb] aaaa
# rd data in s drv: 0 , len : 5 , last:0 , valid : 1
# m mon rid : e93b
# rd data in s drv: ffffffff , len : 5 , last:0 , valid : 1
# m mon rid : e93b
# rd data in s drv: ffffffff , len : 5 , last:0 , valid : 1
# m mon rid : e93b
# rd data in s drv: ffffffff , len : 5 , last:0 , valid : 1
# m mon rid : e93b
# rd data in s drv: 55555555 , len : 5 , last:0 , valid : 1
# m mon rid : e93b
# rd data in s drv: ffffffff , len : 5 , last:1 , valid : 1
# req kind : READ
# INSIDE BEORE SAMPLE
# ---------------------------------------------------
# Name            Type               Size  Value     
# ---------------------------------------------------
# axi_m_seq_item  uvm_sequence_item  -     @1378     
#   AWID          integral           16    'h0       
#   AWADDR        integral           32    'h0       
#   AWLEN         integral           8     'd0       
#   AWSIZE        integral           3     'd0       
#   AWBURST       integral           2     'd0       
#   WID           integral           16    'h0       
#   WDATA         da(integral)       0     -         
#   WSTRB         da(integral)       0     -         
#   WLAST         integral           1     'd0       
#   BID           integral           16    'h0       
#   BRESP         integral           2     'd0       
#   ARID          integral           16    'he93b    
#   ARADDR        integral           32    'hffffffff
#   ARLEN         integral           8     'd5       
#   ARSIZE        integral           3     'd3       
#   ARBURST       integral           2     'd0       
#   RID           integral           16    'he93b    
#   RDATA         da(integral)       6     -         
#     [0]         integral           32    'h0       
#     [1]         integral           32    'hffffffff
#     [2]         integral           32    'hffffffff
#     [3]         integral           32    'hffffffff
#     [4]         integral           32    'h55555555
#     [5]         integral           32    'hffffffff
#   RRESP         integral           2     'd0       
#   RLAST         integral           1     'd0       
#   burst_kind_e  burst_kind         2     FIXED     
#   kind_e        trans_kind         2     READ      
# ---------------------------------------------------
# RDATa IN SB : 0 4294967295 4294967295 4294967295 1431655765 4294967295
# m mon rid : e93b
# UVM_INFO ../env/axi_sb.sv(82) @ 2215: uvm_test_top.env_h.sb_h [after event in sb] aaaa
# UVM_INFO ../env/axi_sb.sv(80) @ 2215: uvm_test_top.env_h.sb_h [before event in sb] aaaa
# rd data in s drv: 0 , len : 209 , last:0 , valid : 1
# m mon rid : 675b
# rd data in s drv: 0 , len : 209 , last:0 , valid : 1
# m mon rid : 675b
# rd data in s drv: 0 , len : 209 , last:0 , valid : 1
# m mon rid : 675b
# rd data in s drv: 0 , len : 209 , last:0 , valid : 1
# m mon rid : 675b
# rd data in s drv: 0 , len : 209 , last:0 , valid : 1
# m mon rid : 675b
# rd data in s drv: 0 , len : 209 , last:0 , valid : 1
# m mon rid : 675b
# rd data in s drv: 0 , len : 209 , last:0 , valid : 1
# m mon rid : 675b
# rd data in s drv: 0 , len : 209 , last:0 , valid : 1
# m mon rid : 675b
# rd data in s drv: 0 , len : 209 , last:0 , valid : 1
# m mon rid : 675b
# rd data in s drv: 0 , len : 209 , last:0 , valid : 1
# m mon rid : 675b
# rd data in s drv: 0 , len : 209 , last:0 , valid : 1
# m mon rid : 675b
# rd data in s drv: 0 , len : 209 , last:0 , valid : 1
# m mon rid : 675b
# rd data in s drv: 0 , len : 209 , last:0 , valid : 1
# m mon rid : 675b
# rd data in s drv: 0 , len : 209 , last:0 , valid : 1
# m mon rid : 675b
# rd data in s drv: 0 , len : 209 , last:0 , valid : 1
# m mon rid : 675b
# rd data in s drv: 0 , len : 209 , last:0 , valid : 1
# m mon rid : 675b
# rd data in s drv: 0 , len : 209 , last:0 , valid : 1
# m mon rid : 675b
# rd data in s drv: 0 , len : 209 , last:0 , valid : 1
# m mon rid : 675b
# rd data in s drv: 0 , len : 209 , last:0 , valid : 1
# m mon rid : 675b
# rd data in s drv: 0 , len : 209 , last:0 , valid : 1
# m mon rid : 675b
# rd data in s drv: 0 , len : 209 , last:0 , valid : 1
# m mon rid : 675b
# rd data in s drv: 0 , len : 209 , last:0 , valid : 1
# m mon rid : 675b
# rd data in s drv: 0 , len : 209 , last:0 , valid : 1
# m mon rid : 675b
# rd data in s drv: 0 , len : 209 , last:0 , valid : 1
# m mon rid : 675b
# rd data in s drv: 0 , len : 209 , last:0 , valid : 1
# m mon rid : 675b
# rd data in s drv: 0 , len : 209 , last:0 , valid : 1
# m mon rid : 675b
# rd data in s drv: 0 , len : 209 , last:0 , valid : 1
# m mon rid : 675b
# rd data in s drv: 0 , len : 209 , last:0 , valid : 1
# m mon rid : 675b
# rd data in s drv: 0 , len : 209 , last:0 , valid : 1
# m mon rid : 675b
# rd data in s drv: 0 , len : 209 , last:0 , valid : 1
# m mon rid : 675b
# rd data in s drv: 0 , len : 209 , last:0 , valid : 1
# m mon rid : 675b
# rd data in s drv: 0 , len : 209 , last:0 , valid : 1
# m mon rid : 675b
# rd data in s drv: 0 , len : 209 , last:0 , valid : 1
# m mon rid : 675b
# rd data in s drv: 0 , len : 209 , last:0 , valid : 1
# m mon rid : 675b
# rd data in s drv: 0 , len : 209 , last:0 , valid : 1
# m mon rid : 675b
# rd data in s drv: 0 , len : 209 , last:0 , valid : 1
# m mon rid : 675b
# rd data in s drv: 0 , len : 209 , last:0 , valid : 1
# m mon rid : 675b
# rd data in s drv: 0 , len : 209 , last:0 , valid : 1
# m mon rid : 675b
# rd data in s drv: 0 , len : 209 , last:0 , valid : 1
# m mon rid : 675b
# rd data in s drv: 0 , len : 209 , last:0 , valid : 1
# m mon rid : 675b
# rd data in s drv: 0 , len : 209 , last:0 , valid : 1
# m mon rid : 675b
# rd data in s drv: 0 , len : 209 , last:0 , valid : 1
# m mon rid : 675b
# rd data in s drv: 0 , len : 209 , last:0 , valid : 1
# m mon rid : 675b
# rd data in s drv: 0 , len : 209 , last:0 , valid : 1
# m mon rid : 675b
# rd data in s drv: 0 , len : 209 , last:0 , valid : 1
# m mon rid : 675b
# rd data in s drv: 0 , len : 209 , last:0 , valid : 1
# m mon rid : 675b
# rd data in s drv: 0 , len : 209 , last:0 , valid : 1
# m mon rid : 675b
# rd data in s drv: 0 , len : 209 , last:0 , valid : 1
# m mon rid : 675b
# rd data in s drv: 0 , len : 209 , last:0 , valid : 1
# m mon rid : 675b
# rd data in s drv: 0 , len : 209 , last:0 , valid : 1
# m mon rid : 675b
# rd data in s drv: 0 , len : 209 , last:0 , valid : 1
# m mon rid : 675b
# rd data in s drv: 0 , len : 209 , last:0 , valid : 1
# m mon rid : 675b
# rd data in s drv: 0 , len : 209 , last:0 , valid : 1
# m mon rid : 675b
# rd data in s drv: 0 , len : 209 , last:0 , valid : 1
# m mon rid : 675b
# rd data in s drv: 0 , len : 209 , last:0 , valid : 1
# m mon rid : 675b
# rd data in s drv: 0 , len : 209 , last:0 , valid : 1
# m mon rid : 675b
# rd data in s drv: 0 , len : 209 , last:0 , valid : 1
# m mon rid : 675b
# rd data in s drv: 0 , len : 209 , last:0 , valid : 1
# m mon rid : 675b
# rd data in s drv: 0 , len : 209 , last:0 , valid : 1
# m mon rid : 675b
# rd data in s drv: 0 , len : 209 , last:0 , valid : 1
# m mon rid : 675b
# rd data in s drv: 0 , len : 209 , last:0 , valid : 1
# m mon rid : 675b
# rd data in s drv: 0 , len : 209 , last:0 , valid : 1
# m mon rid : 675b
# rd data in s drv: 0 , len : 209 , last:0 , valid : 1
# m mon rid : 675b
# rd data in s drv: 0 , len : 209 , last:0 , valid : 1
# m mon rid : 675b
# rd data in s drv: 0 , len : 209 , last:0 , valid : 1
# m mon rid : 675b
# rd data in s drv: 0 , len : 209 , last:0 , valid : 1
# m mon rid : 675b
# rd data in s drv: 0 , len : 209 , last:0 , valid : 1
# m mon rid : 675b
# rd data in s drv: 0 , len : 209 , last:0 , valid : 1
# m mon rid : 675b
# rd data in s drv: 0 , len : 209 , last:0 , valid : 1
# m mon rid : 675b
# rd data in s drv: 0 , len : 209 , last:0 , valid : 1
# m mon rid : 675b
# rd data in s drv: 0 , len : 209 , last:0 , valid : 1
# m mon rid : 675b
# rd data in s drv: 0 , len : 209 , last:0 , valid : 1
# m mon rid : 675b
# rd data in s drv: 0 , len : 209 , last:0 , valid : 1
# m mon rid : 675b
# rd data in s drv: 0 , len : 209 , last:0 , valid : 1
# m mon rid : 675b
# rd data in s drv: 0 , len : 209 , last:0 , valid : 1
# m mon rid : 675b
# rd data in s drv: 0 , len : 209 , last:0 , valid : 1
# m mon rid : 675b
# rd data in s drv: 0 , len : 209 , last:0 , valid : 1
# m mon rid : 675b
# rd data in s drv: 0 , len : 209 , last:0 , valid : 1
# m mon rid : 675b
# rd data in s drv: 0 , len : 209 , last:0 , valid : 1
# m mon rid : 675b
# rd data in s drv: 0 , len : 209 , last:0 , valid : 1
# m mon rid : 675b
# rd data in s drv: 0 , len : 209 , last:0 , valid : 1
# m mon rid : 675b
# rd data in s drv: 0 , len : 209 , last:0 , valid : 1
# m mon rid : 675b
# rd data in s drv: 0 , len : 209 , last:0 , valid : 1
# m mon rid : 675b
# rd data in s drv: 0 , len : 209 , last:0 , valid : 1
# m mon rid : 675b
# rd data in s drv: 0 , len : 209 , last:0 , valid : 1
# m mon rid : 675b
# rd data in s drv: 0 , len : 209 , last:0 , valid : 1
# m mon rid : 675b
# rd data in s drv: 0 , len : 209 , last:0 , valid : 1
# m mon rid : 675b
# rd data in s drv: 0 , len : 209 , last:0 , valid : 1
# m mon rid : 675b
# rd data in s drv: 0 , len : 209 , last:0 , valid : 1
# m mon rid : 675b
# rd data in s drv: 0 , len : 209 , last:0 , valid : 1
# m mon rid : 675b
# rd data in s drv: 0 , len : 209 , last:0 , valid : 1
# m mon rid : 675b
# rd data in s drv: 0 , len : 209 , last:0 , valid : 1
# m mon rid : 675b
# rd data in s drv: 0 , len : 209 , last:0 , valid : 1
# m mon rid : 675b
# rd data in s drv: 0 , len : 209 , last:0 , valid : 1
# m mon rid : 675b
# rd data in s drv: 0 , len : 209 , last:0 , valid : 1
# m mon rid : 675b
# rd data in s drv: 0 , len : 209 , last:0 , valid : 1
# m mon rid : 675b
# rd data in s drv: 0 , len : 209 , last:0 , valid : 1
# m mon rid : 675b
# rd data in s drv: 0 , len : 209 , last:0 , valid : 1
# m mon rid : 675b
# rd data in s drv: 0 , len : 209 , last:0 , valid : 1
# m mon rid : 675b
# rd data in s drv: 0 , len : 209 , last:0 , valid : 1
# m mon rid : 675b
# rd data in s drv: 0 , len : 209 , last:0 , valid : 1
# m mon rid : 675b
# rd data in s drv: 0 , len : 209 , last:0 , valid : 1
# m mon rid : 675b
# rd data in s drv: 0 , len : 209 , last:0 , valid : 1
# m mon rid : 675b
# rd data in s drv: 0 , len : 209 , last:0 , valid : 1
# m mon rid : 675b
# rd data in s drv: 0 , len : 209 , last:0 , valid : 1
# m mon rid : 675b
# rd data in s drv: 0 , len : 209 , last:0 , valid : 1
# m mon rid : 675b
# rd data in s drv: 0 , len : 209 , last:0 , valid : 1
# m mon rid : 675b
# rd data in s drv: 0 , len : 209 , last:0 , valid : 1
# m mon rid : 675b
# rd data in s drv: 0 , len : 209 , last:0 , valid : 1
# m mon rid : 675b
# rd data in s drv: 0 , len : 209 , last:0 , valid : 1
# m mon rid : 675b
# rd data in s drv: 0 , len : 209 , last:0 , valid : 1
# m mon rid : 675b
# rd data in s drv: 0 , len : 209 , last:0 , valid : 1
# m mon rid : 675b
# rd data in s drv: 0 , len : 209 , last:0 , valid : 1
# m mon rid : 675b
# rd data in s drv: 0 , len : 209 , last:0 , valid : 1
# m mon rid : 675b
# rd data in s drv: 0 , len : 209 , last:0 , valid : 1
# m mon rid : 675b
# rd data in s drv: 0 , len : 209 , last:0 , valid : 1
# m mon rid : 675b
# rd data in s drv: 0 , len : 209 , last:0 , valid : 1
# m mon rid : 675b
# rd data in s drv: 0 , len : 209 , last:0 , valid : 1
# m mon rid : 675b
# rd data in s drv: 0 , len : 209 , last:0 , valid : 1
# m mon rid : 675b
# rd data in s drv: 0 , len : 209 , last:0 , valid : 1
# m mon rid : 675b
# rd data in s drv: 0 , len : 209 , last:0 , valid : 1
# m mon rid : 675b
# rd data in s drv: 0 , len : 209 , last:0 , valid : 1
# m mon rid : 675b
# rd data in s drv: 0 , len : 209 , last:0 , valid : 1
# m mon rid : 675b
# rd data in s drv: 0 , len : 209 , last:0 , valid : 1
# m mon rid : 675b
# rd data in s drv: 0 , len : 209 , last:0 , valid : 1
# m mon rid : 675b
# rd data in s drv: 0 , len : 209 , last:0 , valid : 1
# m mon rid : 675b
# rd data in s drv: 0 , len : 209 , last:0 , valid : 1
# m mon rid : 675b
# rd data in s drv: 0 , len : 209 , last:0 , valid : 1
# abc : 1
# ref model mem : 8
# abc : 2
# ref model mem : 16
# abc : 3
# ref model mem : 24
# abc : 4
# ref model mem : 32
# abc : 5
# ref model mem : 40
# abc : 6
# ref model mem : 48
# abc : 7
# ref model mem : 56
# abc : 8
# ref model mem : 64
# abc : 9
# ref model mem : 72
# abc : 10
# ref model mem : 80
# abc : 11
# ref model mem : 88
# abc : 12
# ref model mem : 96
# abc : 13
# ref model mem : 104
# abc : 14
# ref model mem : 112
# abc : 15
# ref model mem : 120
# abc : 16
# ref model mem : 128
# abc : 17
# ref model mem : 136
# abc : 18
# ref model mem : 144
# abc : 19
# ref model mem : 152
# abc : 20
# ref model mem : 160
# abc : 21
# ref model mem : 168
# abc : 22
# ref model mem : 176
# abc : 23
# ref model mem : 184
# abc : 24
# ref model mem : 192
# abc : 25
# ref model mem : 200
# abc : 26
# ref model mem : 208
# abc : 27
# ref model mem : 216
# abc : 28
# ref model mem : 224
# abc : 29
# ref model mem : 232
# abc : 30
# ref model mem : 240
# abc : 31
# ref model mem : 248
# abc : 32
# ref model mem : 256
# abc : 33
# ref model mem : 264
# abc : 34
# ref model mem : 272
# abc : 35
# ref model mem : 280
# abc : 36
# ref model mem : 288
# abc : 37
# ref model mem : 296
# abc : 38
# ref model mem : 304
# abc : 39
# ref model mem : 312
# abc : 40
# ref model mem : 320
# abc : 41
# ref model mem : 328
# abc : 42
# ref model mem : 336
# abc : 43
# ref model mem : 344
# abc : 44
# ref model mem : 352
# abc : 45
# ref model mem : 360
# abc : 46
# ref model mem : 368
# abc : 47
# ref model mem : 376
# abc : 48
# ref model mem : 384
# abc : 49
# ref model mem : 392
# abc : 50
# ref model mem : 400
# abc : 51
# ref model mem : 408
# abc : 52
# ref model mem : 416
# abc : 53
# ref model mem : 424
# abc : 54
# ref model mem : 432
# abc : 55
# ref model mem : 440
# abc : 56
# ref model mem : 448
# abc : 57
# ref model mem : 456
# abc : 58
# ref model mem : 464
# abc : 59
# ref model mem : 472
# abc : 60
# ref model mem : 480
# abc : 61
# ref model mem : 488
# abc : 62
# ref model mem : 496
# abc : 63
# ref model mem : 504
# abc : 64
# ref model mem : 512
# abc : 65
# ref model mem : 520
# abc : 66
# ref model mem : 528
# abc : 67
# ref model mem : 536
# abc : 68
# ref model mem : 544
# abc : 69
# ref model mem : 552
# abc : 70
# ref model mem : 560
# abc : 71
# ref model mem : 568
# abc : 72
# ref model mem : 576
# abc : 73
# ref model mem : 584
# abc : 74
# ref model mem : 592
# abc : 75
# ref model mem : 600
# abc : 76
# ref model mem : 608
# abc : 77
# ref model mem : 616
# abc : 78
# ref model mem : 624
# abc : 79
# ref model mem : 632
# abc : 80
# ref model mem : 640
# abc : 81
# ref model mem : 648
# abc : 82
# ref model mem : 656
# abc : 83
# ref model mem : 664
# abc : 84
# ref model mem : 672
# abc : 85
# ref model mem : 680
# abc : 86
# ref model mem : 688
# abc : 87
# ref model mem : 696
# abc : 88
# ref model mem : 704
# abc : 89
# ref model mem : 712
# abc : 90
# ref model mem : 720
# abc : 91
# ref model mem : 728
# abc : 92
# ref model mem : 736
# abc : 93
# ref model mem : 744
# abc : 94
# ref model mem : 752
# abc : 95
# ref model mem : 760
# abc : 96
# ref model mem : 768
# abc : 97
# ref model mem : 776
# abc : 98
# ref model mem : 784
# abc : 99
# ref model mem : 792
# abc : 100
# ref model mem : 800
# abc : 101
# ref model mem : 808
# abc : 102
# ref model mem : 816
# abc : 103
# ref model mem : 824
# abc : 104
# ref model mem : 832
# abc : 105
# ref model mem : 840
# abc : 106
# ref model mem : 848
# abc : 107
# ref model mem : 856
# abc : 108
# ref model mem : 864
# abc : 109
# ref model mem : 872
# abc : 110
# ref model mem : 880
# abc : 111
# ref model mem : 888
# abc : 112
# ref model mem : 896
# abc : 113
# ref model mem : 904
# abc : 114
# ref model mem : 912
# abc : 115
# ref model mem : 920
# abc : 116
# ref model mem : 928
# abc : 117
# ref model mem : 936
# abc : 118
# ref model mem : 944
# abc : 119
# ref model mem : 952
# abc : 120
# ref model mem : 960
# abc : 121
# ref model mem : 968
# abc : 122
# ref model mem : 976
# abc : 123
# ref model mem : 984
# abc : 124
# ref model mem : 992
# abc : 125
# ref model mem : 1000
# abc : 126
# ref model mem : 1008
# abc : 127
# ref model mem : 1016
# abc : 128
# ref model mem : 1024
# abc : 129
# ref model mem : 1032
# abc : 130
# ref model mem : 1040
# abc : 131
# ref model mem : 1048
# abc : 132
# ref model mem : 1056
# abc : 133
# ref model mem : 1064
# abc : 134
# ref model mem : 1072
# abc : 135
# ref model mem : 1080
# abc : 136
# ref model mem : 1088
# abc : 137
# ref model mem : 1096
# abc : 138
# ref model mem : 1104
# abc : 139
# ref model mem : 1112
# abc : 140
# ref model mem : 1120
# abc : 141
# ref model mem : 1128
# abc : 142
# ref model mem : 1136
# abc : 143
# ref model mem : 1144
# abc : 144
# ref model mem : 1152
# abc : 145
# ref model mem : 1160
# abc : 146
# ref model mem : 1168
# abc : 147
# ref model mem : 1176
# abc : 148
# ref model mem : 1184
# abc : 149
# ref model mem : 1192
# abc : 150
# ref model mem : 1200
# abc : 151
# ref model mem : 1208
# abc : 152
# ref model mem : 1216
# abc : 153
# ref model mem : 1224
# abc : 154
# ref model mem : 1232
# abc : 155
# ref model mem : 1240
# abc : 156
# ref model mem : 1248
# abc : 157
# ref model mem : 1256
# abc : 158
# ref model mem : 1264
# abc : 159
# ref model mem : 1272
# abc : 160
# ref model mem : 1280
# abc : 161
# ref model mem : 1288
# abc : 162
# ref model mem : 1296
# abc : 163
# ref model mem : 1304
# abc : 164
# ref model mem : 1312
# abc : 165
# ref model mem : 1320
# abc : 166
# ref model mem : 1328
# abc : 167
# ref model mem : 1336
# abc : 168
# ref model mem : 1344
# abc : 169
# ref model mem : 1352
# abc : 170
# ref model mem : 1360
# abc : 171
# ref model mem : 1368
# abc : 172
# ref model mem : 1376
# abc : 173
# ref model mem : 1384
# abc : 174
# ref model mem : 1392
# abc : 175
# ref model mem : 1400
# abc : 176
# ref model mem : 1408
# abc : 177
# ref model mem : 1416
# abc : 178
# ref model mem : 1424
# abc : 179
# ref model mem : 1432
# abc : 180
# ref model mem : 1440
# abc : 181
# ref model mem : 1448
# abc : 182
# ref model mem : 1456
# abc : 183
# ref model mem : 1464
# abc : 184
# ref model mem : 1472
# abc : 185
# ref model mem : 1480
# abc : 186
# ref model mem : 1488
# abc : 187
# ref model mem : 1496
# abc : 188
# ref model mem : 1504
# abc : 189
# ref model mem : 1512
# abc : 190
# ref model mem : 1520
# abc : 191
# ref model mem : 1528
# abc : 192
# ref model mem : 1536
# abc : 193
# ref model mem : 1544
# abc : 194
# ref model mem : 1552
# abc : 195
# ref model mem : 1560
# abc : 196
# ref model mem : 1568
# abc : 197
# ref model mem : 1576
# abc : 198
# ref model mem : 1584
# abc : 199
# ref model mem : 1592
# abc : 200
# ref model mem : 1600
# abc : 201
# ref model mem : 1608
# abc : 202
# ref model mem : 1616
# abc : 203
# ref model mem : 1624
# abc : 204
# ref model mem : 1632
# abc : 205
# ref model mem : 1640
# abc : 206
# ref model mem : 1648
# abc : 207
# ref model mem : 1656
# abc : 208
# ref model mem : 1664
# abc : 209
# ref model mem : 1672
# abc : 210
# ref model mem : 1680
# AFFTER W CHANNEL
# m mon rid : 675b
# match arid : 0 , rid : 0
# UVM_INFO ../env/s_agent/axi_s_drv.sv(31) @ 3495: uvm_test_top.env_h.s_uvc_h.s_agent_h[0].s_drv_h [ID MATCH] aaaaa
# rd data in s drv: 0 , len : 209 , last:0 , valid : 1
# m mon rid : 675b
# rd data in s drv: 0 , len : 209 , last:0 , valid : 1
# m mon rid : 675b
# req wid : 64272 , bid:64272
# UVM_INFO ../env/m_agent/axi_base_m_seqs.sv(26) @ 3515: uvm_test_top.env_h.m_uvc_h.m_agent_h[0].m_seqr_h@@vseqs_h.m_wseqs_h [IN V SEQS] Got B-channel response from driver
# rd data in s drv: 0 , len : 209 , last:0 , valid : 1
# m mon rid : 675b
# rd data in s drv: 0 , len : 209 , last:0 , valid : 1
# m mon rid : 675b
# rd data in s drv: 0 , len : 209 , last:0 , valid : 1
# m mon rid : 675b
# rd data in s drv: 0 , len : 209 , last:0 , valid : 1
# m mon rid : 675b
# rd data in s drv: 0 , len : 209 , last:0 , valid : 1
# m mon rid : 675b
# rd data in s drv: 0 , len : 209 , last:0 , valid : 1
# m mon rid : 675b
# rd data in s drv: 0 , len : 209 , last:0 , valid : 1
# m mon rid : 675b
# rd data in s drv: 0 , len : 209 , last:0 , valid : 1
# m mon rid : 675b
# rd data in s drv: 0 , len : 209 , last:0 , valid : 1
# m mon rid : 675b
# rd data in s drv: 0 , len : 209 , last:0 , valid : 1
# m mon rid : 675b
# rd data in s drv: 0 , len : 209 , last:0 , valid : 1
# m mon rid : 675b
# rd data in s drv: 0 , len : 209 , last:0 , valid : 1
# m mon rid : 675b
# rd data in s drv: 0 , len : 209 , last:0 , valid : 1
# m mon rid : 675b
# rd data in s drv: 0 , len : 209 , last:0 , valid : 1
# m mon rid : 675b
# rd data in s drv: 0 , len : 209 , last:0 , valid : 1
# m mon rid : 675b
# rd data in s drv: 0 , len : 209 , last:0 , valid : 1
# m mon rid : 675b
# rd data in s drv: 0 , len : 209 , last:0 , valid : 1
# m mon rid : 675b
# rd data in s drv: 0 , len : 209 , last:0 , valid : 1
# m mon rid : 675b
# rd data in s drv: 0 , len : 209 , last:0 , valid : 1
# m mon rid : 675b
# rd data in s drv: 0 , len : 209 , last:0 , valid : 1
# m mon rid : 675b
# rd data in s drv: 0 , len : 209 , last:0 , valid : 1
# m mon rid : 675b
# rd data in s drv: 0 , len : 209 , last:0 , valid : 1
# m mon rid : 675b
# rd data in s drv: 0 , len : 209 , last:0 , valid : 1
# m mon rid : 675b
# rd data in s drv: 0 , len : 209 , last:0 , valid : 1
# m mon rid : 675b
# rd data in s drv: 0 , len : 209 , last:0 , valid : 1
# m mon rid : 675b
# rd data in s drv: 0 , len : 209 , last:0 , valid : 1
# m mon rid : 675b
# rd data in s drv: 0 , len : 209 , last:0 , valid : 1
# m mon rid : 675b
# rd data in s drv: 0 , len : 209 , last:0 , valid : 1
# m mon rid : 675b
# rd data in s drv: 0 , len : 209 , last:0 , valid : 1
# m mon rid : 675b
# rd data in s drv: 0 , len : 209 , last:0 , valid : 1
# m mon rid : 675b
# rd data in s drv: 0 , len : 209 , last:0 , valid : 1
# m mon rid : 675b
# rd data in s drv: 0 , len : 209 , last:0 , valid : 1
# m mon rid : 675b
# rd data in s drv: 0 , len : 209 , last:0 , valid : 1
# m mon rid : 675b
# rd data in s drv: 0 , len : 209 , last:0 , valid : 1
# m mon rid : 675b
# rd data in s drv: 0 , len : 209 , last:0 , valid : 1
# m mon rid : 675b
# rd data in s drv: 0 , len : 209 , last:0 , valid : 1
# m mon rid : 675b
# rd data in s drv: 0 , len : 209 , last:0 , valid : 1
# m mon rid : 675b
# rd data in s drv: 0 , len : 209 , last:0 , valid : 1
# m mon rid : 675b
# rd data in s drv: 0 , len : 209 , last:0 , valid : 1
# m mon rid : 675b
# rd data in s drv: 0 , len : 209 , last:0 , valid : 1
# m mon rid : 675b
# rd data in s drv: 0 , len : 209 , last:0 , valid : 1
# m mon rid : 675b
# rd data in s drv: 0 , len : 209 , last:0 , valid : 1
# m mon rid : 675b
# rd data in s drv: 0 , len : 209 , last:0 , valid : 1
# m mon rid : 675b
# rd data in s drv: 0 , len : 209 , last:0 , valid : 1
# m mon rid : 675b
# rd data in s drv: 0 , len : 209 , last:0 , valid : 1
# m mon rid : 675b
# rd data in s drv: 0 , len : 209 , last:0 , valid : 1
# m mon rid : 675b
# rd data in s drv: 0 , len : 209 , last:0 , valid : 1
# m mon rid : 675b
# rd data in s drv: 0 , len : 209 , last:0 , valid : 1
# m mon rid : 675b
# rd data in s drv: 0 , len : 209 , last:0 , valid : 1
# m mon rid : 675b
# rd data in s drv: 0 , len : 209 , last:0 , valid : 1
# m mon rid : 675b
# rd data in s drv: 0 , len : 209 , last:0 , valid : 1
# m mon rid : 675b
# rd data in s drv: 0 , len : 209 , last:0 , valid : 1
# m mon rid : 675b
# rd data in s drv: 0 , len : 209 , last:0 , valid : 1
# m mon rid : 675b
# rd data in s drv: 0 , len : 209 , last:0 , valid : 1
# m mon rid : 675b
# rd data in s drv: 0 , len : 209 , last:0 , valid : 1
# m mon rid : 675b
# rd data in s drv: 0 , len : 209 , last:0 , valid : 1
# m mon rid : 675b
# rd data in s drv: 0 , len : 209 , last:0 , valid : 1
# m mon rid : 675b
# rd data in s drv: 0 , len : 209 , last:0 , valid : 1
# m mon rid : 675b
# rd data in s drv: 0 , len : 209 , last:0 , valid : 1
# m mon rid : 675b
# rd data in s drv: 0 , len : 209 , last:0 , valid : 1
# m mon rid : 675b
# rd data in s drv: 0 , len : 209 , last:0 , valid : 1
# m mon rid : 675b
# rd data in s drv: 0 , len : 209 , last:0 , valid : 1
# m mon rid : 675b
# rd data in s drv: 0 , len : 209 , last:0 , valid : 1
# m mon rid : 675b
# rd data in s drv: 0 , len : 209 , last:0 , valid : 1
# m mon rid : 675b
# rd data in s drv: 0 , len : 209 , last:0 , valid : 1
# m mon rid : 675b
# rd data in s drv: 0 , len : 209 , last:0 , valid : 1
# m mon rid : 675b
# rd data in s drv: 0 , len : 209 , last:0 , valid : 1
# m mon rid : 675b
# rd data in s drv: 0 , len : 209 , last:0 , valid : 1
# m mon rid : 675b
# rd data in s drv: 0 , len : 209 , last:0 , valid : 1
# m mon rid : 675b
# rd data in s drv: 0 , len : 209 , last:0 , valid : 1
# m mon rid : 675b
# rd data in s drv: 0 , len : 209 , last:0 , valid : 1
# m mon rid : 675b
# rd data in s drv: 0 , len : 209 , last:0 , valid : 1
# m mon rid : 675b
# rd data in s drv: 0 , len : 209 , last:0 , valid : 1
# abc : 1
# ref model mem : 8
# abc : 2
# ref model mem : 16
# abc : 3
# ref model mem : 24
# abc : 4
# ref model mem : 32
# abc : 5
# ref model mem : 40
# abc : 6
# ref model mem : 48
# abc : 7
# ref model mem : 56
# abc : 8
# ref model mem : 64
# abc : 9
# ref model mem : 72
# abc : 10
# ref model mem : 80
# abc : 11
# ref model mem : 88
# abc : 12
# ref model mem : 96
# abc : 13
# ref model mem : 104
# abc : 14
# ref model mem : 112
# abc : 15
# ref model mem : 120
# abc : 16
# ref model mem : 128
# abc : 17
# ref model mem : 136
# abc : 18
# ref model mem : 144
# abc : 19
# ref model mem : 152
# abc : 20
# ref model mem : 160
# abc : 21
# ref model mem : 168
# abc : 22
# ref model mem : 176
# abc : 23
# ref model mem : 184
# abc : 24
# ref model mem : 192
# abc : 25
# ref model mem : 200
# abc : 26
# ref model mem : 208
# abc : 27
# ref model mem : 216
# abc : 28
# ref model mem : 224
# abc : 29
# ref model mem : 232
# abc : 30
# ref model mem : 240
# abc : 31
# ref model mem : 248
# abc : 32
# ref model mem : 256
# abc : 33
# ref model mem : 264
# abc : 34
# ref model mem : 272
# abc : 35
# ref model mem : 280
# abc : 36
# ref model mem : 288
# abc : 37
# ref model mem : 296
# abc : 38
# ref model mem : 304
# abc : 39
# ref model mem : 312
# abc : 40
# ref model mem : 320
# abc : 41
# ref model mem : 328
# abc : 42
# ref model mem : 336
# abc : 43
# ref model mem : 344
# abc : 44
# ref model mem : 352
# abc : 45
# ref model mem : 360
# abc : 46
# ref model mem : 368
# abc : 47
# ref model mem : 376
# abc : 48
# ref model mem : 384
# abc : 49
# ref model mem : 392
# abc : 50
# ref model mem : 400
# abc : 51
# ref model mem : 408
# abc : 52
# ref model mem : 416
# abc : 53
# ref model mem : 424
# abc : 54
# ref model mem : 432
# abc : 55
# ref model mem : 440
# abc : 56
# ref model mem : 448
# abc : 57
# ref model mem : 456
# abc : 58
# ref model mem : 464
# abc : 59
# ref model mem : 472
# abc : 60
# ref model mem : 480
# abc : 61
# ref model mem : 488
# abc : 62
# ref model mem : 496
# abc : 63
# ref model mem : 504
# abc : 64
# ref model mem : 512
# abc : 65
# ref model mem : 520
# abc : 66
# ref model mem : 528
# abc : 67
# ref model mem : 536
