# vsim -coverage -voptargs="+acc" axi_tb_top -c -do "coverage save -onexit -directive -cvg -codeall axi_wrap_test.ucdb; run -all; exit" "+UVM_TESTNAME=axi_wrap_test" -l axi_wrap_test.log 
# Start time: 14:36:35 on May 07,2026
# ** Note: (vsim-3813) Design is being optimized due to module recompilation...
# ** Warning: (vopt-10587) Some optimizations are turned off because the +acc switch is in effect. This will cause your simulation to run slowly. Please use -access/-debug to maintain needed visibility.
# ** Warning: (vopt-13408) Code coverage will be disabled for some DUs/packages/classes and source files.
# ** Note: (vsim-12126) Error and warning message counts have been restored: Errors=0, Warnings=2.
# //  Questa Sim-64
# //  Version 2023.4 linux_x86_64 Oct  9 2023
# //
# //  Copyright 1991-2023 Mentor Graphics Corporation
# //  All Rights Reserved.
# //
# //  QuestaSim and its associated documentation contain trade
# //  secrets and commercial or financial information that are the property of
# //  Mentor Graphics Corporation and are privileged, confidential,
# //  and exempt from disclosure under the Freedom of Information Act,
# //  5 U.S.C. Section 552. Furthermore, this information
# //  is prohibited from disclosure under the Trade Secrets Act,
# //  18 U.S.C. Section 1905.
# //
# Loading sv_std.std
# Loading work.axi_s_inf(fast)
# Loading work.axi_m_inf(fast)
# Loading mtiUvm.uvm_pkg(fast)
# Loading work.axi_s_agent_pkg(fast)
# Loading work.axi_m_agent_pkg(fast)
# Loading work.axi_env_pkg(fast)
# Loading work.axi_test_pkg(fast)
# Loading mtiUvm.questa_uvm_pkg(fast)
# Loading work.axi_tb_top(fast)
# Loading work.axi_m_inf(fast__2)
# Loading work.axi_s_inf(fast__2)
# ** Warning: (vsim-8441) Clocking block output s_vif.s_drv_cb.RDATA is not legal in this
# or another expression.
#    Time: 0 ns  Iteration: 0  Region: /axi_s_agent_pkg::axi_s_drv #(32, 32) File: ../env/s_agent/axi_s_drv.sv Line: 113
# ** Warning: (vsim-8441) Clocking block output s_vif.s_drv_cb.RVALID is not legal in this
# or another expression.
#    Time: 0 ns  Iteration: 0  Region: /axi_s_agent_pkg::axi_s_drv #(32, 32) File: ../env/s_agent/axi_s_drv.sv Line: 115
# ** Warning: (vsim-8441) Clocking block output s_vif.s_drv_cb.RLAST is not legal in this
# or another expression.
#    Time: 0 ns  Iteration: 0  Region: /axi_s_agent_pkg::axi_s_drv #(32, 32) File: ../env/s_agent/axi_s_drv.sv Line: 116
# ** Warning: (vsim-8441) Clocking block output s_vif.s_drv_cb.RDATA is not legal in this
# or another expression.
#    Time: 0 ns  Iteration: 0  Region: /axi_s_agent_pkg::axi_s_drv #(32, 32) File: ../env/s_agent/axi_s_drv.sv Line: 113
# ** Warning: (vsim-8441) Clocking block output s_vif.s_drv_cb.RLAST is not legal in this
# or another expression.
#    Time: 0 ns  Iteration: 0  Region: /axi_s_agent_pkg::axi_s_drv #(32, 32) File: ../env/s_agent/axi_s_drv.sv Line: 116
# ** Warning: (vsim-8441) Clocking block output s_vif.s_drv_cb.RVALID is not legal in this
# or another expression.
#    Time: 0 ns  Iteration: 0  Region: /axi_s_agent_pkg::axi_s_drv #(32, 32) File: ../env/s_agent/axi_s_drv.sv Line: 115
# ** Warning: (vsim-8441) Clocking block output s_vif.s_drv_cb.RVALID is not legal in this
# or another expression.
#    Time: 0 ns  Iteration: 0  Region: /axi_s_agent_pkg::axi_s_drv #(32, 32) File: ../env/s_agent/axi_s_drv.sv Line: 115
# ** Warning: (vsim-8441) Clocking block output s_vif.s_drv_cb.RLAST is not legal in this
# or another expression.
#    Time: 0 ns  Iteration: 0  Region: /axi_s_agent_pkg::axi_s_drv #(32, 32) File: ../env/s_agent/axi_s_drv.sv Line: 116
# Loading /tools/mentor/questa/2023.4/questasim/uvm-1.1d/linux_x86_64/uvm_dpi.so
# coverage save -onexit -directive -cvg -codeall axi_wrap_test.ucdb
#  run -all
# ----------------------------------------------------------------
# UVM-1.1d
# (C) 2007-2013 Mentor Graphics Corporation
# (C) 2007-2013 Cadence Design Systems, Inc.
# (C) 2006-2013 Synopsys, Inc.
# (C) 2011-2013 Cypress Semiconductor Corp.
# ----------------------------------------------------------------
# 
#   ***********       IMPORTANT RELEASE NOTES         ************
# 
#   You are using a version of the UVM library that has been compiled
#   with `UVM_NO_DEPRECATED undefined.
#   See http://www.eda.org/svdb/view.php?id=3313 for more details.
# 
#   You are using a version of the UVM library that has been compiled
#   with `UVM_OBJECT_MUST_HAVE_CONSTRUCTOR undefined.
#   See http://www.eda.org/svdb/view.php?id=3770 for more details.
# 
#       (Specify +UVM_NO_RELNOTES to turn off this notice)
# 
# UVM_INFO verilog_src/questa_uvm_pkg-1.2/src/questa_uvm_pkg.sv(277) @ 0: reporter [Questa UVM] QUESTA_UVM-1.2.3
# UVM_INFO verilog_src/questa_uvm_pkg-1.2/src/questa_uvm_pkg.sv(278) @ 0: reporter [Questa UVM]  questa_uvm::init(+struct)
# UVM_INFO @ 0: reporter [RNTST] Running test axi_wrap_test...
# ** Warning: (vsim-8474) A higher value '4294967295' is found in bin 'all_ones' of Coverpoint 'cp_wdata'. It is invalid and will be ignored.
#    Time: 0 ns  Iteration: 7  Process: /uvm_pkg::uvm_phase::m_run_phases/#FORK#1847_7fefec463ba File: ../env/axi_coverage.sv Line: 49
# ** Warning: (vsim-8549) After dropping the illegal, ignore or invalid values, the values list associated with scalar bin 'all_ones' in Coverpoint 'cp_wdata' of Covergroup instance '\/axi_env_pkg::axi_coverage::write_cov ' has converged to empty list. The bin will be taken out of coverage calculation.
#    Time: 0 ns  Iteration: 7  Region: /uvm_pkg::uvm_phase::m_run_phases
# ** Warning: (vsim-8474) A higher value '1431655765' is found in bin 'toggle_01' of Coverpoint 'cp_wdata'. It is invalid and will be ignored.
#    Time: 0 ns  Iteration: 7  Process: /uvm_pkg::uvm_phase::m_run_phases/#FORK#1847_7fefec463ba File: ../env/axi_coverage.sv Line: 50
# ** Warning: (vsim-8474) A higher value '2863311530' is found in bin 'toggle_01' of Coverpoint 'cp_wdata'. It is invalid and will be ignored.
#    Time: 0 ns  Iteration: 7  Process: /uvm_pkg::uvm_phase::m_run_phases/#FORK#1847_7fefec463ba File: ../env/axi_coverage.sv Line: 50
# ** Warning: (vsim-8549) After dropping the illegal, ignore or invalid values, the values list associated with scalar bin 'toggle_01' in Coverpoint 'cp_wdata' of Covergroup instance '\/axi_env_pkg::axi_coverage::write_cov ' has converged to empty list. The bin will be taken out of coverage calculation.
#    Time: 0 ns  Iteration: 7  Region: /uvm_pkg::uvm_phase::m_run_phases
# ** Warning: (vsim-3881) ../env/axi_coverage.sv(51): Width conversion applied in bin 'other_data' for Coverpoint 'cp_wdata'. Value '1' changed to ' (maximum)' value.
#    Time: 0 ns  Iteration: 7  Region: /uvm_pkg::uvm_phase::m_run_phases
# ** Warning: (vsim-3881) ../env/axi_coverage.sv(51): Width conversion applied in bin 'other_data' for Coverpoint 'cp_wdata'. Value '4294901759' changed to ' (maximum)' value.
#    Time: 0 ns  Iteration: 7  Region: /uvm_pkg::uvm_phase::m_run_phases
# ** Warning: (vsim-8475) The invalid value range [1 : 4294901759] is found in bin 'other_data' of Coverpoint 'cp_wdata'. It will be ignored.
#    Time: 0 ns  Iteration: 7  Process: /uvm_pkg::uvm_phase::m_run_phases/#FORK#1847_7fefec463ba File: ../env/axi_coverage.sv Line: 51
# ** Warning: (vsim-8549) After dropping the illegal, ignore or invalid values, the values list associated with array bin 'other_data' in Coverpoint 'cp_wdata' of Covergroup instance '\/axi_env_pkg::axi_coverage::write_cov ' has converged to empty list. The bin will be taken out of coverage calculation.
#    Time: 0 ns  Iteration: 7  Region: /uvm_pkg::uvm_phase::m_run_phases
# ** Warning: (vsim-8474) A higher value '8' is found in bin 'single_byte' of Coverpoint 'cp_wstrb'. It is invalid and will be ignored.
#    Time: 0 ns  Iteration: 7  Process: /uvm_pkg::uvm_phase::m_run_phases/#FORK#1847_7fefec463ba File: ../env/axi_coverage.sv Line: 72
# ** Warning: (vsim-8474) A higher value '12' is found in bin 'single_byte' of Coverpoint 'cp_wstrb'. It is invalid and will be ignored.
#    Time: 0 ns  Iteration: 7  Process: /uvm_pkg::uvm_phase::m_run_phases/#FORK#1847_7fefec463ba File: ../env/axi_coverage.sv Line: 72
# ** Warning: (vsim-8474) A higher value '14' is found in bin 'single_byte' of Coverpoint 'cp_wstrb'. It is invalid and will be ignored.
#    Time: 0 ns  Iteration: 7  Process: /uvm_pkg::uvm_phase::m_run_phases/#FORK#1847_7fefec463ba File: ../env/axi_coverage.sv Line: 72
# ** Warning: (vsim-8549) After dropping the illegal, ignore or invalid values, the values list associated with scalar bin 'single_byte' in Coverpoint 'cp_wstrb' of Covergroup instance '\/axi_env_pkg::axi_coverage::write_cov ' has converged to empty list. The bin will be taken out of coverage calculation.
#    Time: 0 ns  Iteration: 7  Region: /uvm_pkg::uvm_phase::m_run_phases
# ** Warning: (vsim-8474) A higher value '15' is found in bin 'all_bytes' of Coverpoint 'cp_wstrb'. It is invalid and will be ignored.
#    Time: 0 ns  Iteration: 7  Process: /uvm_pkg::uvm_phase::m_run_phases/#FORK#1847_7fefec463ba File: ../env/axi_coverage.sv Line: 73
# ** Warning: (vsim-8549) After dropping the illegal, ignore or invalid values, the values list associated with scalar bin 'all_bytes' in Coverpoint 'cp_wstrb' of Covergroup instance '\/axi_env_pkg::axi_coverage::write_cov ' has converged to empty list. The bin will be taken out of coverage calculation.
#    Time: 0 ns  Iteration: 7  Region: /uvm_pkg::uvm_phase::m_run_phases
# ** Warning: (vsim-8554) The expression 'binsof(cp_wstrb.single_byte)' inside the select expression of Bin 'invalid_wrap' of Cross 'STRB_CP' in Covergroup instance '\/axi_env_pkg::axi_coverage::write_cov ' is an empty user bin. The binsof expression will result in an empty set.
#    Time: 0 ns  Iteration: 7  Region: /uvm_pkg::uvm_phase::m_run_phases
# ** Warning: (vsim-8474) A higher value '4294967295' is found in bin 'all_ones' of Coverpoint 'cp_rdata'. It is invalid and will be ignored.
#    Time: 0 ns  Iteration: 7  Process: /uvm_pkg::uvm_phase::m_run_phases/#FORK#1847_7fefec463ba File: ../env/axi_coverage.sv Line: 141
# ** Warning: (vsim-8549) After dropping the illegal, ignore or invalid values, the values list associated with scalar bin 'all_ones' in Coverpoint 'cp_rdata' of Covergroup instance '\/axi_env_pkg::axi_coverage::read_cov ' has converged to empty list. The bin will be taken out of coverage calculation.
#    Time: 0 ns  Iteration: 7  Region: /uvm_pkg::uvm_phase::m_run_phases
# ** Warning: (vsim-8474) A higher value '1431655765' is found in bin 'toggle_01' of Coverpoint 'cp_rdata'. It is invalid and will be ignored.
#    Time: 0 ns  Iteration: 7  Process: /uvm_pkg::uvm_phase::m_run_phases/#FORK#1847_7fefec463ba File: ../env/axi_coverage.sv Line: 142
# ** Warning: (vsim-8474) A higher value '2863311530' is found in bin 'toggle_01' of Coverpoint 'cp_rdata'. It is invalid and will be ignored.
#    Time: 0 ns  Iteration: 7  Process: /uvm_pkg::uvm_phase::m_run_phases/#FORK#1847_7fefec463ba File: ../env/axi_coverage.sv Line: 142
# ** Warning: (vsim-8549) After dropping the illegal, ignore or invalid values, the values list associated with scalar bin 'toggle_01' in Coverpoint 'cp_rdata' of Covergroup instance '\/axi_env_pkg::axi_coverage::read_cov ' has converged to empty list. The bin will be taken out of coverage calculation.
#    Time: 0 ns  Iteration: 7  Region: /uvm_pkg::uvm_phase::m_run_phases
# ** Warning: (vsim-3881) ../env/axi_coverage.sv(143): Width conversion applied in bin 'other_data' for Coverpoint 'cp_rdata'. Value '1' changed to ' (maximum)' value.
#    Time: 0 ns  Iteration: 7  Region: /uvm_pkg::uvm_phase::m_run_phases
# ** Warning: (vsim-3881) ../env/axi_coverage.sv(143): Width conversion applied in bin 'other_data' for Coverpoint 'cp_rdata'. Value '4294901759' changed to ' (maximum)' value.
#    Time: 0 ns  Iteration: 7  Region: /uvm_pkg::uvm_phase::m_run_phases
# ** Warning: (vsim-8475) The invalid value range [1 : 4294901759] is found in bin 'other_data' of Coverpoint 'cp_rdata'. It will be ignored.
#    Time: 0 ns  Iteration: 7  Process: /uvm_pkg::uvm_phase::m_run_phases/#FORK#1847_7fefec463ba File: ../env/axi_coverage.sv Line: 143
# ** Warning: (vsim-8549) After dropping the illegal, ignore or invalid values, the values list associated with array bin 'other_data' in Coverpoint 'cp_rdata' of Covergroup instance '\/axi_env_pkg::axi_coverage::read_cov ' has converged to empty list. The bin will be taken out of coverage calculation.
#    Time: 0 ns  Iteration: 7  Region: /uvm_pkg::uvm_phase::m_run_phases
# UVM_INFO ../env/s_agent/axi_s_seqr.sv(25) @ 0: uvm_test_top.env_h.s_uvc_h.s_agent_h[0].s_seqr_h [Data in s seqr] Data got in slave seqr
# UVM_INFO @ 0: reporter [UVMTOP] UVM testbench topology:
# --------------------------------------------------------------------------------
# Name                             Type                                Size  Value
# --------------------------------------------------------------------------------
# uvm_test_top                     axi_wrap_test                       -     @479 
#   env_h                          axi_env                             -     @491 
#     m_uvc_h                      uvm_agent                           -     @513 
#       m_agent_h[0]               uvm_agent                           -     @693 
#         m_drv_h                  uvm_driver #(REQ,RSP)               -     @814 
#           rsp_port               uvm_analysis_port                   -     @829 
#           seq_item_port          uvm_seq_item_pull_port              -     @821 
#         m_mon_h                  axi_m_mon#(ADDR_WIDTH, DATA_WIDTH)  -     @837 
#           s_port                 uvm_analysis_port                   -     @844 
#         m_seqr_h                 uvm_sequencer                       -     @705 
#           rsp_export             uvm_analysis_export                 -     @712 
#           seq_item_export        uvm_seq_item_pull_imp               -     @806 
#           arbitration_queue      array                               0     -    
#           lock_queue             array                               0     -    
#           num_last_reqs          integral                            32    'd1  
#           num_last_rsps          integral                            32    'd1  
#     ref_model_h                  axi_ref_model                       -     @558 
#       mon_imp                    uvm_analysis_imp                    -     @565 
#       sb_imp                     uvm_analysis_port                   -     @573 
#     s_uvc_h                      uvm_agent                           -     @520 
#       s_agent_h[0]               uvm_agent                           -     @860 
#         s_drv_h                  uvm_driver #(REQ,RSP)               -     @1036
#           rsp_port               uvm_analysis_port                   -     @1051
#           seq_item_port          uvm_seq_item_pull_port              -     @1043
#         s_mon_h                  axi_s_mon#(ADDR_WIDTH, DATA_WIDTH)  -     @1059
#           s_port                 uvm_analysis_port                   -     @1066
#         s_seqr_h                 uvm_sequencer                       -     @872 
#           item_collected_export  uvm_analysis_export                 -     @981 
#           item_req_fifo          uvm_tlm_analysis_fifo #(T)          -     @989 
#             analysis_export      uvm_analysis_imp                    -     @1028
#             get_ap               uvm_analysis_port                   -     @1020
#             get_peek_export      uvm_get_peek_imp                    -     @1004
#             put_ap               uvm_analysis_port                   -     @1012
#             put_export           uvm_put_imp                         -     @996 
#           rsp_export             uvm_analysis_export                 -     @879 
#           seq_item_export        uvm_seq_item_pull_imp               -     @973 
#           arbitration_queue      array                               0     -    
#           lock_queue             array                               0     -    
#           num_last_reqs          integral                            32    'd1  
#           num_last_rsps          integral                            32    'd1  
#     sb_h                         axi_sb                              -     @527 
#       anl_imp_m                  uvm_analysis_imp_m                  -     @534 
#       anl_imp_ref                uvm_analysis_imp_ref                -     @542 
#     vseqr_h                      axi_virtual_seqr                    -     @581 
#       rsp_export                 uvm_analysis_export                 -     @588 
#       seq_item_export            uvm_seq_item_pull_imp               -     @682 
#       arbitration_queue          array                               0     -    
#       lock_queue                 array                               0     -    
#       num_last_reqs              integral                            32    'd1  
#       num_last_rsps              integral                            32    'd1  
# --------------------------------------------------------------------------------
# 
# UVM_INFO ../env/axi_sb.sv(76) @ 0: uvm_test_top.env_h.sb_h [before event in sb] aaaa
# UVM_INFO ../env/m_agent/axi_m_mon.sv(28) @ 0: uvm_test_top.env_h.m_uvc_h.m_agent_h[0].m_mon_h [M MON RUN PHASE before] Inside master mon run phase
# UVM_INFO ../env/m_agent/axi_m_mon.sv(36) @ 0: uvm_test_top.env_h.m_uvc_h.m_agent_h[0].m_mon_h [M MON run PHASE after] Inside master mon
# UVM_INFO ../env/m_agent/axi_m_mon.sv(41) @ 0: uvm_test_top.env_h.m_uvc_h.m_agent_h[0].m_mon_h [M MON write addr PHASE before] Inside master mon
# UVM_INFO ../env/m_agent/axi_m_mon.sv(60) @ 0: uvm_test_top.env_h.m_uvc_h.m_agent_h[0].m_mon_h [M MON write data PHASE before] Inside master mon
# UVM_INFO ../env/m_agent/axi_m_mon.sv(99) @ 0: uvm_test_top.env_h.m_uvc_h.m_agent_h[0].m_mon_h [M MON read addr PHASE before] Inside master mon
# UVM_INFO ../env/m_agent/axi_m_mon.sv(118) @ 0: uvm_test_top.env_h.m_uvc_h.m_agent_h[0].m_mon_h [M MON read data PHASE before] Inside master mon
# Before AW CHANNEL
# Before W CHANNEL
# Before AR CHANNEL
# Before R CHANNEL
# AWLEN IN M DRV:3
# cnt : 1
# AWLEN IN M DRV:3
# cnt : 2
# AWLEN IN M DRV:3
# cnt : 3
# AWLEN IN M DRV:1
# cnt : 4
# AWLEN IN M DRV:1
# cnt : 5
# AWLEN IN M DRV:1
# cnt : 6
# AWLEN IN M DRV:1
# cnt : 7
# AWLEN IN M DRV:3
# cnt : 8
# AWLEN IN M DRV:7
# cnt : 9
# AWLEN IN M DRV:1
# cnt : 10
# AWLEN IN M DRV:15
# cnt : 11
# AWLEN IN M DRV:1
# cnt : 12
# AWLEN IN M DRV:1
# cnt : 13
# AWLEN IN M DRV:3
# cnt : 14
# AWLEN IN M DRV:15
# cnt : 15
# AWLEN IN M DRV:1
# cnt : 16
# AWLEN IN M DRV:1
# cnt : 17
# AWLEN IN M DRV:3
# cnt : 18
# AWLEN IN M DRV:7
# cnt : 19
# AWLEN IN M DRV:1
# cnt : 20
# AWLEN IN M DRV:15
# cnt : 21
# AWLEN IN M DRV:1
# cnt : 22
# AWLEN IN M DRV:3
# cnt : 23
# AWLEN IN M DRV:1
# cnt : 24
# AWLEN IN M DRV:7
# cnt : 25
# AWLEN IN M DRV:1
# cnt : 26
# AWLEN IN M DRV:15
# cnt : 27
# AWLEN IN M DRV:1
# cnt : 28
# AWLEN IN M DRV:1
# cnt : 29
# AWLEN IN M DRV:1
# cnt : 30
# AWLEN IN M DRV:15
# cnt : 31
# AWLEN IN M DRV:3
# cnt : 32
# AWLEN IN M DRV:1
# cnt : 33
# AWLEN IN M DRV:15
# cnt : 34
# AWLEN IN M DRV:3
# cnt : 35
# AWLEN IN M DRV:15
# cnt : 36
# AWLEN IN M DRV:3
# cnt : 37
# AWLEN IN M DRV:3
# cnt : 38
# AWLEN IN M DRV:1
# cnt : 39
# AWLEN IN M DRV:3
# cnt : 40
# AWLEN IN M DRV:1
# cnt : 41
# AWLEN IN M DRV:1
# cnt : 42
# AWLEN IN M DRV:1
# cnt : 43
# AWLEN IN M DRV:3
# cnt : 44
# AWLEN IN M DRV:1
# cnt : 45
# AWLEN IN M DRV:1
# cnt : 46
# AWLEN IN M DRV:3
# cnt : 47
# AWLEN IN M DRV:3
# cnt : 48
# AWLEN IN M DRV:1
# cnt : 49
# AWLEN IN M DRV:15
# cnt : 50
# AWLEN IN M DRV:1
# cnt : 51
# AWLEN IN M DRV:7
# cnt : 52
# AWLEN IN M DRV:3
# cnt : 53
# AWLEN IN M DRV:3
# cnt : 54
# AWLEN IN M DRV:15
# cnt : 55
# AWLEN IN M DRV:7
# cnt : 56
# AWLEN IN M DRV:3
# cnt : 57
# AWLEN IN M DRV:15
# cnt : 58
# AWLEN IN M DRV:15
# cnt : 59
# AWLEN IN M DRV:3
# cnt : 60
# AWLEN IN M DRV:1
# cnt : 61
# AWLEN IN M DRV:7
# cnt : 62
# AWLEN IN M DRV:1
# cnt : 63
# AWLEN IN M DRV:3
# cnt : 64
# AWLEN IN M DRV:1
# cnt : 65
# AWLEN IN M DRV:1
# cnt : 66
# AWLEN IN M DRV:7
# cnt : 67
# AWLEN IN M DRV:1
# cnt : 68
# AWLEN IN M DRV:7
# cnt : 69
# AWLEN IN M DRV:3
# cnt : 70
# AWLEN IN M DRV:3
# cnt : 71
# AWLEN IN M DRV:1
# cnt : 72
# AWLEN IN M DRV:1
# cnt : 73
# AWLEN IN M DRV:1
# cnt : 74
# AWLEN IN M DRV:1
# cnt : 75
# AWLEN IN M DRV:1
# cnt : 76
# AWLEN IN M DRV:3
# cnt : 77
# AWLEN IN M DRV:1
# cnt : 78
# AWLEN IN M DRV:15
# cnt : 79
# AWLEN IN M DRV:1
# cnt : 80
# AWLEN IN M DRV:1
# cnt : 81
# AWLEN IN M DRV:1
# cnt : 82
# AWLEN IN M DRV:1
# cnt : 83
# AWLEN IN M DRV:3
# cnt : 84
# AWLEN IN M DRV:1
# cnt : 85
# AWLEN IN M DRV:1
# cnt : 86
# AWLEN IN M DRV:1
# cnt : 87
# AWLEN IN M DRV:1
# cnt : 88
# AWLEN IN M DRV:1
# cnt : 89
# AWLEN IN M DRV:1
# cnt : 90
# AWLEN IN M DRV:1
# cnt : 91
# AWLEN IN M DRV:3
# cnt : 92
# AWLEN IN M DRV:15
# cnt : 93
# AWLEN IN M DRV:3
# cnt : 94
# AWLEN IN M DRV:3
# cnt : 95
# AWLEN IN M DRV:15
# cnt : 96
# AWLEN IN M DRV:1
# cnt : 97
# AWLEN IN M DRV:1
# cnt : 98
# AWLEN IN M DRV:3
# cnt : 99
# AWLEN IN M DRV:15
# cnt : 100
# AWLEN IN M DRV:1
# cnt : 101
# AWLEN IN M DRV:15
# cnt : 102
# AWLEN IN M DRV:1
# cnt : 103
# AWLEN IN M DRV:15
# cnt : 104
# AWLEN IN M DRV:1
# cnt : 105
# AWLEN IN M DRV:7
# cnt : 106
# AWLEN IN M DRV:1
# cnt : 107
# AWLEN IN M DRV:1
# cnt : 108
# AWLEN IN M DRV:15
# cnt : 109
# AWLEN IN M DRV:3
# cnt : 110
# AWLEN IN M DRV:15
# cnt : 111
# AWLEN IN M DRV:1
# cnt : 112
# AWLEN IN M DRV:15
# cnt : 113
# AWLEN IN M DRV:1
# cnt : 114
# AWLEN IN M DRV:3
# cnt : 115
# AWLEN IN M DRV:1
# cnt : 116
# AWLEN IN M DRV:1
# cnt : 117
# AWLEN IN M DRV:7
# cnt : 118
# AWLEN IN M DRV:15
# cnt : 119
# AWLEN IN M DRV:1
# cnt : 120
# AWLEN IN M DRV:1
# cnt : 121
# AWLEN IN M DRV:15
# cnt : 122
# AWLEN IN M DRV:1
# cnt : 123
# AWLEN IN M DRV:3
# cnt : 124
# AWLEN IN M DRV:1
# cnt : 125
# AWLEN IN M DRV:7
# cnt : 126
# AWLEN IN M DRV:1
# cnt : 127
# AWLEN IN M DRV:1
# cnt : 128
# AWLEN IN M DRV:7
# cnt : 129
# AWLEN IN M DRV:15
# cnt : 130
# AWLEN IN M DRV:1
# cnt : 131
# AWLEN IN M DRV:3
# cnt : 132
# AWLEN IN M DRV:7
# cnt : 133
# AWLEN IN M DRV:1
# cnt : 134
# AWLEN IN M DRV:3
# cnt : 135
# AWLEN IN M DRV:1
# cnt : 136
# AWLEN IN M DRV:7
# cnt : 137
# AWLEN IN M DRV:3
# cnt : 138
# AWLEN IN M DRV:1
# cnt : 139
# AWLEN IN M DRV:1
# cnt : 140
# AWLEN IN M DRV:7
# cnt : 141
# AWLEN IN M DRV:3
# cnt : 142
# AWLEN IN M DRV:1
# cnt : 143
# AWLEN IN M DRV:3
# cnt : 144
# AWLEN IN M DRV:7
# cnt : 145
# AWLEN IN M DRV:1
# cnt : 146
# AWLEN IN M DRV:15
# cnt : 147
# AWLEN IN M DRV:7
# cnt : 148
# AWLEN IN M DRV:7
# cnt : 149
# AWLEN IN M DRV:1
# cnt : 150
# AWLEN IN M DRV:15
# cnt : 151
# AWLEN IN M DRV:1
# cnt : 152
# AWLEN IN M DRV:3
# cnt : 153
# AWLEN IN M DRV:3
# cnt : 154
# AWLEN IN M DRV:1
# cnt : 155
# AWLEN IN M DRV:1
# cnt : 156
# AWLEN IN M DRV:1
# cnt : 157
# AWLEN IN M DRV:1
# cnt : 158
# AWLEN IN M DRV:15
# cnt : 159
# AWLEN IN M DRV:1
# cnt : 160
# AWLEN IN M DRV:3
# cnt : 161
# AWLEN IN M DRV:15
# cnt : 162
# AWLEN IN M DRV:1
# cnt : 163
# AWLEN IN M DRV:1
# cnt : 164
# AWLEN IN M DRV:3
# cnt : 165
# AWLEN IN M DRV:7
# cnt : 166
# AWLEN IN M DRV:1
# cnt : 167
# AWLEN IN M DRV:1
# cnt : 168
# AWLEN IN M DRV:3
# cnt : 169
# AWLEN IN M DRV:15
# cnt : 170
# AWLEN IN M DRV:1
# cnt : 171
# AWLEN IN M DRV:1
# cnt : 172
# AWLEN IN M DRV:3
# cnt : 173
# AWLEN IN M DRV:7
# cnt : 174
# AWLEN IN M DRV:1
# cnt : 175
# AWLEN IN M DRV:3
# cnt : 176
# AWLEN IN M DRV:15
# cnt : 177
# AWLEN IN M DRV:1
# cnt : 178
# AWLEN IN M DRV:3
# cnt : 179
# AWLEN IN M DRV:1
# cnt : 180
# AWLEN IN M DRV:3
# cnt : 181
# AWLEN IN M DRV:1
# cnt : 182
# AWLEN IN M DRV:3
# cnt : 183
# AWLEN IN M DRV:3
# cnt : 184
# AWLEN IN M DRV:3
# cnt : 185
# AWLEN IN M DRV:1
# cnt : 186
# AWLEN IN M DRV:1
# cnt : 187
# AWLEN IN M DRV:7
# cnt : 188
# AWLEN IN M DRV:1
# cnt : 189
# AWLEN IN M DRV:1
# cnt : 190
# AWLEN IN M DRV:15
# cnt : 191
# AWLEN IN M DRV:1
# cnt : 192
# AWLEN IN M DRV:7
# cnt : 193
# AWLEN IN M DRV:1
# cnt : 194
# AWLEN IN M DRV:3
# cnt : 195
# AWLEN IN M DRV:3
# cnt : 196
# AWLEN IN M DRV:1
# cnt : 197
# AWLEN IN M DRV:7
# cnt : 198
# AWLEN IN M DRV:7
# cnt : 199
# AWLEN IN M DRV:15
# cnt : 200
# INIDE_SLAVE_MON_CTR=1
# arid in s mon : 60203
# m mon ar id : eb2b
# INIDE_SLAVE_MON_CTR=2
# arid in s mon : 59707
# m mon ar id : e93b
# abc : 1
# ref model mem : 2038146880
# abc : 2
# ref model mem : 2038146888
# abc : 3
# ref model mem : 2038146896
# abc : 4
# ref model mem : 2038146904
# xyz : 1
# xyz : 2
# xyz : 3
# xyz : 4
# INIDE_SLAVE_MON_CTR=3
# arid in s mon : 59859
# AFFTER W CHANNEL
# m mon ar id : e9d3
# match arid : 0 , rid : 0
# UVM_INFO ../env/s_agent/axi_s_drv.sv(31) @ 45: uvm_test_top.env_h.s_uvc_h.s_agent_h[0].s_drv_h [ID MATCH] aaaaa
# s seqs arid : 60203
# INIDE_SLAVE_SEQ_CTR=1
# match arid : eb2b , rid : eb2b
# UVM_INFO ../env/s_agent/axi_s_drv.sv(31) @ 45: uvm_test_top.env_h.s_uvc_h.s_agent_h[0].s_drv_h [ID MATCH] aaaaa
# rd data in s drv: e179b080 , len : 3 , last:0 , valid : 1
# INIDE_SLAVE_MON_CTR=4
# arid in s mon : 10426
# m mon ar id : 28ba
# m mon rid : eb2b
# rd data in s drv: 5ade4b3 , len : 3 , last:0 , valid : 1
# INIDE_SLAVE_MON_CTR=5
# arid in s mon : 61524
# m mon rid : eb2b
# m mon ar id : f054
# req wid : 48469 , bid:48469
# UVM_INFO ../env/m_agent/axi_base_m_seqs.sv(26) @ 65: uvm_test_top.env_h.m_uvc_h.m_agent_h[0].m_seqr_h@@vseqs_h.m_wseqs_h [IN V SEQS] Got B-channel response from driver
# rd data in s drv: 55d992b7 , len : 3 , last:0 , valid : 1
# INIDE_SLAVE_MON_CTR=6
# arid in s mon : 26459
# m mon ar id : 675b
# m mon rid : eb2b
# rd data in s drv: edb2c52b , len : 3 , last:1 , valid : 1
# abc : 1
# ref model mem : 2477720896
# abc : 2
# ref model mem : 2477720904
# abc : 3
# ref model mem : 2477720912
# abc : 4
# ref model mem : 2477720920
# xyz : 1
# xyz : 2
# xyz : 3
# xyz : 4
# INIDE_SLAVE_MON_CTR=7
# arid in s mon : 22357
# AFFTER W CHANNEL
# req kind : READ
# m mon rid : eb2b
# m mon ar id : 5755
# UVM_INFO ../env/axi_sb.sv(78) @ 85: uvm_test_top.env_h.sb_h [after event in sb] aaaa
# UVM_INFO ../env/axi_sb.sv(76) @ 85: uvm_test_top.env_h.sb_h [before event in sb] aaaa
# match arid : 0 , rid : 0
# UVM_INFO ../env/s_agent/axi_s_drv.sv(31) @ 85: uvm_test_top.env_h.s_uvc_h.s_agent_h[0].s_drv_h [ID MATCH] aaaaa
# s seqs arid : 59707
# INIDE_SLAVE_SEQ_CTR=2
# match arid : e93b , rid : e93b
# UVM_INFO ../env/s_agent/axi_s_drv.sv(31) @ 85: uvm_test_top.env_h.s_uvc_h.s_agent_h[0].s_drv_h [ID MATCH] aaaaa
# rd data in s drv: 766d2096 , len : 3 , last:0 , valid : 1
# INIDE_SLAVE_MON_CTR=8
# arid in s mon : 58966
# m mon ar id : e656
# m mon rid : e93b
# rd data in s drv: c6d5f5ef , len : 3 , last:0 , valid : 1
# abc : 1
# ref model mem : 3840134672
# abc : 2
# ref model mem : 3840134680
# xyz : 1
# xyz : 2
# INIDE_SLAVE_MON_CTR=9
# arid in s mon : 64759
# AFFTER W CHANNEL
# m mon rid : e93b
# m mon ar id : fcf7
# req wid : 48924 , bid:48924
# UVM_INFO ../env/m_agent/axi_base_m_seqs.sv(26) @ 105: uvm_test_top.env_h.m_uvc_h.m_agent_h[0].m_seqr_h@@vseqs_h.m_wseqs_h [IN V SEQS] Got B-channel response from driver
# match arid : 0 , rid : 0
# UVM_INFO ../env/s_agent/axi_s_drv.sv(31) @ 105: uvm_test_top.env_h.s_uvc_h.s_agent_h[0].s_drv_h [ID MATCH] aaaaa
# s seqs arid : 59859
# INIDE_SLAVE_SEQ_CTR=3
# match arid : e9d3 , rid : e9d3
# UVM_INFO ../env/s_agent/axi_s_drv.sv(31) @ 105: uvm_test_top.env_h.s_uvc_h.s_agent_h[0].s_drv_h [ID MATCH] aaaaa
# rd data in s drv: b8665e42 , len : 3 , last:0 , valid : 1
# INIDE_SLAVE_MON_CTR=10
# arid in s mon : 43156
# m mon ar id : a894
# m mon rid : e93b
# rd data in s drv: eaba05fa , len : 3 , last:1 , valid : 1
# abc : 1
# ref model mem : 1466994416
# abc : 2
# ref model mem : 1466994424
# xyz : 1
# xyz : 2
# INIDE_SLAVE_MON_CTR=11
# arid in s mon : 52439
# AFFTER W CHANNEL
# req kind : READ
# m mon rid : e93b
# m mon ar id : ccd7
# req wid : 11091 , bid:11091
# UVM_INFO ../env/m_agent/axi_base_m_seqs.sv(26) @ 125: uvm_test_top.env_h.m_uvc_h.m_agent_h[0].m_seqr_h@@vseqs_h.m_wseqs_h [IN V SEQS] Got B-channel response from driver
# UVM_INFO ../env/axi_sb.sv(78) @ 125: uvm_test_top.env_h.sb_h [after event in sb] aaaa
# UVM_INFO ../env/axi_sb.sv(76) @ 125: uvm_test_top.env_h.sb_h [before event in sb] aaaa
# match arid : 0 , rid : 0
# UVM_INFO ../env/s_agent/axi_s_drv.sv(31) @ 125: uvm_test_top.env_h.s_uvc_h.s_agent_h[0].s_drv_h [ID MATCH] aaaaa
# s seqs arid : 10426
# INIDE_SLAVE_SEQ_CTR=4
# match arid : 28ba , rid : 28ba
# UVM_INFO ../env/s_agent/axi_s_drv.sv(31) @ 125: uvm_test_top.env_h.s_uvc_h.s_agent_h[0].s_drv_h [ID MATCH] aaaaa
# rd data in s drv: 4542837f , len : 1 , last:0 , valid : 1
# INIDE_SLAVE_MON_CTR=12
# arid in s mon : 4905
# m mon ar id : 1329
# m mon rid : e9d3
# rd data in s drv: 3b27ee47 , len : 1 , last:1 , valid : 1
# INIDE_SLAVE_MON_CTR=13
# arid in s mon : 35577
# req kind : READ
# m mon rid : e9d3
# m mon ar id : 8af9
# req wid : 42546 , bid:42546
# UVM_INFO ../env/m_agent/axi_base_m_seqs.sv(26) @ 145: uvm_test_top.env_h.m_uvc_h.m_agent_h[0].m_seqr_h@@vseqs_h.m_wseqs_h [IN V SEQS] Got B-channel response from driver
# UVM_INFO ../env/axi_sb.sv(78) @ 145: uvm_test_top.env_h.sb_h [after event in sb] aaaa
# UVM_INFO ../env/axi_sb.sv(76) @ 145: uvm_test_top.env_h.sb_h [before event in sb] aaaa
# rd data in s drv: 7ef31ad8 , len : 1 , last:0 , valid : 1
# INIDE_SLAVE_MON_CTR=14
# arid in s mon : 25219
# m mon ar id : 6283
# m mon rid : 28ba
# rd data in s drv: 400041b1 , len : 1 , last:1 , valid : 1
# INIDE_SLAVE_MON_CTR=15
# arid in s mon : 47995
# req kind : READ
# m mon rid : 28ba
# m mon ar id : bb7b
# UVM_INFO ../env/axi_sb.sv(78) @ 165: uvm_test_top.env_h.sb_h [after event in sb] aaaa
# UVM_INFO ../env/axi_sb.sv(76) @ 165: uvm_test_top.env_h.sb_h [before event in sb] aaaa
# INIDE_SLAVE_MON_CTR=16
# arid in s mon : 51276
# m mon ar id : c84c
# INIDE_SLAVE_MON_CTR=17
# arid in s mon : 44353
# m mon ar id : ad41
# INIDE_SLAVE_MON_CTR=18
# arid in s mon : 34273
# m mon ar id : 85e1
# abc : 1
# ref model mem : 547683968
# abc : 2
# ref model mem : 547683976
# abc : 3
# ref model mem : 547683984
# abc : 4
# ref model mem : 547683992
# abc : 5
# ref model mem : 547684000
# abc : 6
# ref model mem : 547684008
# abc : 7
# ref model mem : 547684016
# abc : 8
# ref model mem : 547684024
# xyz : 1
# xyz : 2
# xyz : 3
# xyz : 4
# xyz : 5
# xyz : 6
# xyz : 7
# xyz : 8
# INIDE_SLAVE_MON_CTR=19
# arid in s mon : 40878
# AFFTER W CHANNEL
# m mon ar id : 9fae
# match arid : 0 , rid : 0
# UVM_INFO ../env/s_agent/axi_s_drv.sv(31) @ 205: uvm_test_top.env_h.s_uvc_h.s_agent_h[0].s_drv_h [ID MATCH] aaaaa
# s seqs arid : 61524
# INIDE_SLAVE_SEQ_CTR=5
# match arid : f054 , rid : f054
# UVM_INFO ../env/s_agent/axi_s_drv.sv(31) @ 205: uvm_test_top.env_h.s_uvc_h.s_agent_h[0].s_drv_h [ID MATCH] aaaaa
# rd data in s drv: 90e411e0 , len : 7 , last:0 , valid : 1
# INIDE_SLAVE_MON_CTR=20
# arid in s mon : 65033
# m mon ar id : fe09
# m mon rid : f054
# rd data in s drv: 7c5cf680 , len : 7 , last:0 , valid : 1
# INIDE_SLAVE_MON_CTR=21
# arid in s mon : 39064
# m mon rid : f054
# m mon ar id : 9898
# req wid : 32817 , bid:32817
# UVM_INFO ../env/m_agent/axi_base_m_seqs.sv(26) @ 225: uvm_test_top.env_h.m_uvc_h.m_agent_h[0].m_seqr_h@@vseqs_h.m_wseqs_h [IN V SEQS] Got B-channel response from driver
# rd data in s drv: cdcb11b4 , len : 7 , last:0 , valid : 1
# INIDE_SLAVE_MON_CTR=22
# arid in s mon : 62773
# m mon ar id : f535
# m mon rid : f054
# rd data in s drv: e77068cf , len : 7 , last:0 , valid : 1
# INIDE_SLAVE_MON_CTR=23
# arid in s mon : 60350
# m mon rid : f054
# m mon ar id : ebbe
# rd data in s drv: e748098f , len : 7 , last:0 , valid : 1
# INIDE_SLAVE_MON_CTR=24
# arid in s mon : 45043
# m mon ar id : aff3
# m mon rid : f054
# rd data in s drv: bda1c34e , len : 7 , last:0 , valid : 1
# INIDE_SLAVE_MON_CTR=25
# arid in s mon : 15796
# m mon rid : f054
# m mon ar id : 3db4
# rd data in s drv: 21d79332 , len : 7 , last:0 , valid : 1
# INIDE_SLAVE_MON_CTR=26
# arid in s mon : 64427
# m mon ar id : fbab
# m mon rid : f054
# rd data in s drv: 5e2db49 , len : 7 , last:1 , valid : 1
# INIDE_SLAVE_MON_CTR=27
# arid in s mon : 15132
# req kind : READ
# m mon rid : f054
# m mon ar id : 3b1c
# UVM_INFO ../env/axi_sb.sv(78) @ 285: uvm_test_top.env_h.sb_h [after event in sb] aaaa
# UVM_INFO ../env/axi_sb.sv(76) @ 285: uvm_test_top.env_h.sb_h [before event in sb] aaaa
# INIDE_SLAVE_MON_CTR=28
# arid in s mon : 25003
# m mon ar id : 61ab
# INIDE_SLAVE_MON_CTR=29
# arid in s mon : 51408
# m mon ar id : c8d0
# INIDE_SLAVE_MON_CTR=30
# arid in s mon : 29970
# m mon ar id : 7512
# INIDE_SLAVE_MON_CTR=31
# arid in s mon : 11395
# m mon ar id : 2c83
# INIDE_SLAVE_MON_CTR=32
# arid in s mon : 43166
# m mon ar id : a89e
# INIDE_SLAVE_MON_CTR=33
# arid in s mon : 11187
# m mon ar id : 2bb3
# INIDE_SLAVE_MON_CTR=34
# arid in s mon : 5180
# m mon ar id : 143c
# abc : 1
# ref model mem : 1956180096
# abc : 2
# ref model mem : 1956180104
# abc : 3
# ref model mem : 1956180112
# abc : 4
# ref model mem : 1956180120
# abc : 5
# ref model mem : 1956180128
# abc : 6
# ref model mem : 1956180136
# abc : 7
# ref model mem : 1956180144
# abc : 8
# ref model mem : 1956180152
# abc : 9
# ref model mem : 1956180160
# abc : 10
# ref model mem : 1956180168
# abc : 11
# ref model mem : 1956180176
# abc : 12
# ref model mem : 1956180184
# abc : 13
# ref model mem : 1956180192
# abc : 14
# ref model mem : 1956180200
# abc : 15
# ref model mem : 1956180208
# abc : 16
# ref model mem : 1956180216
# xyz : 1
# xyz : 2
# xyz : 3
# xyz : 4
# xyz : 5
# xyz : 6
# xyz : 7
# xyz : 8
# xyz : 9
# xyz : 10
# xyz : 11
# xyz : 12
# xyz : 13
# xyz : 14
# xyz : 15
# xyz : 16
# INIDE_SLAVE_MON_CTR=35
# arid in s mon : 33047
# AFFTER W CHANNEL
# m mon ar id : 8117
# match arid : 0 , rid : 0
# UVM_INFO ../env/s_agent/axi_s_drv.sv(31) @ 365: uvm_test_top.env_h.s_uvc_h.s_agent_h[0].s_drv_h [ID MATCH] aaaaa
# s seqs arid : 26459
# INIDE_SLAVE_SEQ_CTR=6
# match arid : 675b , rid : 675b
# UVM_INFO ../env/s_agent/axi_s_drv.sv(31) @ 365: uvm_test_top.env_h.s_uvc_h.s_agent_h[0].s_drv_h [ID MATCH] aaaaa
# rd data in s drv: e692a955 , len : 15 , last:0 , valid : 1
# INIDE_SLAVE_MON_CTR=36
# arid in s mon : 41870
# m mon ar id : a38e
# m mon rid : 675b
# rd data in s drv: 5e5d6ae8 , len : 15 , last:0 , valid : 1
# abc : 1
# ref model mem : 4240419552
# abc : 2
# ref model mem : 4240419560
# xyz : 1
# xyz : 2
# INIDE_SLAVE_MON_CTR=37
# arid in s mon : 14176
# AFFTER W CHANNEL
# m mon rid : 675b
# m mon ar id : 3760
# req wid : 64272 , bid:64272
# UVM_INFO ../env/m_agent/axi_base_m_seqs.sv(26) @ 385: uvm_test_top.env_h.m_uvc_h.m_agent_h[0].m_seqr_h@@vseqs_h.m_wseqs_h [IN V SEQS] Got B-channel response from driver
# match arid : 0 , rid : 0
# UVM_INFO ../env/s_agent/axi_s_drv.sv(31) @ 385: uvm_test_top.env_h.s_uvc_h.s_agent_h[0].s_drv_h [ID MATCH] aaaaa
# s seqs arid : 22357
# INIDE_SLAVE_SEQ_CTR=7
# match arid : 5755 , rid : 5755
# UVM_INFO ../env/s_agent/axi_s_drv.sv(31) @ 385: uvm_test_top.env_h.s_uvc_h.s_agent_h[0].s_drv_h [ID MATCH] aaaaa
# rd data in s drv: 2e5cdf84 , len : 15 , last:0 , valid : 1
# INIDE_SLAVE_MON_CTR=38
# arid in s mon : 15499
# m mon ar id : 3c8b
# m mon rid : 675b
# rd data in s drv: 85dca7b4 , len : 15 , last:0 , valid : 1
# INIDE_SLAVE_MON_CTR=39
# arid in s mon : 29379
# m mon rid : 675b
# m mon ar id : 72c3
# req wid : 48097 , bid:48097
# UVM_INFO ../env/m_agent/axi_base_m_seqs.sv(26) @ 405: uvm_test_top.env_h.m_uvc_h.m_agent_h[0].m_seqr_h@@vseqs_h.m_wseqs_h [IN V SEQS] Got B-channel response from driver
# rd data in s drv: a29faa36 , len : 15 , last:0 , valid : 1
# INIDE_SLAVE_MON_CTR=40
# arid in s mon : 11568
# m mon ar id : 2d30
# m mon rid : 675b
# rd data in s drv: d6eb0a92 , len : 15 , last:0 , valid : 1
# INIDE_SLAVE_MON_CTR=41
# arid in s mon : 16179
# m mon rid : 675b
# m mon ar id : 3f33
# rd data in s drv: e73ddebe , len : 15 , last:0 , valid : 1
# INIDE_SLAVE_MON_CTR=42
# arid in s mon : 60092
# m mon ar id : eabc
# m mon rid : 675b
# rd data in s drv: de58f65a , len : 15 , last:0 , valid : 1
# INIDE_SLAVE_MON_CTR=43
# arid in s mon : 36315
# m mon rid : 675b
# m mon ar id : 8ddb
# rd data in s drv: c4621ac7 , len : 15 , last:0 , valid : 1
# INIDE_SLAVE_MON_CTR=44
# arid in s mon : 5087
# m mon ar id : 13df
# m mon rid : 675b
# rd data in s drv: 39ddeae8 , len : 15 , last:0 , valid : 1
# INIDE_SLAVE_MON_CTR=45
# arid in s mon : 47476
# m mon rid : 675b
# m mon ar id : b974
# rd data in s drv: 9dd4f93e , len : 15 , last:0 , valid : 1
# INIDE_SLAVE_MON_CTR=46
# arid in s mon : 36504
# m mon ar id : 8e98
# m mon rid : 675b
# rd data in s drv: a19d830f , len : 15 , last:0 , valid : 1
# INIDE_SLAVE_MON_CTR=47
# arid in s mon : 22723
# m mon rid : 675b
# m mon ar id : 58c3
# rd data in s drv: 8714b927 , len : 15 , last:0 , valid : 1
# INIDE_SLAVE_MON_CTR=48
# arid in s mon : 50465
# m mon ar id : c521
# m mon rid : 675b
# rd data in s drv: 4e6f6152 , len : 15 , last:0 , valid : 1
# INIDE_SLAVE_MON_CTR=49
# arid in s mon : 9563
# m mon rid : 675b
# m mon ar id : 255b
# rd data in s drv: 83b164bb , len : 15 , last:0 , valid : 1
# INIDE_SLAVE_MON_CTR=50
# arid in s mon : 12754
# m mon ar id : 31d2
# m mon rid : 675b
# rd data in s drv: b2e22138 , len : 15 , last:1 , valid : 1
# INIDE_SLAVE_MON_CTR=51
# arid in s mon : 32108
# req kind : READ
# m mon rid : 675b
# m mon ar id : 7d6c
# UVM_INFO ../env/axi_sb.sv(78) @ 525: uvm_test_top.env_h.sb_h [after event in sb] aaaa
# UVM_INFO ../env/axi_sb.sv(76) @ 525: uvm_test_top.env_h.sb_h [before event in sb] aaaa
# rd data in s drv: 2b2d318 , len : 1 , last:0 , valid : 1
# INIDE_SLAVE_MON_CTR=52
# arid in s mon : 12915
# m mon ar id : 3273
# m mon rid : 5755
# rd data in s drv: 372f0987 , len : 1 , last:1 , valid : 1
# abc : 1
# ref model mem : 3657785472
# abc : 2
# ref model mem : 3657785480
# abc : 3
# ref model mem : 3657785488
# abc : 4
# ref model mem : 3657785496
# abc : 5
# ref model mem : 3657785504
# abc : 6
# ref model mem : 3657785512
# abc : 7
# ref model mem : 3657785520
# abc : 8
# ref model mem : 3657785528
# abc : 9
# ref model mem : 3657785536
# abc : 10
# ref model mem : 3657785544
# abc : 11
# ref model mem : 3657785552
# abc : 12
# ref model mem : 3657785560
# abc : 13
# ref model mem : 3657785568
# abc : 14
# ref model mem : 3657785576
# abc : 15
# ref model mem : 3657785584
# abc : 16
# ref model mem : 3657785592
# xyz : 1
# xyz : 2
# xyz : 3
# xyz : 4
# xyz : 5
# xyz : 6
# xyz : 7
# xyz : 8
# xyz : 9
# xyz : 10
# xyz : 11
# xyz : 12
# xyz : 13
# xyz : 14
# xyz : 15
# xyz : 16
# INIDE_SLAVE_MON_CTR=53
# arid in s mon : 58420
# AFFTER W CHANNEL
# req kind : READ
# m mon rid : 5755
# m mon ar id : e434
# UVM_INFO ../env/axi_sb.sv(78) @ 545: uvm_test_top.env_h.sb_h [after event in sb] aaaa
# UVM_INFO ../env/axi_sb.sv(76) @ 545: uvm_test_top.env_h.sb_h [before event in sb] aaaa
# match arid : 0 , rid : 0
# UVM_INFO ../env/s_agent/axi_s_drv.sv(31) @ 545: uvm_test_top.env_h.s_uvc_h.s_agent_h[0].s_drv_h [ID MATCH] aaaaa
# s seqs arid : 58966
# INIDE_SLAVE_SEQ_CTR=8
# match arid : e656 , rid : e656
# UVM_INFO ../env/s_agent/axi_s_drv.sv(31) @ 545: uvm_test_top.env_h.s_uvc_h.s_agent_h[0].s_drv_h [ID MATCH] aaaaa
# rd data in s drv: d7aab9f7 , len : 15 , last:0 , valid : 1
# INIDE_SLAVE_MON_CTR=54
# arid in s mon : 21916
# m mon ar id : 559c
# m mon rid : e656
# rd data in s drv: baee7d8 , len : 15 , last:0 , valid : 1
# abc : 1
# ref model mem : 438253536
# abc : 2
# ref model mem : 438253544
# xyz : 1
# xyz : 2
# INIDE_SLAVE_MON_CTR=55
# arid in s mon : 31141
# AFFTER W CHANNEL
# m mon rid : e656
# m mon ar id : 79a5
# req wid : 48149 , bid:48149
# UVM_INFO ../env/m_agent/axi_base_m_seqs.sv(26) @ 565: uvm_test_top.env_h.m_uvc_h.m_agent_h[0].m_seqr_h@@vseqs_h.m_wseqs_h [IN V SEQS] Got B-channel response from driver
# match arid : 0 , rid : 0
# UVM_INFO ../env/s_agent/axi_s_drv.sv(31) @ 565: uvm_test_top.env_h.s_uvc_h.s_agent_h[0].s_drv_h [ID MATCH] aaaaa
# s seqs arid : 64759
# INIDE_SLAVE_SEQ_CTR=9
# match arid : fcf7 , rid : fcf7
# UVM_INFO ../env/s_agent/axi_s_drv.sv(31) @ 565: uvm_test_top.env_h.s_uvc_h.s_agent_h[0].s_drv_h [ID MATCH] aaaaa
# rd data in s drv: e174315a , len : 15 , last:0 , valid : 1
# INIDE_SLAVE_MON_CTR=56
# arid in s mon : 36107
# m mon ar id : 8d0b
# m mon rid : e656
# rd data in s drv: 502c68b6 , len : 15 , last:0 , valid : 1
# INIDE_SLAVE_MON_CTR=57
# arid in s mon : 65117
# m mon rid : e656
# m mon ar id : fe5d
# req wid : 23496 , bid:23496
# UVM_INFO ../env/m_agent/axi_base_m_seqs.sv(26) @ 585: uvm_test_top.env_h.m_uvc_h.m_agent_h[0].m_seqr_h@@vseqs_h.m_wseqs_h [IN V SEQS] Got B-channel response from driver
# rd data in s drv: ed58a3a5 , len : 15 , last:0 , valid : 1
# INIDE_SLAVE_MON_CTR=58
# arid in s mon : 21315
# m mon ar id : 5343
# m mon rid : e656
# rd data in s drv: 7e7bdfcc , len : 15 , last:0 , valid : 1
# INIDE_SLAVE_MON_CTR=59
# arid in s mon : 58658
# m mon rid : e656
# m mon ar id : e522
# rd data in s drv: 2e9bb6b1 , len : 15 , last:0 , valid : 1
# INIDE_SLAVE_MON_CTR=60
# arid in s mon : 55026
# m mon ar id : d6f2
# m mon rid : e656
# rd data in s drv: 835229c2 , len : 15 , last:0 , valid : 1
# INIDE_SLAVE_MON_CTR=61
# arid in s mon : 30931
# m mon rid : e656
# m mon ar id : 78d3
# rd data in s drv: dd947ef8 , len : 15 , last:0 , valid : 1
# INIDE_SLAVE_MON_CTR=62
# arid in s mon : 21841
# m mon ar id : 5551
# m mon rid : e656
# rd data in s drv: 61b0b002 , len : 15 , last:0 , valid : 1
# abc : 1
# ref model mem : 280709120
# abc : 2
# ref model mem : 280709128
# abc : 3
# ref model mem : 280709136
# abc : 4
# ref model mem : 280709144
# abc : 5
# ref model mem : 280709152
# abc : 6
# ref model mem : 280709160
# abc : 7
# ref model mem : 280709168
# abc : 8
# ref model mem : 280709176
# xyz : 1
# xyz : 2
# xyz : 3
# xyz : 4
# xyz : 5
# xyz : 6
# xyz : 7
# xyz : 8
# INIDE_SLAVE_MON_CTR=63
# arid in s mon : 5800
# AFFTER W CHANNEL
# m mon rid : e656
# m mon ar id : 16a8
# match arid : 0 , rid : 0
# UVM_INFO ../env/s_agent/axi_s_drv.sv(31) @ 645: uvm_test_top.env_h.s_uvc_h.s_agent_h[0].s_drv_h [ID MATCH] aaaaa
# s seqs arid : 43156
# INIDE_SLAVE_SEQ_CTR=10
# match arid : a894 , rid : a894
# UVM_INFO ../env/s_agent/axi_s_drv.sv(31) @ 645: uvm_test_top.env_h.s_uvc_h.s_agent_h[0].s_drv_h [ID MATCH] aaaaa
# rd data in s drv: 1c85404 , len : 15 , last:0 , valid : 1
# INIDE_SLAVE_MON_CTR=64
# arid in s mon : 56378
# m mon ar id : dc3a
# m mon rid : e656
# rd data in s drv: 98d23d04 , len : 15 , last:0 , valid : 1
# INIDE_SLAVE_MON_CTR=65
# arid in s mon : 43113
# m mon rid : e656
# m mon ar id : a869
# req wid : 53607 , bid:53607
# UVM_INFO ../env/m_agent/axi_base_m_seqs.sv(26) @ 665: uvm_test_top.env_h.m_uvc_h.m_agent_h[0].m_seqr_h@@vseqs_h.m_wseqs_h [IN V SEQS] Got B-channel response from driver
# rd data in s drv: 878b1739 , len : 15 , last:0 , valid : 1
# INIDE_SLAVE_MON_CTR=66
# arid in s mon : 31737
# m mon ar id : 7bf9
# m mon rid : e656
# rd data in s drv: 73c26990 , len : 15 , last:0 , valid : 1
# INIDE_SLAVE_MON_CTR=67
# arid in s mon : 34398
# m mon rid : e656
# m mon ar id : 865e
# rd data in s drv: dd8e62b8 , len : 15 , last:0 , valid : 1
# INIDE_SLAVE_MON_CTR=68
# arid in s mon : 20639
# m mon ar id : 509f
# m mon rid : e656
# rd data in s drv: 70590f2 , len : 15 , last:1 , valid : 1
# INIDE_SLAVE_MON_CTR=69
# arid in s mon : 43133
# req kind : READ
# m mon rid : e656
# m mon ar id : a87d
# UVM_INFO ../env/axi_sb.sv(78) @ 705: uvm_test_top.env_h.sb_h [after event in sb] aaaa
# UVM_INFO ../env/axi_sb.sv(76) @ 705: uvm_test_top.env_h.sb_h [before event in sb] aaaa
# rd data in s drv: 8ab6c3a2 , len : 1 , last:0 , valid : 1
# INIDE_SLAVE_MON_CTR=70
# arid in s mon : 54666
# m mon ar id : d58a
# m mon rid : fcf7
# rd data in s drv: 316470ff , len : 1 , last:1 , valid : 1
# INIDE_SLAVE_MON_CTR=71
# arid in s mon : 2480
# req kind : READ
# m mon rid : fcf7
# m mon ar id : 9b0
# UVM_INFO ../env/axi_sb.sv(78) @ 725: uvm_test_top.env_h.sb_h [after event in sb] aaaa
# UVM_INFO ../env/axi_sb.sv(76) @ 725: uvm_test_top.env_h.sb_h [before event in sb] aaaa
# rd data in s drv: b3f5107f , len : 7 , last:0 , valid : 1
# INIDE_SLAVE_MON_CTR=72
# arid in s mon : 58224
# m mon ar id : e370
# m mon rid : a894
# rd data in s drv: b5c5d03b , len : 7 , last:0 , valid : 1
# INIDE_SLAVE_MON_CTR=73
# arid in s mon : 18096
# m mon rid : a894
# m mon ar id : 46b0
# rd data in s drv: 869f0c8e , len : 7 , last:0 , valid : 1
# INIDE_SLAVE_MON_CTR=74
# arid in s mon : 10861
# m mon ar id : 2a6d
# m mon rid : a894
# rd data in s drv: af45646f , len : 7 , last:0 , valid : 1
# INIDE_SLAVE_MON_CTR=75
# arid in s mon : 29068
# m mon rid : a894
# m mon ar id : 718c
# rd data in s drv: f82b7f9c , len : 7 , last:0 , valid : 1
# INIDE_SLAVE_MON_CTR=76
# arid in s mon : 45337
# m mon ar id : b119
# m mon rid : a894
# rd data in s drv: 4260ad3e , len : 7 , last:0 , valid : 1
# INIDE_SLAVE_MON_CTR=77
# arid in s mon : 24484
# m mon rid : a894
# m mon ar id : 5fa4
# rd data in s drv: 88f086ed , len : 7 , last:0 , valid : 1
# INIDE_SLAVE_MON_CTR=78
# arid in s mon : 27438
# m mon ar id : 6b2e
# m mon rid : a894
# rd data in s drv: 531b6ebe , len : 7 , last:1 , valid : 1
# abc : 1
# ref model mem : 2945927040
# abc : 2
# ref model mem : 2945927048
# abc : 3
# ref model mem : 2945927056
# abc : 4
# ref model mem : 2945927064
# abc : 5
# ref model mem : 2945927072
# abc : 6
# ref model mem : 2945927080
# abc : 7
# ref model mem : 2945927088
# abc : 8
# ref model mem : 2945927096
# abc : 9
# ref model mem : 2945927104
# abc : 10
# ref model mem : 2945927112
# abc : 11
# ref model mem : 2945927120
# abc : 12
# ref model mem : 2945927128
# abc : 13
# ref model mem : 2945927136
# abc : 14
# ref model mem : 2945927144
# abc : 15
# ref model mem : 2945927152
# abc : 16
# ref model mem : 2945927160
# xyz : 1
# xyz : 2
# xyz : 3
# xyz : 4
# xyz : 5
# xyz : 6
# xyz : 7
# xyz : 8
# xyz : 9
# xyz : 10
# xyz : 11
# xyz : 12
# xyz : 13
# xyz : 14
# xyz : 15
# xyz : 16
# INIDE_SLAVE_MON_CTR=79
# arid in s mon : 9050
# AFFTER W CHANNEL
# req kind : READ
# m mon rid : a894
# m mon ar id : 235a
# UVM_INFO ../env/axi_sb.sv(78) @ 805: uvm_test_top.env_h.sb_h [after event in sb] aaaa
# UVM_INFO ../env/axi_sb.sv(76) @ 805: uvm_test_top.env_h.sb_h [before event in sb] aaaa
# match arid : 0 , rid : 0
# UVM_INFO ../env/s_agent/axi_s_drv.sv(31) @ 805: uvm_test_top.env_h.s_uvc_h.s_agent_h[0].s_drv_h [ID MATCH] aaaaa
# s seqs arid : 52439
# INIDE_SLAVE_SEQ_CTR=11
# match arid : ccd7 , rid : ccd7
# UVM_INFO ../env/s_agent/axi_s_drv.sv(31) @ 805: uvm_test_top.env_h.s_uvc_h.s_agent_h[0].s_drv_h [ID MATCH] aaaaa
# rd data in s drv: a11555f6 , len : 15 , last:0 , valid : 1
# INIDE_SLAVE_MON_CTR=80
# arid in s mon : 59726
# m mon ar id : e94e
# m mon rid : ccd7
# rd data in s drv: 9bd541f3 , len : 15 , last:0 , valid : 1
# INIDE_SLAVE_MON_CTR=81
# arid in s mon : 3496
# m mon rid : ccd7
# m mon ar id : da8
# req wid : 17367 , bid:17367
# UVM_INFO ../env/m_agent/axi_base_m_seqs.sv(26) @ 825: uvm_test_top.env_h.m_uvc_h.m_agent_h[0].m_seqr_h@@vseqs_h.m_wseqs_h [IN V SEQS] Got B-channel response from driver
# rd data in s drv: eb2a1de0 , len : 15 , last:0 , valid : 1
# INIDE_SLAVE_MON_CTR=82
# arid in s mon : 23075
# m mon ar id : 5a23
# m mon rid : ccd7
# rd data in s drv: b51a296e , len : 15 , last:0 , valid : 1
# abc : 1
# ref model mem : 80134880
# abc : 2
# ref model mem : 80134888
# abc : 3
# ref model mem : 80134896
# abc : 4
# ref model mem : 80134904
# xyz : 1
# xyz : 2
# xyz : 3
# xyz : 4
# INIDE_SLAVE_MON_CTR=83
# arid in s mon : 53893
# AFFTER W CHANNEL
# m mon rid : ccd7
# m mon ar id : d285
# match arid : 0 , rid : 0
# UVM_INFO ../env/s_agent/axi_s_drv.sv(31) @ 845: uvm_test_top.env_h.s_uvc_h.s_agent_h[0].s_drv_h [ID MATCH] aaaaa
# s seqs arid : 4905
# INIDE_SLAVE_SEQ_CTR=12
# match arid : 1329 , rid : 1329
# UVM_INFO ../env/s_agent/axi_s_drv.sv(31) @ 845: uvm_test_top.env_h.s_uvc_h.s_agent_h[0].s_drv_h [ID MATCH] aaaaa
# rd data in s drv: c66c2a34 , len : 15 , last:0 , valid : 1
# INIDE_SLAVE_MON_CTR=84
# arid in s mon : 57238
# m mon ar id : df96
# m mon rid : ccd7
# rd data in s drv: e841aa26 , len : 15 , last:0 , valid : 1
# INIDE_SLAVE_MON_CTR=85
# arid in s mon : 61303
# m mon rid : ccd7
# m mon ar id : ef77
# req wid : 23008 , bid:23008
# UVM_INFO ../env/m_agent/axi_base_m_seqs.sv(26) @ 865: uvm_test_top.env_h.m_uvc_h.m_agent_h[0].m_seqr_h@@vseqs_h.m_wseqs_h [IN V SEQS] Got B-channel response from driver
# rd data in s drv: d7106a56 , len : 15 , last:0 , valid : 1
# INIDE_SLAVE_MON_CTR=86
# arid in s mon : 23900
# m mon ar id : 5d5c
# m mon rid : ccd7
# rd data in s drv: c56e0789 , len : 15 , last:0 , valid : 1
# INIDE_SLAVE_MON_CTR=87
# arid in s mon : 61299
# m mon rid : ccd7
# m mon ar id : ef73
# rd data in s drv: 8e335b94 , len : 15 , last:0 , valid : 1
# INIDE_SLAVE_MON_CTR=88
# arid in s mon : 13152
# m mon ar id : 3360
# m mon rid : ccd7
# rd data in s drv: 5e074ac , len : 15 , last:0 , valid : 1
# INIDE_SLAVE_MON_CTR=89
# arid in s mon : 60289
# m mon rid : ccd7
# m mon ar id : eb81
# rd data in s drv: eecc4b62 , len : 15 , last:0 , valid : 1
# INIDE_SLAVE_MON_CTR=90
# arid in s mon : 46097
# m mon ar id : b411
# m mon rid : ccd7
# rd data in s drv: 6f4f0a0d , len : 15 , last:0 , valid : 1
# abc : 1
# ref model mem : 2701051584
# abc : 2
# ref model mem : 2701051592
# abc : 3
# ref model mem : 2701051600
# abc : 4
# ref model mem : 2701051608
# abc : 5
# ref model mem : 2701051616
# abc : 6
# ref model mem : 2701051624
# abc : 7
# ref model mem : 2701051632
# abc : 8
# ref model mem : 2701051640
# xyz : 1
# xyz : 2
# xyz : 3
# xyz : 4
# xyz : 5
# xyz : 6
# xyz : 7
# xyz : 8
# INIDE_SLAVE_MON_CTR=91
# arid in s mon : 13132
# AFFTER W CHANNEL
# m mon rid : ccd7
# m mon ar id : 334c
# match arid : 0 , rid : 0
# UVM_INFO ../env/s_agent/axi_s_drv.sv(31) @ 925: uvm_test_top.env_h.s_uvc_h.s_agent_h[0].s_drv_h [ID MATCH] aaaaa
# s seqs arid : 35577
# INIDE_SLAVE_SEQ_CTR=13
# match arid : 8af9 , rid : 8af9
# UVM_INFO ../env/s_agent/axi_s_drv.sv(31) @ 925: uvm_test_top.env_h.s_uvc_h.s_agent_h[0].s_drv_h [ID MATCH] aaaaa
# rd data in s drv: 53a68039 , len : 15 , last:0 , valid : 1
# INIDE_SLAVE_MON_CTR=92
# arid in s mon : 26239
# m mon ar id : 667f
# m mon rid : ccd7
# rd data in s drv: a98132b0 , len : 15 , last:0 , valid : 1
# INIDE_SLAVE_MON_CTR=93
# arid in s mon : 50062
# m mon rid : ccd7
# m mon ar id : c38e
# req wid : 32031 , bid:32031
# UVM_INFO ../env/m_agent/axi_base_m_seqs.sv(26) @ 945: uvm_test_top.env_h.m_uvc_h.m_agent_h[0].m_seqr_h@@vseqs_h.m_wseqs_h [IN V SEQS] Got B-channel response from driver
# rd data in s drv: 24fa7de1 , len : 15 , last:0 , valid : 1
# INIDE_SLAVE_MON_CTR=94
# arid in s mon : 57647
# m mon ar id : e12f
# m mon rid : ccd7
# rd data in s drv: fb4098d0 , len : 15 , last:1 , valid : 1
# INIDE_SLAVE_MON_CTR=95
# arid in s mon : 23728
# req kind : READ
# m mon rid : ccd7
# m mon ar id : 5cb0
# UVM_INFO ../env/axi_sb.sv(78) @ 965: uvm_test_top.env_h.sb_h [after event in sb] aaaa
# UVM_INFO ../env/axi_sb.sv(76) @ 965: uvm_test_top.env_h.sb_h [before event in sb] aaaa
# rd data in s drv: a93a1366 , len : 3 , last:0 , valid : 1
# INIDE_SLAVE_MON_CTR=96
# arid in s mon : 33600
# m mon ar id : 8340
# m mon rid : 1329
# rd data in s drv: f1c9ee1 , len : 3 , last:0 , valid : 1
# INIDE_SLAVE_MON_CTR=97
# arid in s mon : 59131
# m mon rid : 1329
# m mon ar id : e6fb
# rd data in s drv: b95e5aa2 , len : 3 , last:0 , valid : 1
# INIDE_SLAVE_MON_CTR=98
# arid in s mon : 11031
# m mon ar id : 2b17
# m mon rid : 1329
# rd data in s drv: 27a31541 , len : 3 , last:1 , valid : 1
# INIDE_SLAVE_MON_CTR=99
# arid in s mon : 46713
# req kind : READ
# m mon rid : 1329
# m mon ar id : b679
# UVM_INFO ../env/axi_sb.sv(78) @ 1005: uvm_test_top.env_h.sb_h [after event in sb] aaaa
# UVM_INFO ../env/axi_sb.sv(76) @ 1005: uvm_test_top.env_h.sb_h [before event in sb] aaaa
# rd data in s drv: 67135dfc , len : 7 , last:0 , valid : 1
# INIDE_SLAVE_MON_CTR=100
# arid in s mon : 44059
# m mon ar id : ac1b
# m mon rid : 8af9
# rd data in s drv: 63ae97a9 , len : 7 , last:0 , valid : 1
# m mon rid : 8af9
# rd data in s drv: 1bda4650 , len : 7 , last:0 , valid : 1
# m mon rid : 8af9
# rd data in s drv: 22dc21c3 , len : 7 , last:0 , valid : 1
# m mon rid : 8af9
# rd data in s drv: 18ce46de , len : 7 , last:0 , valid : 1
# m mon rid : 8af9
# rd data in s drv: 5ec3e2c1 , len : 7 , last:0 , valid : 1
# m mon rid : 8af9
# rd data in s drv: 2ccf0dde , len : 7 , last:0 , valid : 1
# m mon rid : 8af9
# rd data in s drv: e372bf2 , len : 7 , last:1 , valid : 1
# abc : 1
# ref model mem : 3422561792
# abc : 2
# ref model mem : 3422561800
# abc : 3
# ref model mem : 3422561808
# abc : 4
# ref model mem : 3422561816
# abc : 5
# ref model mem : 3422561824
# abc : 6
# ref model mem : 3422561832
# abc : 7
# ref model mem : 3422561840
# abc : 8
# ref model mem : 3422561848
# abc : 9
# ref model mem : 3422561856
# abc : 10
# ref model mem : 3422561864
# abc : 11
# ref model mem : 3422561872
# abc : 12
# ref model mem : 3422561880
# abc : 13
# ref model mem : 3422561888
# abc : 14
# ref model mem : 3422561896
# abc : 15
# ref model mem : 3422561904
# abc : 16
# ref model mem : 3422561912
# xyz : 1
# xyz : 2
# xyz : 3
# xyz : 4
# xyz : 5
# xyz : 6
# xyz : 7
# xyz : 8
# xyz : 9
# xyz : 10
# xyz : 11
# xyz : 12
# xyz : 13
# xyz : 14
# xyz : 15
# xyz : 16
# AFFTER W CHANNEL
# req kind : READ
# m mon rid : 8af9
# UVM_INFO ../env/axi_sb.sv(78) @ 1085: uvm_test_top.env_h.sb_h [after event in sb] aaaa
# UVM_INFO ../env/axi_sb.sv(76) @ 1085: uvm_test_top.env_h.sb_h [before event in sb] aaaa
# match arid : 0 , rid : 0
# UVM_INFO ../env/s_agent/axi_s_drv.sv(31) @ 1085: uvm_test_top.env_h.s_uvc_h.s_agent_h[0].s_drv_h [ID MATCH] aaaaa
# s seqs arid : 25219
# INIDE_SLAVE_SEQ_CTR=14
# match arid : 6283 , rid : 6283
# UVM_INFO ../env/s_agent/axi_s_drv.sv(31) @ 1085: uvm_test_top.env_h.s_uvc_h.s_agent_h[0].s_drv_h [ID MATCH] aaaaa
# rd data in s drv: 1caf32cc , len : 15 , last:0 , valid : 1
# m mon rid : 6283
# rd data in s drv: 62b68558 , len : 15 , last:0 , valid : 1
# abc : 1
# ref model mem : 2142700016
# abc : 2
# ref model mem : 2142700024
# xyz : 1
# xyz : 2
# AFFTER W CHANNEL
# m mon rid : 6283
# req wid : 12673 , bid:12673
# UVM_INFO ../env/m_agent/axi_base_m_seqs.sv(26) @ 1105: uvm_test_top.env_h.m_uvc_h.m_agent_h[0].m_seqr_h@@vseqs_h.m_wseqs_h [IN V SEQS] Got B-channel response from driver
# match arid : 0 , rid : 0
# UVM_INFO ../env/s_agent/axi_s_drv.sv(31) @ 1105: uvm_test_top.env_h.s_uvc_h.s_agent_h[0].s_drv_h [ID MATCH] aaaaa
# s seqs arid : 47995
# INIDE_SLAVE_SEQ_CTR=15
# match arid : bb7b , rid : bb7b
# UVM_INFO ../env/s_agent/axi_s_drv.sv(31) @ 1105: uvm_test_top.env_h.s_uvc_h.s_agent_h[0].s_drv_h [ID MATCH] aaaaa
# rd data in s drv: 346f872e , len : 15 , last:0 , valid : 1
# m mon rid : 6283
# rd data in s drv: 5172b9cc , len : 15 , last:0 , valid : 1
# m mon rid : 6283
# req wid : 40425 , bid:40425
# UVM_INFO ../env/m_agent/axi_base_m_seqs.sv(26) @ 1125: uvm_test_top.env_h.m_uvc_h.m_agent_h[0].m_seqr_h@@vseqs_h.m_wseqs_h [IN V SEQS] Got B-channel response from driver
# rd data in s drv: 47d2fabd , len : 15 , last:0 , valid : 1
# m mon rid : 6283
# rd data in s drv: a99a92f0 , len : 15 , last:0 , valid : 1
# m mon rid : 6283
# rd data in s drv: 50870e , len : 15 , last:0 , valid : 1
# m mon rid : 6283
# rd data in s drv: 6d7eedea , len : 15 , last:0 , valid : 1
# m mon rid : 6283
# rd data in s drv: 69f09a55 , len : 15 , last:0 , valid : 1
# m mon rid : 6283
# rd data in s drv: ce6bcea , len : 15 , last:0 , valid : 1
# m mon rid : 6283
# rd data in s drv: 5a92f85 , len : 15 , last:0 , valid : 1
# m mon rid : 6283
# rd data in s drv: 54740593 , len : 15 , last:0 , valid : 1
# m mon rid : 6283
# rd data in s drv: 9c38c23d , len : 15 , last:0 , valid : 1
# m mon rid : 6283
# rd data in s drv: ed48c52e , len : 15 , last:0 , valid : 1
# m mon rid : 6283
# rd data in s drv: e6784156 , len : 15 , last:0 , valid : 1
# m mon rid : 6283
# rd data in s drv: 85a4e53f , len : 15 , last:1 , valid : 1
# req kind : READ
# m mon rid : 6283
# UVM_INFO ../env/axi_sb.sv(78) @ 1245: uvm_test_top.env_h.sb_h [after event in sb] aaaa
# UVM_INFO ../env/axi_sb.sv(76) @ 1245: uvm_test_top.env_h.sb_h [before event in sb] aaaa
# rd data in s drv: 9e0e4e42 , len : 1 , last:0 , valid : 1
# m mon rid : bb7b
# rd data in s drv: 29347435 , len : 1 , last:1 , valid : 1
# abc : 1
# ref model mem : 171173120
# abc : 2
# ref model mem : 171173128
# abc : 3
# ref model mem : 171173136
# abc : 4
# ref model mem : 171173144
# abc : 5
# ref model mem : 171173152
# abc : 6
# ref model mem : 171173160
# abc : 7
# ref model mem : 171173168
# abc : 8
# ref model mem : 171173176
# abc : 9
# ref model mem : 171173184
# abc : 10
# ref model mem : 171173192
# abc : 11
# ref model mem : 171173200
# abc : 12
# ref model mem : 171173208
# abc : 13
# ref model mem : 171173216
# abc : 14
# ref model mem : 171173224
# abc : 15
# ref model mem : 171173232
# abc : 16
# ref model mem : 171173240
# xyz : 1
# xyz : 2
# xyz : 3
# xyz : 4
# xyz : 5
# xyz : 6
# xyz : 7
# xyz : 8
# xyz : 9
# xyz : 10
# xyz : 11
# xyz : 12
# xyz : 13
# xyz : 14
# xyz : 15
# xyz : 16
# AFFTER W CHANNEL
# req kind : READ
# m mon rid : bb7b
# UVM_INFO ../env/axi_sb.sv(78) @ 1265: uvm_test_top.env_h.sb_h [after event in sb] aaaa
# UVM_INFO ../env/axi_sb.sv(76) @ 1265: uvm_test_top.env_h.sb_h [before event in sb] aaaa
# match arid : 0 , rid : 0
# UVM_INFO ../env/s_agent/axi_s_drv.sv(31) @ 1265: uvm_test_top.env_h.s_uvc_h.s_agent_h[0].s_drv_h [ID MATCH] aaaaa
# s seqs arid : 51276
# INIDE_SLAVE_SEQ_CTR=16
# match arid : c84c , rid : c84c
# UVM_INFO ../env/s_agent/axi_s_drv.sv(31) @ 1265: uvm_test_top.env_h.s_uvc_h.s_agent_h[0].s_drv_h [ID MATCH] aaaaa
# rd data in s drv: 8fa30135 , len : 15 , last:0 , valid : 1
# m mon rid : c84c
# rd data in s drv: 167e33ce , len : 15 , last:0 , valid : 1
# abc : 1
# ref model mem : 3370897808
# abc : 2
# ref model mem : 3370897816
# xyz : 1
# xyz : 2
# AFFTER W CHANNEL
# m mon rid : c84c
# req wid : 34571 , bid:34571
# UVM_INFO ../env/m_agent/axi_base_m_seqs.sv(26) @ 1285: uvm_test_top.env_h.m_uvc_h.m_agent_h[0].m_seqr_h@@vseqs_h.m_wseqs_h [IN V SEQS] Got B-channel response from driver
# match arid : 0 , rid : 0
# UVM_INFO ../env/s_agent/axi_s_drv.sv(31) @ 1285: uvm_test_top.env_h.s_uvc_h.s_agent_h[0].s_drv_h [ID MATCH] aaaaa
# s seqs arid : 44353
# INIDE_SLAVE_SEQ_CTR=17
# match arid : ad41 , rid : ad41
# UVM_INFO ../env/s_agent/axi_s_drv.sv(31) @ 1285: uvm_test_top.env_h.s_uvc_h.s_agent_h[0].s_drv_h [ID MATCH] aaaaa
# rd data in s drv: c98d86f4 , len : 15 , last:0 , valid : 1
# m mon rid : c84c
# rd data in s drv: 2e2e080d , len : 15 , last:0 , valid : 1
# m mon rid : c84c
# req wid : 3557 , bid:3557
# UVM_INFO ../env/m_agent/axi_base_m_seqs.sv(26) @ 1305: uvm_test_top.env_h.m_uvc_h.m_agent_h[0].m_seqr_h@@vseqs_h.m_wseqs_h [IN V SEQS] Got B-channel response from driver
# rd data in s drv: 80b624f6 , len : 15 , last:0 , valid : 1
# m mon rid : c84c
# rd data in s drv: 7fa83d3d , len : 15 , last:0 , valid : 1
# abc : 1
# ref model mem : 3105431968
# abc : 2
# ref model mem : 3105431976
# abc : 3
# ref model mem : 3105431984
# abc : 4
# ref model mem : 3105431992
# xyz : 1
# xyz : 2
# xyz : 3
# xyz : 4
# AFFTER W CHANNEL
# m mon rid : c84c
# match arid : 0 , rid : 0
# UVM_INFO ../env/s_agent/axi_s_drv.sv(31) @ 1325: uvm_test_top.env_h.s_uvc_h.s_agent_h[0].s_drv_h [ID MATCH] aaaaa
# s seqs arid : 34273
# INIDE_SLAVE_SEQ_CTR=18
# match arid : 85e1 , rid : 85e1
# UVM_INFO ../env/s_agent/axi_s_drv.sv(31) @ 1325: uvm_test_top.env_h.s_uvc_h.s_agent_h[0].s_drv_h [ID MATCH] aaaaa
# rd data in s drv: 1f3e4169 , len : 15 , last:0 , valid : 1
# m mon rid : c84c
# rd data in s drv: dae8738e , len : 15 , last:0 , valid : 1
# m mon rid : c84c
# req wid : 13717 , bid:13717
# UVM_INFO ../env/m_agent/axi_base_m_seqs.sv(26) @ 1345: uvm_test_top.env_h.m_uvc_h.m_agent_h[0].m_seqr_h@@vseqs_h.m_wseqs_h [IN V SEQS] Got B-channel response from driver
# rd data in s drv: ff263618 , len : 15 , last:0 , valid : 1
# m mon rid : c84c
# rd data in s drv: fae3668 , len : 15 , last:0 , valid : 1
# abc : 1
# ref model mem : 2655890880
# abc : 2
# ref model mem : 2655890888
# abc : 3
# ref model mem : 2655890896
# abc : 4
# ref model mem : 2655890904
# xyz : 1
# xyz : 2
# xyz : 3
# xyz : 4
# AFFTER W CHANNEL
# m mon rid : c84c
# match arid : 0 , rid : 0
# UVM_INFO ../env/s_agent/axi_s_drv.sv(31) @ 1365: uvm_test_top.env_h.s_uvc_h.s_agent_h[0].s_drv_h [ID MATCH] aaaaa
# s seqs arid : 40878
# INIDE_SLAVE_SEQ_CTR=19
# match arid : 9fae , rid : 9fae
# UVM_INFO ../env/s_agent/axi_s_drv.sv(31) @ 1365: uvm_test_top.env_h.s_uvc_h.s_agent_h[0].s_drv_h [ID MATCH] aaaaa
# rd data in s drv: 25f69d7c , len : 15 , last:0 , valid : 1
# m mon rid : c84c
# rd data in s drv: 5788c70f , len : 15 , last:0 , valid : 1
# abc : 1
# ref model mem : 4289324848
# abc : 2
# ref model mem : 4289324856
# xyz : 1
# xyz : 2
# AFFTER W CHANNEL
# m mon rid : c84c
# req wid : 8568 , bid:8568
# UVM_INFO ../env/m_agent/axi_base_m_seqs.sv(26) @ 1385: uvm_test_top.env_h.m_uvc_h.m_agent_h[0].m_seqr_h@@vseqs_h.m_wseqs_h [IN V SEQS] Got B-channel response from driver
# match arid : 0 , rid : 0
# UVM_INFO ../env/s_agent/axi_s_drv.sv(31) @ 1385: uvm_test_top.env_h.s_uvc_h.s_agent_h[0].s_drv_h [ID MATCH] aaaaa
# s seqs arid : 65033
# INIDE_SLAVE_SEQ_CTR=20
# match arid : fe09 , rid : fe09
# UVM_INFO ../env/s_agent/axi_s_drv.sv(31) @ 1385: uvm_test_top.env_h.s_uvc_h.s_agent_h[0].s_drv_h [ID MATCH] aaaaa
# rd data in s drv: a5242300 , len : 15 , last:0 , valid : 1
# m mon rid : c84c
# rd data in s drv: 6d889e73 , len : 15 , last:0 , valid : 1
# abc : 1
# ref model mem : 2382766368
# abc : 2
# ref model mem : 2382766376
# xyz : 1
# xyz : 2
# AFFTER W CHANNEL
# m mon rid : c84c
# req wid : 44422 , bid:44422
# UVM_INFO ../env/m_agent/axi_base_m_seqs.sv(26) @ 1405: uvm_test_top.env_h.m_uvc_h.m_agent_h[0].m_seqr_h@@vseqs_h.m_wseqs_h [IN V SEQS] Got B-channel response from driver
# match arid : 0 , rid : 0
# UVM_INFO ../env/s_agent/axi_s_drv.sv(31) @ 1405: uvm_test_top.env_h.s_uvc_h.s_agent_h[0].s_drv_h [ID MATCH] aaaaa
# s seqs arid : 39064
# INIDE_SLAVE_SEQ_CTR=21
# match arid : 9898 , rid : 9898
# UVM_INFO ../env/s_agent/axi_s_drv.sv(31) @ 1405: uvm_test_top.env_h.s_uvc_h.s_agent_h[0].s_drv_h [ID MATCH] aaaaa
# rd data in s drv: 3fe5f47e , len : 15 , last:0 , valid : 1
# m mon rid : c84c
# rd data in s drv: b65a1070 , len : 15 , last:1 , valid : 1
# abc : 1
# ref model mem : 730965376
# abc : 2
# ref model mem : 730965384
# xyz : 1
# xyz : 2
# AFFTER W CHANNEL
# req kind : READ
# m mon rid : c84c
# req wid : 65129 , bid:65129
# UVM_INFO ../env/m_agent/axi_base_m_seqs.sv(26) @ 1425: uvm_test_top.env_h.m_uvc_h.m_agent_h[0].m_seqr_h@@vseqs_h.m_wseqs_h [IN V SEQS] Got B-channel response from driver
# UVM_INFO ../env/axi_sb.sv(78) @ 1425: uvm_test_top.env_h.sb_h [after event in sb] aaaa
# UVM_INFO ../env/axi_sb.sv(76) @ 1425: uvm_test_top.env_h.sb_h [before event in sb] aaaa
# match arid : 0 , rid : 0
# UVM_INFO ../env/s_agent/axi_s_drv.sv(31) @ 1425: uvm_test_top.env_h.s_uvc_h.s_agent_h[0].s_drv_h [ID MATCH] aaaaa
# s seqs arid : 62773
# INIDE_SLAVE_SEQ_CTR=22
# match arid : f535 , rid : f535
# UVM_INFO ../env/s_agent/axi_s_drv.sv(31) @ 1425: uvm_test_top.env_h.s_uvc_h.s_agent_h[0].s_drv_h [ID MATCH] aaaaa
# rd data in s drv: f8b4f7dc , len : 1 , last:0 , valid : 1
# m mon rid : ad41
# rd data in s drv: c2374bc8 , len : 1 , last:1 , valid : 1
# abc : 1
# ref model mem : 3884647376
# abc : 2
# ref model mem : 3884647384
# xyz : 1
# xyz : 2
# AFFTER W CHANNEL
# req kind : READ
# m mon rid : ad41
# req wid : 6012 , bid:6012
# UVM_INFO ../env/m_agent/axi_base_m_seqs.sv(26) @ 1445: uvm_test_top.env_h.m_uvc_h.m_agent_h[0].m_seqr_h@@vseqs_h.m_wseqs_h [IN V SEQS] Got B-channel response from driver
# UVM_INFO ../env/axi_sb.sv(78) @ 1445: uvm_test_top.env_h.sb_h [after event in sb] aaaa
# UVM_INFO ../env/axi_sb.sv(76) @ 1445: uvm_test_top.env_h.sb_h [before event in sb] aaaa
# match arid : 0 , rid : 0
# UVM_INFO ../env/s_agent/axi_s_drv.sv(31) @ 1445: uvm_test_top.env_h.s_uvc_h.s_agent_h[0].s_drv_h [ID MATCH] aaaaa
# s seqs arid : 60350
# INIDE_SLAVE_SEQ_CTR=23
# match arid : ebbe , rid : ebbe
# UVM_INFO ../env/s_agent/axi_s_drv.sv(31) @ 1445: uvm_test_top.env_h.s_uvc_h.s_agent_h[0].s_drv_h [ID MATCH] aaaaa
# rd data in s drv: 194e5f17 , len : 3 , last:0 , valid : 1
# m mon rid : 85e1
# rd data in s drv: 55ae3a3a , len : 3 , last:0 , valid : 1
# m mon rid : 85e1
# req wid : 26141 , bid:26141
# UVM_INFO ../env/m_agent/axi_base_m_seqs.sv(26) @ 1465: uvm_test_top.env_h.m_uvc_h.m_agent_h[0].m_seqr_h@@vseqs_h.m_wseqs_h [IN V SEQS] Got B-channel response from driver
# rd data in s drv: 98339ceb , len : 3 , last:0 , valid : 1
# m mon rid : 85e1
# rd data in s drv: 2bbfbc60 , len : 3 , last:1 , valid : 1
# abc : 1
# ref model mem : 279374496
# abc : 2
# ref model mem : 279374504
# abc : 3
# ref model mem : 279374512
# abc : 4
# ref model mem : 279374520
# xyz : 1
# xyz : 2
# xyz : 3
# xyz : 4
# AFFTER W CHANNEL
# req kind : READ
# m mon rid : 85e1
# UVM_INFO ../env/axi_sb.sv(78) @ 1485: uvm_test_top.env_h.sb_h [after event in sb] aaaa
# UVM_INFO ../env/axi_sb.sv(76) @ 1485: uvm_test_top.env_h.sb_h [before event in sb] aaaa
# match arid : 0 , rid : 0
# UVM_INFO ../env/s_agent/axi_s_drv.sv(31) @ 1485: uvm_test_top.env_h.s_uvc_h.s_agent_h[0].s_drv_h [ID MATCH] aaaaa
# s seqs arid : 45043
# INIDE_SLAVE_SEQ_CTR=24
# match arid : aff3 , rid : aff3
# UVM_INFO ../env/s_agent/axi_s_drv.sv(31) @ 1485: uvm_test_top.env_h.s_uvc_h.s_agent_h[0].s_drv_h [ID MATCH] aaaaa
# rd data in s drv: efe6ee6e , len : 3 , last:0 , valid : 1
# m mon rid : 9fae
# rd data in s drv: 83d11aa2 , len : 3 , last:0 , valid : 1
# abc : 1
# ref model mem : 91073168
# abc : 2
# ref model mem : 91073176
# xyz : 1
# xyz : 2
# AFFTER W CHANNEL
# m mon rid : 9fae
# req wid : 59295 , bid:59295
# UVM_INFO ../env/m_agent/axi_base_m_seqs.sv(26) @ 1505: uvm_test_top.env_h.m_uvc_h.m_agent_h[0].m_seqr_h@@vseqs_h.m_wseqs_h [IN V SEQS] Got B-channel response from driver
# match arid : 0 , rid : 0
# UVM_INFO ../env/s_agent/axi_s_drv.sv(31) @ 1505: uvm_test_top.env_h.s_uvc_h.s_agent_h[0].s_drv_h [ID MATCH] aaaaa
# s seqs arid : 15796
# INIDE_SLAVE_SEQ_CTR=25
# match arid : 3db4 , rid : 3db4
# UVM_INFO ../env/s_agent/axi_s_drv.sv(31) @ 1505: uvm_test_top.env_h.s_uvc_h.s_agent_h[0].s_drv_h [ID MATCH] aaaaa
# rd data in s drv: 489eab56 , len : 3 , last:0 , valid : 1
# m mon rid : 9fae
# rd data in s drv: e3dafdae , len : 3 , last:1 , valid : 1
# abc : 1
# ref model mem : 482259376
# abc : 2
# ref model mem : 482259384
# xyz : 1
# xyz : 2
# AFFTER W CHANNEL
# req kind : READ
# m mon rid : 9fae
# req wid : 23954 , bid:23954
# UVM_INFO ../env/m_agent/axi_base_m_seqs.sv(26) @ 1525: uvm_test_top.env_h.m_uvc_h.m_agent_h[0].m_seqr_h@@vseqs_h.m_wseqs_h [IN V SEQS] Got B-channel response from driver
# UVM_INFO ../env/axi_sb.sv(78) @ 1525: uvm_test_top.env_h.sb_h [after event in sb] aaaa
# UVM_INFO ../env/axi_sb.sv(76) @ 1525: uvm_test_top.env_h.sb_h [before event in sb] aaaa
# match arid : 0 , rid : 0
# UVM_INFO ../env/s_agent/axi_s_drv.sv(31) @ 1525: uvm_test_top.env_h.s_uvc_h.s_agent_h[0].s_drv_h [ID MATCH] aaaaa
# s seqs arid : 64427
# INIDE_SLAVE_SEQ_CTR=26
# match arid : fbab , rid : fbab
# UVM_INFO ../env/s_agent/axi_s_drv.sv(31) @ 1525: uvm_test_top.env_h.s_uvc_h.s_agent_h[0].s_drv_h [ID MATCH] aaaaa
# rd data in s drv: e3e41523 , len : 1 , last:0 , valid : 1
# m mon rid : fe09
# rd data in s drv: ab5c0d76 , len : 1 , last:1 , valid : 1
# req kind : READ
# m mon rid : fe09
# req wid : 29878 , bid:29878
# UVM_INFO ../env/m_agent/axi_base_m_seqs.sv(26) @ 1545: uvm_test_top.env_h.m_uvc_h.m_agent_h[0].m_seqr_h@@vseqs_h.m_wseqs_h [IN V SEQS] Got B-channel response from driver
# UVM_INFO ../env/axi_sb.sv(78) @ 1545: uvm_test_top.env_h.sb_h [after event in sb] aaaa
# UVM_INFO ../env/axi_sb.sv(76) @ 1545: uvm_test_top.env_h.sb_h [before event in sb] aaaa
# rd data in s drv: d48e26a7 , len : 1 , last:0 , valid : 1
# m mon rid : 9898
# rd data in s drv: 8fdf6496 , len : 1 , last:1 , valid : 1
# abc : 1
# ref model mem : 3706343136
# abc : 2
# ref model mem : 3706343144
# abc : 3
# ref model mem : 3706343152
# abc : 4
# ref model mem : 3706343160
# xyz : 1
# xyz : 2
# xyz : 3
# xyz : 4
# AFFTER W CHANNEL
# req kind : READ
# m mon rid : 9898
# UVM_INFO ../env/axi_sb.sv(78) @ 1565: uvm_test_top.env_h.sb_h [after event in sb] aaaa
# UVM_INFO ../env/axi_sb.sv(76) @ 1565: uvm_test_top.env_h.sb_h [before event in sb] aaaa
# match arid : 0 , rid : 0
# UVM_INFO ../env/s_agent/axi_s_drv.sv(31) @ 1565: uvm_test_top.env_h.s_uvc_h.s_agent_h[0].s_drv_h [ID MATCH] aaaaa
# s seqs arid : 15132
# INIDE_SLAVE_SEQ_CTR=27
# match arid : 3b1c , rid : 3b1c
# UVM_INFO ../env/s_agent/axi_s_drv.sv(31) @ 1565: uvm_test_top.env_h.s_uvc_h.s_agent_h[0].s_drv_h [ID MATCH] aaaaa
# rd data in s drv: 8e2cc40 , len : 1 , last:0 , valid : 1
# m mon rid : f535
# rd data in s drv: e2de1c47 , len : 1 , last:1 , valid : 1
# req kind : READ
# m mon rid : f535
# req wid : 10880 , bid:10880
# UVM_INFO ../env/m_agent/axi_base_m_seqs.sv(26) @ 1585: uvm_test_top.env_h.m_uvc_h.m_agent_h[0].m_seqr_h@@vseqs_h.m_wseqs_h [IN V SEQS] Got B-channel response from driver
# UVM_INFO ../env/axi_sb.sv(78) @ 1585: uvm_test_top.env_h.sb_h [after event in sb] aaaa
# UVM_INFO ../env/axi_sb.sv(76) @ 1585: uvm_test_top.env_h.sb_h [before event in sb] aaaa
# rd data in s drv: 57e01e0e , len : 1 , last:0 , valid : 1
# m mon rid : ebbe
# rd data in s drv: c61a22ea , len : 1 , last:1 , valid : 1
# req kind : READ
# m mon rid : ebbe
# UVM_INFO ../env/axi_sb.sv(78) @ 1605: uvm_test_top.env_h.sb_h [after event in sb] aaaa
# UVM_INFO ../env/axi_sb.sv(76) @ 1605: uvm_test_top.env_h.sb_h [before event in sb] aaaa
# rd data in s drv: 9a338bb3 , len : 3 , last:0 , valid : 1
# m mon rid : aff3
# rd data in s drv: 86b7504d , len : 3 , last:0 , valid : 1
# m mon rid : aff3
# rd data in s drv: a97bcad2 , len : 3 , last:0 , valid : 1
# m mon rid : aff3
# rd data in s drv: b365884c , len : 3 , last:1 , valid : 1
# req kind : READ
# m mon rid : aff3
# UVM_INFO ../env/axi_sb.sv(78) @ 1645: uvm_test_top.env_h.sb_h [after event in sb] aaaa
# UVM_INFO ../env/axi_sb.sv(76) @ 1645: uvm_test_top.env_h.sb_h [before event in sb] aaaa
# rd data in s drv: db3aea11 , len : 1 , last:0 , valid : 1
# m mon rid : 3db4
# rd data in s drv: a5565310 , len : 1 , last:1 , valid : 1
# req kind : READ
# m mon rid : 3db4
# UVM_INFO ../env/axi_sb.sv(78) @ 1665: uvm_test_top.env_h.sb_h [after event in sb] aaaa
# UVM_INFO ../env/axi_sb.sv(76) @ 1665: uvm_test_top.env_h.sb_h [before event in sb] aaaa
# rd data in s drv: 962890ae , len : 1 , last:0 , valid : 1
# m mon rid : fbab
# rd data in s drv: ce5fb8ab , len : 1 , last:1 , valid : 1
# req kind : READ
# m mon rid : fbab
# UVM_INFO ../env/axi_sb.sv(78) @ 1685: uvm_test_top.env_h.sb_h [after event in sb] aaaa
# UVM_INFO ../env/axi_sb.sv(76) @ 1685: uvm_test_top.env_h.sb_h [before event in sb] aaaa
# rd data in s drv: 2c846ba , len : 3 , last:0 , valid : 1
# m mon rid : 3b1c
# rd data in s drv: cf1f676d , len : 3 , last:0 , valid : 1
# m mon rid : 3b1c
# rd data in s drv: 502dab8a , len : 3 , last:0 , valid : 1
# m mon rid : 3b1c
# rd data in s drv: aee101a , len : 3 , last:1 , valid : 1
# abc : 1
# ref model mem : 2412412288
# abc : 2
# ref model mem : 2412412296
# abc : 3
# ref model mem : 2412412304
# abc : 4
# ref model mem : 2412412312
# abc : 5
# ref model mem : 2412412320
# abc : 6
# ref model mem : 2412412328
# abc : 7
# ref model mem : 2412412336
# abc : 8
# ref model mem : 2412412344
# abc : 9
# ref model mem : 2412412352
# abc : 10
# ref model mem : 2412412360
# abc : 11
# ref model mem : 2412412368
# abc : 12
# ref model mem : 2412412376
# abc : 13
# ref model mem : 2412412384
# abc : 14
# ref model mem : 2412412392
# abc : 15
# ref model mem : 2412412400
# abc : 16
# ref model mem : 2412412408
# xyz : 1
# xyz : 2
# xyz : 3
# xyz : 4
# xyz : 5
# xyz : 6
# xyz : 7
# xyz : 8
# xyz : 9
# xyz : 10
# xyz : 11
# xyz : 12
# xyz : 13
# xyz : 14
# xyz : 15
# xyz : 16
# AFFTER W CHANNEL
# req kind : READ
# m mon rid : 3b1c
# UVM_INFO ../env/axi_sb.sv(78) @ 1725: uvm_test_top.env_h.sb_h [after event in sb] aaaa
# UVM_INFO ../env/axi_sb.sv(76) @ 1725: uvm_test_top.env_h.sb_h [before event in sb] aaaa
# match arid : 0 , rid : 0
# UVM_INFO ../env/s_agent/axi_s_drv.sv(31) @ 1725: uvm_test_top.env_h.s_uvc_h.s_agent_h[0].s_drv_h [ID MATCH] aaaaa
# s seqs arid : 25003
# INIDE_SLAVE_SEQ_CTR=28
# match arid : 61ab , rid : 61ab
# UVM_INFO ../env/s_agent/axi_s_drv.sv(31) @ 1725: uvm_test_top.env_h.s_uvc_h.s_agent_h[0].s_drv_h [ID MATCH] aaaaa
# rd data in s drv: c07ec6fd , len : 15 , last:0 , valid : 1
# m mon rid : 61ab
# rd data in s drv: 73a7f155 , len : 15 , last:0 , valid : 1
# m mon rid : 61ab
# req wid : 8187 , bid:8187
# UVM_INFO ../env/m_agent/axi_base_m_seqs.sv(26) @ 1745: uvm_test_top.env_h.m_uvc_h.m_agent_h[0].m_seqr_h@@vseqs_h.m_wseqs_h [IN V SEQS] Got B-channel response from driver
# rd data in s drv: bf796793 , len : 15 , last:0 , valid : 1
# m mon rid : 61ab
# rd data in s drv: 4f00fd62 , len : 15 , last:0 , valid : 1
# abc : 1
# ref model mem : 2186426688
# abc : 2
# ref model mem : 2186426696
# abc : 3
# ref model mem : 2186426704
# abc : 4
# ref model mem : 2186426712
# xyz : 1
# xyz : 2
# xyz : 3
# xyz : 4
# AFFTER W CHANNEL
# m mon rid : 61ab
# match arid : 0 , rid : 0
# UVM_INFO ../env/s_agent/axi_s_drv.sv(31) @ 1765: uvm_test_top.env_h.s_uvc_h.s_agent_h[0].s_drv_h [ID MATCH] aaaaa
# s seqs arid : 51408
# INIDE_SLAVE_SEQ_CTR=29
# match arid : c8d0 , rid : c8d0
# UVM_INFO ../env/s_agent/axi_s_drv.sv(31) @ 1765: uvm_test_top.env_h.s_uvc_h.s_agent_h[0].s_drv_h [ID MATCH] aaaaa
# rd data in s drv: a83d4d0a , len : 15 , last:0 , valid : 1
# m mon rid : 61ab
# rd data in s drv: b48772d7 , len : 15 , last:0 , valid : 1
# m mon rid : 61ab
# req wid : 17206 , bid:17206
# UVM_INFO ../env/m_agent/axi_base_m_seqs.sv(26) @ 1785: uvm_test_top.env_h.m_uvc_h.m_agent_h[0].m_seqr_h@@vseqs_h.m_wseqs_h [IN V SEQS] Got B-channel response from driver
# rd data in s drv: 5fd39831 , len : 15 , last:0 , valid : 1
# m mon rid : 61ab
# rd data in s drv: 40b541a1 , len : 15 , last:0 , valid : 1
# m mon rid : 61ab
# rd data in s drv: 582a6dbb , len : 15 , last:0 , valid : 1
# m mon rid : 61ab
# rd data in s drv: b6471599 , len : 15 , last:0 , valid : 1
# m mon rid : 61ab
# rd data in s drv: 5738d535 , len : 15 , last:0 , valid : 1
# m mon rid : 61ab
# rd data in s drv: 13765cc1 , len : 15 , last:0 , valid : 1
# m mon rid : 61ab
# rd data in s drv: 49a6289 , len : 15 , last:0 , valid : 1
# m mon rid : 61ab
# rd data in s drv: 9449fab9 , len : 15 , last:0 , valid : 1
# m mon rid : 61ab
# rd data in s drv: fe3cd904 , len : 15 , last:0 , valid : 1
# m mon rid : 61ab
# rd data in s drv: 179a2b7f , len : 15 , last:1 , valid : 1
# req kind : READ
# m mon rid : 61ab
# UVM_INFO ../env/axi_sb.sv(78) @ 1885: uvm_test_top.env_h.sb_h [after event in sb] aaaa
# UVM_INFO ../env/axi_sb.sv(76) @ 1885: uvm_test_top.env_h.sb_h [before event in sb] aaaa
# rd data in s drv: efca51b1 , len : 3 , last:0 , valid : 1
# m mon rid : c8d0
# rd data in s drv: d90a2ccc , len : 3 , last:0 , valid : 1
# m mon rid : c8d0
# rd data in s drv: 3e39828c , len : 3 , last:0 , valid : 1
# m mon rid : c8d0
# rd data in s drv: b8949cb7 , len : 3 , last:1 , valid : 1
# abc : 1
# ref model mem : 3939077760
# abc : 2
# ref model mem : 3939077768
# abc : 3
# ref model mem : 3939077776
# abc : 4
# ref model mem : 3939077784
# abc : 5
# ref model mem : 3939077792
# abc : 6
# ref model mem : 3939077800
# abc : 7
# ref model mem : 3939077808
# abc : 8
# ref model mem : 3939077816
# abc : 9
# ref model mem : 3939077824
# abc : 10
# ref model mem : 3939077832
# abc : 11
# ref model mem : 3939077840
# abc : 12
# ref model mem : 3939077848
# abc : 13
# ref model mem : 3939077856
# abc : 14
# ref model mem : 3939077864
# abc : 15
# ref model mem : 3939077872
# abc : 16
# ref model mem : 3939077880
# xyz : 1
# xyz : 2
# xyz : 3
# xyz : 4
# xyz : 5
# xyz : 6
# xyz : 7
# xyz : 8
# xyz : 9
# xyz : 10
# xyz : 11
# xyz : 12
# xyz : 13
# xyz : 14
# xyz : 15
# xyz : 16
# AFFTER W CHANNEL
# req kind : READ
# m mon rid : c8d0
# UVM_INFO ../env/axi_sb.sv(78) @ 1925: uvm_test_top.env_h.sb_h [after event in sb] aaaa
# UVM_INFO ../env/axi_sb.sv(76) @ 1925: uvm_test_top.env_h.sb_h [before event in sb] aaaa
# match arid : 0 , rid : 0
# UVM_INFO ../env/s_agent/axi_s_drv.sv(31) @ 1925: uvm_test_top.env_h.s_uvc_h.s_agent_h[0].s_drv_h [ID MATCH] aaaaa
# s seqs arid : 29970
# INIDE_SLAVE_SEQ_CTR=30
# match arid : 7512 , rid : 7512
# UVM_INFO ../env/s_agent/axi_s_drv.sv(31) @ 1925: uvm_test_top.env_h.s_uvc_h.s_agent_h[0].s_drv_h [ID MATCH] aaaaa
# rd data in s drv: bfafdff3 , len : 15 , last:0 , valid : 1
# m mon rid : 7512
# rd data in s drv: 5c22a82a , len : 15 , last:0 , valid : 1
# abc : 1
# ref model mem : 4035377936
# abc : 2
# ref model mem : 4035377944
# xyz : 1
# xyz : 2
# AFFTER W CHANNEL
# m mon rid : 7512
# req wid : 10359 , bid:10359
# UVM_INFO ../env/m_agent/axi_base_m_seqs.sv(26) @ 1945: uvm_test_top.env_h.m_uvc_h.m_agent_h[0].m_seqr_h@@vseqs_h.m_wseqs_h [IN V SEQS] Got B-channel response from driver
# match arid : 0 , rid : 0
# UVM_INFO ../env/s_agent/axi_s_drv.sv(31) @ 1945: uvm_test_top.env_h.s_uvc_h.s_agent_h[0].s_drv_h [ID MATCH] aaaaa
# s seqs arid : 11395
# INIDE_SLAVE_SEQ_CTR=31
# match arid : 2c83 , rid : 2c83
# UVM_INFO ../env/s_agent/axi_s_drv.sv(31) @ 1945: uvm_test_top.env_h.s_uvc_h.s_agent_h[0].s_drv_h [ID MATCH] aaaaa
# rd data in s drv: 17d9543d , len : 15 , last:0 , valid : 1
# m mon rid : 7512
# rd data in s drv: 7cb0c74f , len : 15 , last:0 , valid : 1
# abc : 1
# ref model mem : 3201657648
# abc : 2
# ref model mem : 3201657656
# xyz : 1
# xyz : 2
# AFFTER W CHANNEL
# m mon rid : 7512
# req wid : 857 , bid:857
# UVM_INFO ../env/m_agent/axi_base_m_seqs.sv(26) @ 1965: uvm_test_top.env_h.m_uvc_h.m_agent_h[0].m_seqr_h@@vseqs_h.m_wseqs_h [IN V SEQS] Got B-channel response from driver
# match arid : 0 , rid : 0
# UVM_INFO ../env/s_agent/axi_s_drv.sv(31) @ 1965: uvm_test_top.env_h.s_uvc_h.s_agent_h[0].s_drv_h [ID MATCH] aaaaa
# s seqs arid : 43166
# INIDE_SLAVE_SEQ_CTR=32
# match arid : a89e , rid : a89e
# UVM_INFO ../env/s_agent/axi_s_drv.sv(31) @ 1965: uvm_test_top.env_h.s_uvc_h.s_agent_h[0].s_drv_h [ID MATCH] aaaaa
# rd data in s drv: 9804af29 , len : 15 , last:0 , valid : 1
# m mon rid : 7512
# rd data in s drv: 7c56e524 , len : 15 , last:0 , valid : 1
# abc : 1
# ref model mem : 322142384
# abc : 2
# ref model mem : 322142392
# xyz : 1
# xyz : 2
# AFFTER W CHANNEL
# m mon rid : 7512
# req wid : 14014 , bid:14014
# UVM_INFO ../env/m_agent/axi_base_m_seqs.sv(26) @ 1985: uvm_test_top.env_h.m_uvc_h.m_agent_h[0].m_seqr_h@@vseqs_h.m_wseqs_h [IN V SEQS] Got B-channel response from driver
# match arid : 0 , rid : 0
# UVM_INFO ../env/s_agent/axi_s_drv.sv(31) @ 1985: uvm_test_top.env_h.s_uvc_h.s_agent_h[0].s_drv_h [ID MATCH] aaaaa
# s seqs arid : 11187
# INIDE_SLAVE_SEQ_CTR=33
# match arid : 2bb3 , rid : 2bb3
# UVM_INFO ../env/s_agent/axi_s_drv.sv(31) @ 1985: uvm_test_top.env_h.s_uvc_h.s_agent_h[0].s_drv_h [ID MATCH] aaaaa
# rd data in s drv: 4fc4d161 , len : 15 , last:0 , valid : 1
# m mon rid : 7512
# rd data in s drv: 45f212d6 , len : 15 , last:0 , valid : 1
# m mon rid : 7512
# req wid : 12583 , bid:12583
# UVM_INFO ../env/m_agent/axi_base_m_seqs.sv(26) @ 2005: uvm_test_top.env_h.m_uvc_h.m_agent_h[0].m_seqr_h@@vseqs_h.m_wseqs_h [IN V SEQS] Got B-channel response from driver
# rd data in s drv: 9df471ce , len : 15 , last:0 , valid : 1
# m mon rid : 7512
# rd data in s drv: c222fc5c , len : 15 , last:0 , valid : 1
# m mon rid : 7512
# rd data in s drv: b93c502f , len : 15 , last:0 , valid : 1
# m mon rid : 7512
# rd data in s drv: 4d4df0 , len : 15 , last:0 , valid : 1
# m mon rid : 7512
# rd data in s drv: 97d6d6a , len : 15 , last:0 , valid : 1
# m mon rid : 7512
# rd data in s drv: 5c8c8c68 , len : 15 , last:0 , valid : 1
# abc : 1
# ref model mem : 115503488
# abc : 2
# ref model mem : 115503496
# abc : 3
# ref model mem : 115503504
# abc : 4
# ref model mem : 115503512
# abc : 5
# ref model mem : 115503520
# abc : 6
# ref model mem : 115503528
# abc : 7
# ref model mem : 115503536
# abc : 8
# ref model mem : 115503544
# xyz : 1
# xyz : 2
# xyz : 3
# xyz : 4
# xyz : 5
# xyz : 6
# xyz : 7
# xyz : 8
# AFFTER W CHANNEL
# m mon rid : 7512
# match arid : 0 , rid : 0
# UVM_INFO ../env/s_agent/axi_s_drv.sv(31) @ 2065: uvm_test_top.env_h.s_uvc_h.s_agent_h[0].s_drv_h [ID MATCH] aaaaa
# s seqs arid : 5180
# INIDE_SLAVE_SEQ_CTR=34
# match arid : 143c , rid : 143c
# UVM_INFO ../env/s_agent/axi_s_drv.sv(31) @ 2065: uvm_test_top.env_h.s_uvc_h.s_agent_h[0].s_drv_h [ID MATCH] aaaaa
# rd data in s drv: dccab29b , len : 15 , last:0 , valid : 1
# m mon rid : 7512
# rd data in s drv: b5b81418 , len : 15 , last:1 , valid : 1
# req kind : READ
# m mon rid : 7512
# req wid : 21072 , bid:21072
# UVM_INFO ../env/m_agent/axi_base_m_seqs.sv(26) @ 2085: uvm_test_top.env_h.m_uvc_h.m_agent_h[0].m_seqr_h@@vseqs_h.m_wseqs_h [IN V SEQS] Got B-channel response from driver
# UVM_INFO ../env/axi_sb.sv(78) @ 2085: uvm_test_top.env_h.sb_h [after event in sb] aaaa
# UVM_INFO ../env/axi_sb.sv(76) @ 2085: uvm_test_top.env_h.sb_h [before event in sb] aaaa
# rd data in s drv: 79b912e8 , len : 1 , last:0 , valid : 1
# m mon rid : 2c83
# rd data in s drv: 28ab3b47 , len : 1 , last:1 , valid : 1
# req kind : READ
# m mon rid : 2c83
# UVM_INFO ../env/axi_sb.sv(78) @ 2105: uvm_test_top.env_h.sb_h [after event in sb] aaaa
# UVM_INFO ../env/axi_sb.sv(76) @ 2105: uvm_test_top.env_h.sb_h [before event in sb] aaaa
# rd data in s drv: f31dea54 , len : 1 , last:0 , valid : 1
# m mon rid : a89e
# rd data in s drv: 94eb1e7c , len : 1 , last:1 , valid : 1
# req kind : READ
# m mon rid : a89e
# UVM_INFO ../env/axi_sb.sv(78) @ 2125: uvm_test_top.env_h.sb_h [after event in sb] aaaa
# UVM_INFO ../env/axi_sb.sv(76) @ 2125: uvm_test_top.env_h.sb_h [before event in sb] aaaa
# rd data in s drv: 495e1385 , len : 1 , last:0 , valid : 1
# m mon rid : 2bb3
# rd data in s drv: ec4f5585 , len : 1 , last:1 , valid : 1
# abc : 1
# ref model mem : 2322362944
# abc : 2
# ref model mem : 2322362952
# abc : 3
# ref model mem : 2322362960
# abc : 4
# ref model mem : 2322362968
# abc : 5
# ref model mem : 2322362976
# abc : 6
# ref model mem : 2322362984
# abc : 7
# ref model mem : 2322362992
# abc : 8
# ref model mem : 2322363000
# xyz : 1
# xyz : 2
# xyz : 3
# xyz : 4
# xyz : 5
# xyz : 6
# xyz : 7
# xyz : 8
# AFFTER W CHANNEL
# req kind : READ
# m mon rid : 2bb3
# UVM_INFO ../env/axi_sb.sv(78) @ 2145: uvm_test_top.env_h.sb_h [after event in sb] aaaa
# UVM_INFO ../env/axi_sb.sv(76) @ 2145: uvm_test_top.env_h.sb_h [before event in sb] aaaa
# match arid : 0 , rid : 0
# UVM_INFO ../env/s_agent/axi_s_drv.sv(31) @ 2145: uvm_test_top.env_h.s_uvc_h.s_agent_h[0].s_drv_h [ID MATCH] aaaaa
# s seqs arid : 33047
# INIDE_SLAVE_SEQ_CTR=35
# match arid : 8117 , rid : 8117
# UVM_INFO ../env/s_agent/axi_s_drv.sv(31) @ 2145: uvm_test_top.env_h.s_uvc_h.s_agent_h[0].s_drv_h [ID MATCH] aaaaa
# rd data in s drv: 8dca5eea , len : 7 , last:0 , valid : 1
# m mon rid : 143c
# rd data in s drv: 34abba76 , len : 7 , last:0 , valid : 1
# m mon rid : 143c
# req wid : 12011 , bid:12011
# UVM_INFO ../env/m_agent/axi_base_m_seqs.sv(26) @ 2165: uvm_test_top.env_h.m_uvc_h.m_agent_h[0].m_seqr_h@@vseqs_h.m_wseqs_h [IN V SEQS] Got B-channel response from driver
# rd data in s drv: e36d973f , len : 7 , last:0 , valid : 1
# m mon rid : 143c
# rd data in s drv: 8a0ee082 , len : 7 , last:0 , valid : 1
# abc : 1
# ref model mem : 115374720
# abc : 2
# ref model mem : 115374728
# abc : 3
# ref model mem : 115374736
# abc : 4
# ref model mem : 115374744
# xyz : 1
# xyz : 2
# xyz : 3
# xyz : 4
# AFFTER W CHANNEL
# m mon rid : 143c
# match arid : 0 , rid : 0
# UVM_INFO ../env/s_agent/axi_s_drv.sv(31) @ 2185: uvm_test_top.env_h.s_uvc_h.s_agent_h[0].s_drv_h [ID MATCH] aaaaa
# s seqs arid : 41870
# INIDE_SLAVE_SEQ_CTR=36
# match arid : a38e , rid : a38e
# UVM_INFO ../env/s_agent/axi_s_drv.sv(31) @ 2185: uvm_test_top.env_h.s_uvc_h.s_agent_h[0].s_drv_h [ID MATCH] aaaaa
# rd data in s drv: b5bb7ba8 , len : 7 , last:0 , valid : 1
# m mon rid : 143c
# rd data in s drv: 6d97c6fe , len : 7 , last:0 , valid : 1
# abc : 1
# ref model mem : 1666119392
# abc : 2
# ref model mem : 1666119400
# xyz : 1
# xyz : 2
# AFFTER W CHANNEL
# m mon rid : 143c
# req wid : 11344 , bid:11344
# UVM_INFO ../env/m_agent/axi_base_m_seqs.sv(26) @ 2205: uvm_test_top.env_h.m_uvc_h.m_agent_h[0].m_seqr_h@@vseqs_h.m_wseqs_h [IN V SEQS] Got B-channel response from driver
# match arid : 0 , rid : 0
# UVM_INFO ../env/s_agent/axi_s_drv.sv(31) @ 2205: uvm_test_top.env_h.s_uvc_h.s_agent_h[0].s_drv_h [ID MATCH] aaaaa
# s seqs arid : 14176
# INIDE_SLAVE_SEQ_CTR=37
# match arid : 3760 , rid : 3760
# UVM_INFO ../env/s_agent/axi_s_drv.sv(31) @ 2205: uvm_test_top.env_h.s_uvc_h.s_agent_h[0].s_drv_h [ID MATCH] aaaaa
# rd data in s drv: 36c63a50 , len : 7 , last:0 , valid : 1
# m mon rid : 143c
# rd data in s drv: c663405a , len : 7 , last:1 , valid : 1
# abc : 1
# ref model mem : 2303864720
# abc : 2
# ref model mem : 2303864728
# xyz : 1
# xyz : 2
# AFFTER W CHANNEL
# req kind : READ
# m mon rid : 143c
# req wid : 33036 , bid:33036
# UVM_INFO ../env/m_agent/axi_base_m_seqs.sv(26) @ 2225: uvm_test_top.env_h.m_uvc_h.m_agent_h[0].m_seqr_h@@vseqs_h.m_wseqs_h [IN V SEQS] Got B-channel response from driver
# UVM_INFO ../env/axi_sb.sv(78) @ 2225: uvm_test_top.env_h.sb_h [after event in sb] aaaa
# UVM_INFO ../env/axi_sb.sv(76) @ 2225: uvm_test_top.env_h.sb_h [before event in sb] aaaa
# match arid : 0 , rid : 0
# UVM_INFO ../env/s_agent/axi_s_drv.sv(31) @ 2225: uvm_test_top.env_h.s_uvc_h.s_agent_h[0].s_drv_h [ID MATCH] aaaaa
# s seqs arid : 15499
# INIDE_SLAVE_SEQ_CTR=38
# match arid : 3c8b , rid : 3c8b
# UVM_INFO ../env/s_agent/axi_s_drv.sv(31) @ 2225: uvm_test_top.env_h.s_uvc_h.s_agent_h[0].s_drv_h [ID MATCH] aaaaa
# rd data in s drv: 60ff69d5 , len : 7 , last:0 , valid : 1
# m mon rid : 8117
# rd data in s drv: 74412a88 , len : 7 , last:0 , valid : 1
# m mon rid : 8117
# req wid : 52090 , bid:52090
# UVM_INFO ../env/m_agent/axi_base_m_seqs.sv(26) @ 2245: uvm_test_top.env_h.m_uvc_h.m_agent_h[0].m_seqr_h@@vseqs_h.m_wseqs_h [IN V SEQS] Got B-channel response from driver
# rd data in s drv: 39d9ac53 , len : 7 , last:0 , valid : 1
# m mon rid : 8117
# rd data in s drv: 55319476 , len : 7 , last:0 , valid : 1
# abc : 1
# ref model mem : 554633248
# abc : 2
# ref model mem : 554633256
# abc : 3
# ref model mem : 554633264
# abc : 4
# ref model mem : 554633272
# xyz : 1
# xyz : 2
# xyz : 3
# xyz : 4
# AFFTER W CHANNEL
# m mon rid : 8117
# match arid : 0 , rid : 0
# UVM_INFO ../env/s_agent/axi_s_drv.sv(31) @ 2265: uvm_test_top.env_h.s_uvc_h.s_agent_h[0].s_drv_h [ID MATCH] aaaaa
# s seqs arid : 29379
# INIDE_SLAVE_SEQ_CTR=39
# match arid : 72c3 , rid : 72c3
# UVM_INFO ../env/s_agent/axi_s_drv.sv(31) @ 2265: uvm_test_top.env_h.s_uvc_h.s_agent_h[0].s_drv_h [ID MATCH] aaaaa
# rd data in s drv: a202faa0 , len : 7 , last:0 , valid : 1
# m mon rid : 8117
# rd data in s drv: 2e85a5b0 , len : 7 , last:0 , valid : 1
# m mon rid : 8117
# req wid : 11006 , bid:11006
# UVM_INFO ../env/m_agent/axi_base_m_seqs.sv(26) @ 2285: uvm_test_top.env_h.m_uvc_h.m_agent_h[0].m_seqr_h@@vseqs_h.m_wseqs_h [IN V SEQS] Got B-channel response from driver
# rd data in s drv: d5f0e4f2 , len : 7 , last:0 , valid : 1
# m mon rid : 8117
# rd data in s drv: f17d17d8 , len : 7 , last:1 , valid : 1
# req kind : READ
# m mon rid : 8117
# UVM_INFO ../env/axi_sb.sv(78) @ 2305: uvm_test_top.env_h.sb_h [after event in sb] aaaa
# UVM_INFO ../env/axi_sb.sv(76) @ 2305: uvm_test_top.env_h.sb_h [before event in sb] aaaa
# rd data in s drv: 70d0f0b8 , len : 3 , last:0 , valid : 1
# m mon rid : a38e
# rd data in s drv: 75d86acf , len : 3 , last:0 , valid : 1
# m mon rid : a38e
# rd data in s drv: 9ff15101 , len : 3 , last:0 , valid : 1
# m mon rid : a38e
# rd data in s drv: b3704f99 , len : 3 , last:1 , valid : 1
# req kind : READ
# m mon rid : a38e
# UVM_INFO ../env/axi_sb.sv(78) @ 2345: uvm_test_top.env_h.sb_h [after event in sb] aaaa
# UVM_INFO ../env/axi_sb.sv(76) @ 2345: uvm_test_top.env_h.sb_h [before event in sb] aaaa
# rd data in s drv: 7e9b5de3 , len : 1 , last:0 , valid : 1
# m mon rid : 3760
# rd data in s drv: 5c7c9a2b , len : 1 , last:1 , valid : 1
# req kind : READ
# m mon rid : 3760
# UVM_INFO ../env/axi_sb.sv(78) @ 2365: uvm_test_top.env_h.sb_h [after event in sb] aaaa
# UVM_INFO ../env/axi_sb.sv(76) @ 2365: uvm_test_top.env_h.sb_h [before event in sb] aaaa
# rd data in s drv: c3988771 , len : 1 , last:0 , valid : 1
# m mon rid : 3c8b
# rd data in s drv: 475578c0 , len : 1 , last:1 , valid : 1
# req kind : READ
# m mon rid : 3c8b
# UVM_INFO ../env/axi_sb.sv(78) @ 2385: uvm_test_top.env_h.sb_h [after event in sb] aaaa
# UVM_INFO ../env/axi_sb.sv(76) @ 2385: uvm_test_top.env_h.sb_h [before event in sb] aaaa
# rd data in s drv: b97c47d4 , len : 3 , last:0 , valid : 1
# m mon rid : 72c3
# rd data in s drv: 4dfeb572 , len : 3 , last:0 , valid : 1
# m mon rid : 72c3
# rd data in s drv: f680952f , len : 3 , last:0 , valid : 1
# m mon rid : 72c3
# rd data in s drv: cb908a76 , len : 3 , last:1 , valid : 1
# abc : 1
# ref model mem : 3632144256
# abc : 2
# ref model mem : 3632144264
# abc : 3
# ref model mem : 3632144272
# abc : 4
# ref model mem : 3632144280
# abc : 5
# ref model mem : 3632144288
# abc : 6
# ref model mem : 3632144296
# abc : 7
# ref model mem : 3632144304
# abc : 8
# ref model mem : 3632144312
# abc : 9
# ref model mem : 3632144320
# abc : 10
# ref model mem : 3632144328
# abc : 11
# ref model mem : 3632144336
# abc : 12
# ref model mem : 3632144344
# abc : 13
# ref model mem : 3632144352
# abc : 14
# ref model mem : 3632144360
# abc : 15
# ref model mem : 3632144368
# abc : 16
# ref model mem : 3632144376
# xyz : 1
# xyz : 2
# xyz : 3
# xyz : 4
# xyz : 5
# xyz : 6
# xyz : 7
# xyz : 8
# xyz : 9
# xyz : 10
# xyz : 11
# xyz : 12
# xyz : 13
# xyz : 14
# xyz : 15
# xyz : 16
# AFFTER W CHANNEL
# req kind : READ
# m mon rid : 72c3
# UVM_INFO ../env/axi_sb.sv(78) @ 2425: uvm_test_top.env_h.sb_h [after event in sb] aaaa
# UVM_INFO ../env/axi_sb.sv(76) @ 2425: uvm_test_top.env_h.sb_h [before event in sb] aaaa
# match arid : 0 , rid : 0
# UVM_INFO ../env/s_agent/axi_s_drv.sv(31) @ 2425: uvm_test_top.env_h.s_uvc_h.s_agent_h[0].s_drv_h [ID MATCH] aaaaa
# s seqs arid : 11568
# INIDE_SLAVE_SEQ_CTR=40
# match arid : 2d30 , rid : 2d30
# UVM_INFO ../env/s_agent/axi_s_drv.sv(31) @ 2425: uvm_test_top.env_h.s_uvc_h.s_agent_h[0].s_drv_h [ID MATCH] aaaaa
# rd data in s drv: 1193e186 , len : 15 , last:0 , valid : 1
# m mon rid : 2d30
# rd data in s drv: 5b02d89c , len : 15 , last:0 , valid : 1
# abc : 1
# ref model mem : 781393936
# abc : 2
# ref model mem : 781393944
# xyz : 1
# xyz : 2
# AFFTER W CHANNEL
# m mon rid : 2d30
# req wid : 37036 , bid:37036
# UVM_INFO ../env/m_agent/axi_base_m_seqs.sv(26) @ 2445: uvm_test_top.env_h.m_uvc_h.m_agent_h[0].m_seqr_h@@vseqs_h.m_wseqs_h [IN V SEQS] Got B-channel response from driver
# match arid : 0 , rid : 0
# UVM_INFO ../env/s_agent/axi_s_drv.sv(31) @ 2445: uvm_test_top.env_h.s_uvc_h.s_agent_h[0].s_drv_h [ID MATCH] aaaaa
# s seqs arid : 16179
# INIDE_SLAVE_SEQ_CTR=41
# match arid : 3f33 , rid : 3f33
# UVM_INFO ../env/s_agent/axi_s_drv.sv(31) @ 2445: uvm_test_top.env_h.s_uvc_h.s_agent_h[0].s_drv_h [ID MATCH] aaaaa
# rd data in s drv: a6d0e2b8 , len : 15 , last:0 , valid : 1
# m mon rid : 2d30
# rd data in s drv: 5f69d455 , len : 15 , last:0 , valid : 1
# abc : 1
# ref model mem : 3760759728
# abc : 2
# ref model mem : 3760759736
# xyz : 1
# xyz : 2
# AFFTER W CHANNEL
# m mon rid : 2d30
# req wid : 46798 , bid:46798
# UVM_INFO ../env/m_agent/axi_base_m_seqs.sv(26) @ 2465: uvm_test_top.env_h.m_uvc_h.m_agent_h[0].m_seqr_h@@vseqs_h.m_wseqs_h [IN V SEQS] Got B-channel response from driver
# match arid : 0 , rid : 0
# UVM_INFO ../env/s_agent/axi_s_drv.sv(31) @ 2465: uvm_test_top.env_h.s_uvc_h.s_agent_h[0].s_drv_h [ID MATCH] aaaaa
# s seqs arid : 60092
# INIDE_SLAVE_SEQ_CTR=42
# match arid : eabc , rid : eabc
# UVM_INFO ../env/s_agent/axi_s_drv.sv(31) @ 2465: uvm_test_top.env_h.s_uvc_h.s_agent_h[0].s_drv_h [ID MATCH] aaaaa
# rd data in s drv: 8c99672f , len : 15 , last:0 , valid : 1
# m mon rid : 2d30
# rd data in s drv: e06fe44a , len : 15 , last:0 , valid : 1
# abc : 1
# ref model mem : 3924566608
# abc : 2
# ref model mem : 3924566616
# xyz : 1
# xyz : 2
# AFFTER W CHANNEL
# m mon rid : 2d30
# req wid : 27349 , bid:27349
# UVM_INFO ../env/m_agent/axi_base_m_seqs.sv(26) @ 2485: uvm_test_top.env_h.m_uvc_h.m_agent_h[0].m_seqr_h@@vseqs_h.m_wseqs_h [IN V SEQS] Got B-channel response from driver
# match arid : 0 , rid : 0
# UVM_INFO ../env/s_agent/axi_s_drv.sv(31) @ 2485: uvm_test_top.env_h.s_uvc_h.s_agent_h[0].s_drv_h [ID MATCH] aaaaa
# s seqs arid : 36315
# INIDE_SLAVE_SEQ_CTR=43
# match arid : 8ddb , rid : 8ddb
# UVM_INFO ../env/s_agent/axi_s_drv.sv(31) @ 2485: uvm_test_top.env_h.s_uvc_h.s_agent_h[0].s_drv_h [ID MATCH] aaaaa
# rd data in s drv: a20544d , len : 15 , last:0 , valid : 1
# m mon rid : 2d30
# rd data in s drv: 5e09184b , len : 15 , last:0 , valid : 1
# abc : 1
# ref model mem : 4041830528
# abc : 2
# ref model mem : 4041830536
# xyz : 1
# xyz : 2
# AFFTER W CHANNEL
# m mon rid : 2d30
# req wid : 51404 , bid:51404
# UVM_INFO ../env/m_agent/axi_base_m_seqs.sv(26) @ 2505: uvm_test_top.env_h.m_uvc_h.m_agent_h[0].m_seqr_h@@vseqs_h.m_wseqs_h [IN V SEQS] Got B-channel response from driver
# match arid : 0 , rid : 0
# UVM_INFO ../env/s_agent/axi_s_drv.sv(31) @ 2505: uvm_test_top.env_h.s_uvc_h.s_agent_h[0].s_drv_h [ID MATCH] aaaaa
# s seqs arid : 5087
# INIDE_SLAVE_SEQ_CTR=44
# match arid : 13df , rid : 13df
# UVM_INFO ../env/s_agent/axi_s_drv.sv(31) @ 2505: uvm_test_top.env_h.s_uvc_h.s_agent_h[0].s_drv_h [ID MATCH] aaaaa
# rd data in s drv: fc5ccfb5 , len : 15 , last:0 , valid : 1
# m mon rid : 2d30
# rd data in s drv: b0f9522a , len : 15 , last:0 , valid : 1
# abc : 1
# ref model mem : 3315907312
# abc : 2
# ref model mem : 3315907320
# xyz : 1
# xyz : 2
# AFFTER W CHANNEL
# m mon rid : 2d30
# req wid : 5078 , bid:5078
# UVM_INFO ../env/m_agent/axi_base_m_seqs.sv(26) @ 2525: uvm_test_top.env_h.m_uvc_h.m_agent_h[0].m_seqr_h@@vseqs_h.m_wseqs_h [IN V SEQS] Got B-channel response from driver
# match arid : 0 , rid : 0
# UVM_INFO ../env/s_agent/axi_s_drv.sv(31) @ 2525: uvm_test_top.env_h.s_uvc_h.s_agent_h[0].s_drv_h [ID MATCH] aaaaa
# s seqs arid : 47476
# INIDE_SLAVE_SEQ_CTR=45
# match arid : b974 , rid : b974
# UVM_INFO ../env/s_agent/axi_s_drv.sv(31) @ 2525: uvm_test_top.env_h.s_uvc_h.s_agent_h[0].s_drv_h [ID MATCH] aaaaa
# rd data in s drv: c37e23eb , len : 15 , last:0 , valid : 1
# m mon rid : 2d30
# rd data in s drv: fac28d41 , len : 15 , last:0 , valid : 1
# abc : 1
# ref model mem : 759116448
# abc : 2
# ref model mem : 759116456
# xyz : 1
# xyz : 2
# AFFTER W CHANNEL
# m mon rid : 2d30
# req wid : 27177 , bid:27177
# UVM_INFO ../env/m_agent/axi_base_m_seqs.sv(26) @ 2545: uvm_test_top.env_h.m_uvc_h.m_agent_h[0].m_seqr_h@@vseqs_h.m_wseqs_h [IN V SEQS] Got B-channel response from driver
# match arid : 0 , rid : 0
# UVM_INFO ../env/s_agent/axi_s_drv.sv(31) @ 2545: uvm_test_top.env_h.s_uvc_h.s_agent_h[0].s_drv_h [ID MATCH] aaaaa
# s seqs arid : 36504
# INIDE_SLAVE_SEQ_CTR=46
# match arid : 8e98 , rid : 8e98
# UVM_INFO ../env/s_agent/axi_s_drv.sv(31) @ 2545: uvm_test_top.env_h.s_uvc_h.s_agent_h[0].s_drv_h [ID MATCH] aaaaa
# rd data in s drv: 2a758897 , len : 15 , last:0 , valid : 1
# m mon rid : 2d30
# rd data in s drv: a8bb821f , len : 15 , last:0 , valid : 1
# m mon rid : 2d30
# req wid : 43401 , bid:43401
# UVM_INFO ../env/m_agent/axi_base_m_seqs.sv(26) @ 2565: uvm_test_top.env_h.m_uvc_h.m_agent_h[0].m_seqr_h@@vseqs_h.m_wseqs_h [IN V SEQS] Got B-channel response from driver
# rd data in s drv: eb714dc9 , len : 15 , last:0 , valid : 1
# m mon rid : 2d30
# rd data in s drv: a51dbd7b , len : 15 , last:1 , valid : 1
# req kind : READ
# m mon rid : 2d30
# UVM_INFO ../env/axi_sb.sv(78) @ 2585: uvm_test_top.env_h.sb_h [after event in sb] aaaa
# UVM_INFO ../env/axi_sb.sv(76) @ 2585: uvm_test_top.env_h.sb_h [before event in sb] aaaa
# rd data in s drv: bd60eb47 , len : 1 , last:0 , valid : 1
# m mon rid : 3f33
# rd data in s drv: e5c2eba5 , len : 1 , last:1 , valid : 1
# req kind : READ
# m mon rid : 3f33
# UVM_INFO ../env/axi_sb.sv(78) @ 2605: uvm_test_top.env_h.sb_h [after event in sb] aaaa
# UVM_INFO ../env/axi_sb.sv(76) @ 2605: uvm_test_top.env_h.sb_h [before event in sb] aaaa
# rd data in s drv: 13ef0fdb , len : 1 , last:0 , valid : 1
# m mon rid : eabc
# rd data in s drv: a5f1a70b , len : 1 , last:1 , valid : 1
# req kind : READ
# m mon rid : eabc
# UVM_INFO ../env/axi_sb.sv(78) @ 2625: uvm_test_top.env_h.sb_h [after event in sb] aaaa
# UVM_INFO ../env/axi_sb.sv(76) @ 2625: uvm_test_top.env_h.sb_h [before event in sb] aaaa
# rd data in s drv: 4b2f0bec , len : 1 , last:0 , valid : 1
# m mon rid : 8ddb
# rd data in s drv: 1cc88cb2 , len : 1 , last:1 , valid : 1
# req kind : READ
# m mon rid : 8ddb
# UVM_INFO ../env/axi_sb.sv(78) @ 2645: uvm_test_top.env_h.sb_h [after event in sb] aaaa
# UVM_INFO ../env/axi_sb.sv(76) @ 2645: uvm_test_top.env_h.sb_h [before event in sb] aaaa
# rd data in s drv: 59cd4b00 , len : 1 , last:0 , valid : 1
# m mon rid : 13df
# rd data in s drv: 4b5c4803 , len : 1 , last:1 , valid : 1
# req kind : READ
# m mon rid : 13df
# UVM_INFO ../env/axi_sb.sv(78) @ 2665: uvm_test_top.env_h.sb_h [after event in sb] aaaa
# UVM_INFO ../env/axi_sb.sv(76) @ 2665: uvm_test_top.env_h.sb_h [before event in sb] aaaa
# rd data in s drv: 83e45107 , len : 1 , last:0 , valid : 1
# m mon rid : b974
# rd data in s drv: 594f1084 , len : 1 , last:1 , valid : 1
# req kind : READ
# m mon rid : b974
# UVM_INFO ../env/axi_sb.sv(78) @ 2685: uvm_test_top.env_h.sb_h [after event in sb] aaaa
# UVM_INFO ../env/axi_sb.sv(76) @ 2685: uvm_test_top.env_h.sb_h [before event in sb] aaaa
# rd data in s drv: f9582886 , len : 1 , last:0 , valid : 1
# m mon rid : 8e98
# rd data in s drv: 83eb57c5 , len : 1 , last:1 , valid : 1
# abc : 1
# ref model mem : 3960923776
# abc : 2
# ref model mem : 3960923784
# abc : 3
# ref model mem : 3960923792
# abc : 4
# ref model mem : 3960923800
# abc : 5
# ref model mem : 3960923808
# abc : 6
# ref model mem : 3960923816
# abc : 7
# ref model mem : 3960923824
# abc : 8
# ref model mem : 3960923832
# abc : 9
# ref model mem : 3960923840
# abc : 10
# ref model mem : 3960923848
# abc : 11
# ref model mem : 3960923856
# abc : 12
# ref model mem : 3960923864
# abc : 13
# ref model mem : 3960923872
# abc : 14
# ref model mem : 3960923880
# abc : 15
# ref model mem : 3960923888
# abc : 16
# ref model mem : 3960923896
# xyz : 1
# xyz : 2
# xyz : 3
# xyz : 4
# xyz : 5
# xyz : 6
# xyz : 7
# xyz : 8
# xyz : 9
# xyz : 10
# xyz : 11
# xyz : 12
# xyz : 13
# xyz : 14
# xyz : 15
# xyz : 16
# AFFTER W CHANNEL
# req kind : READ
# m mon rid : 8e98
# UVM_INFO ../env/axi_sb.sv(78) @ 2705: uvm_test_top.env_h.sb_h [after event in sb] aaaa
# UVM_INFO ../env/axi_sb.sv(76) @ 2705: uvm_test_top.env_h.sb_h [before event in sb] aaaa
# match arid : 0 , rid : 0
# UVM_INFO ../env/s_agent/axi_s_drv.sv(31) @ 2705: uvm_test_top.env_h.s_uvc_h.s_agent_h[0].s_drv_h [ID MATCH] aaaaa
# s seqs arid : 22723
# INIDE_SLAVE_SEQ_CTR=47
# match arid : 58c3 , rid : 58c3
# UVM_INFO ../env/s_agent/axi_s_drv.sv(31) @ 2705: uvm_test_top.env_h.s_uvc_h.s_agent_h[0].s_drv_h [ID MATCH] aaaaa
# rd data in s drv: 315d7cc8 , len : 15 , last:0 , valid : 1
# m mon rid : 58c3
