# vsim -coverage -voptargs="+acc" axi_tb_top -c -do "coverage save -onexit -directive -cvg -codeall axi_corner_test.ucdb; run -all; exit" "+UVM_TESTNAME=axi_corner_test" -l axi_corner_test.log 
# Start time: 14:54:39 on May 11,2026
# ** Note: (vsim-8009) Loading existing optimized design _opt
# //  Questa Sim-64
# //  Version 2023.4 linux_x86_64 Oct  9 2023
# //
# //  Copyright 1991-2023 Mentor Graphics Corporation
# //  All Rights Reserved.
# //
# //  QuestaSim and its associated documentation contain trade
# //  secrets and commercial or financial information that are the property of
# //  Mentor Graphics Corporation and are privileged, confidential,
# //  and exempt from disclosure under the Freedom of Information Act,
# //  5 U.S.C. Section 552. Furthermore, this information
# //  is prohibited from disclosure under the Trade Secrets Act,
# //  18 U.S.C. Section 1905.
# //
# Loading sv_std.std
# Loading work.axi_s_inf(fast)
# Loading work.axi_m_inf(fast)
# Loading mtiUvm.uvm_pkg(fast)
# Loading work.axi_s_agent_pkg(fast)
# Loading work.axi_m_agent_pkg(fast)
# Loading work.axi_env_pkg(fast)
# Loading work.axi_test_pkg(fast)
# Loading mtiUvm.questa_uvm_pkg(fast)
# Loading work.axi_tb_top(fast)
# Loading work.axi_m_inf(fast__2)
# Loading work.axi_s_inf(fast__2)
# ** Warning: (vsim-8441) Clocking block output s_vif.s_drv_cb.RDATA is not legal in this
# or another expression.
#    Time: 0 ns  Iteration: 0  Region: /axi_s_agent_pkg::axi_s_drv #(32, 32) File: ../env/s_agent/axi_s_drv.sv Line: 113
# ** Warning: (vsim-8441) Clocking block output s_vif.s_drv_cb.RVALID is not legal in this
# or another expression.
#    Time: 0 ns  Iteration: 0  Region: /axi_s_agent_pkg::axi_s_drv #(32, 32) File: ../env/s_agent/axi_s_drv.sv Line: 115
# ** Warning: (vsim-8441) Clocking block output s_vif.s_drv_cb.RLAST is not legal in this
# or another expression.
#    Time: 0 ns  Iteration: 0  Region: /axi_s_agent_pkg::axi_s_drv #(32, 32) File: ../env/s_agent/axi_s_drv.sv Line: 116
# ** Warning: (vsim-8441) Clocking block output s_vif.s_drv_cb.RDATA is not legal in this
# or another expression.
#    Time: 0 ns  Iteration: 0  Region: /axi_s_agent_pkg::axi_s_drv #(32, 32) File: ../env/s_agent/axi_s_drv.sv Line: 113
# ** Warning: (vsim-8441) Clocking block output s_vif.s_drv_cb.RLAST is not legal in this
# or another expression.
#    Time: 0 ns  Iteration: 0  Region: /axi_s_agent_pkg::axi_s_drv #(32, 32) File: ../env/s_agent/axi_s_drv.sv Line: 116
# ** Warning: (vsim-8441) Clocking block output s_vif.s_drv_cb.RVALID is not legal in this
# or another expression.
#    Time: 0 ns  Iteration: 0  Region: /axi_s_agent_pkg::axi_s_drv #(32, 32) File: ../env/s_agent/axi_s_drv.sv Line: 115
# ** Warning: (vsim-8441) Clocking block output s_vif.s_drv_cb.RVALID is not legal in this
# or another expression.
#    Time: 0 ns  Iteration: 0  Region: /axi_s_agent_pkg::axi_s_drv #(32, 32) File: ../env/s_agent/axi_s_drv.sv Line: 115
# ** Warning: (vsim-8441) Clocking block output s_vif.s_drv_cb.RLAST is not legal in this
# or another expression.
#    Time: 0 ns  Iteration: 0  Region: /axi_s_agent_pkg::axi_s_drv #(32, 32) File: ../env/s_agent/axi_s_drv.sv Line: 116
# Loading /tools/mentor/questa/2023.4/questasim/uvm-1.1d/linux_x86_64/uvm_dpi.so
# coverage save -onexit -directive -cvg -codeall axi_corner_test.ucdb
#  run -all
# ----------------------------------------------------------------
# UVM-1.1d
# (C) 2007-2013 Mentor Graphics Corporation
# (C) 2007-2013 Cadence Design Systems, Inc.
# (C) 2006-2013 Synopsys, Inc.
# (C) 2011-2013 Cypress Semiconductor Corp.
# ----------------------------------------------------------------
# 
#   ***********       IMPORTANT RELEASE NOTES         ************
# 
#   You are using a version of the UVM library that has been compiled
#   with `UVM_NO_DEPRECATED undefined.
#   See http://www.eda.org/svdb/view.php?id=3313 for more details.
# 
#   You are using a version of the UVM library that has been compiled
#   with `UVM_OBJECT_MUST_HAVE_CONSTRUCTOR undefined.
#   See http://www.eda.org/svdb/view.php?id=3770 for more details.
# 
#       (Specify +UVM_NO_RELNOTES to turn off this notice)
# 
# UVM_INFO verilog_src/questa_uvm_pkg-1.2/src/questa_uvm_pkg.sv(277) @ 0: reporter [Questa UVM] QUESTA_UVM-1.2.3
# UVM_INFO verilog_src/questa_uvm_pkg-1.2/src/questa_uvm_pkg.sv(278) @ 0: reporter [Questa UVM]  questa_uvm::init(+struct)
# UVM_INFO @ 0: reporter [RNTST] Running test axi_corner_test...
# ** Warning: (vsim-8474) A higher value '4294967295' is found in bin 'all_ones' of Coverpoint 'cp_wdata'. It is invalid and will be ignored.
#    Time: 0 ns  Iteration: 7  Process: /uvm_pkg::uvm_phase::m_run_phases/#FORK#1847_7fefec4648d File: ../env/axi_coverage.sv Line: 49
# ** Warning: (vsim-8549) After dropping the illegal, ignore or invalid values, the values list associated with scalar bin 'all_ones' in Coverpoint 'cp_wdata' of Covergroup instance '\/axi_env_pkg::axi_coverage::write_cov ' has converged to empty list. The bin will be taken out of coverage calculation.
#    Time: 0 ns  Iteration: 7  Region: /uvm_pkg::uvm_phase::m_run_phases
# ** Warning: (vsim-8474) A higher value '1431655765' is found in bin 'toggle_01' of Coverpoint 'cp_wdata'. It is invalid and will be ignored.
#    Time: 0 ns  Iteration: 7  Process: /uvm_pkg::uvm_phase::m_run_phases/#FORK#1847_7fefec4648d File: ../env/axi_coverage.sv Line: 50
# ** Warning: (vsim-8474) A higher value '2863311530' is found in bin 'toggle_01' of Coverpoint 'cp_wdata'. It is invalid and will be ignored.
#    Time: 0 ns  Iteration: 7  Process: /uvm_pkg::uvm_phase::m_run_phases/#FORK#1847_7fefec4648d File: ../env/axi_coverage.sv Line: 50
# ** Warning: (vsim-8549) After dropping the illegal, ignore or invalid values, the values list associated with scalar bin 'toggle_01' in Coverpoint 'cp_wdata' of Covergroup instance '\/axi_env_pkg::axi_coverage::write_cov ' has converged to empty list. The bin will be taken out of coverage calculation.
#    Time: 0 ns  Iteration: 7  Region: /uvm_pkg::uvm_phase::m_run_phases
# ** Warning: (vsim-3881) ../env/axi_coverage.sv(51): Width conversion applied in bin 'other_data' for Coverpoint 'cp_wdata'. Value '1' changed to ' (maximum)' value.
#    Time: 0 ns  Iteration: 7  Region: /uvm_pkg::uvm_phase::m_run_phases
# ** Warning: (vsim-3881) ../env/axi_coverage.sv(51): Width conversion applied in bin 'other_data' for Coverpoint 'cp_wdata'. Value '4294901759' changed to ' (maximum)' value.
#    Time: 0 ns  Iteration: 7  Region: /uvm_pkg::uvm_phase::m_run_phases
# ** Warning: (vsim-8475) The invalid value range [1 : 4294901759] is found in bin 'other_data' of Coverpoint 'cp_wdata'. It will be ignored.
#    Time: 0 ns  Iteration: 7  Process: /uvm_pkg::uvm_phase::m_run_phases/#FORK#1847_7fefec4648d File: ../env/axi_coverage.sv Line: 51
# ** Warning: (vsim-8549) After dropping the illegal, ignore or invalid values, the values list associated with array bin 'other_data' in Coverpoint 'cp_wdata' of Covergroup instance '\/axi_env_pkg::axi_coverage::write_cov ' has converged to empty list. The bin will be taken out of coverage calculation.
#    Time: 0 ns  Iteration: 7  Region: /uvm_pkg::uvm_phase::m_run_phases
# ** Warning: (vsim-8474) A higher value '8' is found in bin 'single_byte' of Coverpoint 'cp_wstrb'. It is invalid and will be ignored.
#    Time: 0 ns  Iteration: 7  Process: /uvm_pkg::uvm_phase::m_run_phases/#FORK#1847_7fefec4648d File: ../env/axi_coverage.sv Line: 72
# ** Warning: (vsim-8474) A higher value '12' is found in bin 'single_byte' of Coverpoint 'cp_wstrb'. It is invalid and will be ignored.
#    Time: 0 ns  Iteration: 7  Process: /uvm_pkg::uvm_phase::m_run_phases/#FORK#1847_7fefec4648d File: ../env/axi_coverage.sv Line: 72
# ** Warning: (vsim-8474) A higher value '14' is found in bin 'single_byte' of Coverpoint 'cp_wstrb'. It is invalid and will be ignored.
#    Time: 0 ns  Iteration: 7  Process: /uvm_pkg::uvm_phase::m_run_phases/#FORK#1847_7fefec4648d File: ../env/axi_coverage.sv Line: 72
# ** Warning: (vsim-8549) After dropping the illegal, ignore or invalid values, the values list associated with scalar bin 'single_byte' in Coverpoint 'cp_wstrb' of Covergroup instance '\/axi_env_pkg::axi_coverage::write_cov ' has converged to empty list. The bin will be taken out of coverage calculation.
#    Time: 0 ns  Iteration: 7  Region: /uvm_pkg::uvm_phase::m_run_phases
# ** Warning: (vsim-8474) A higher value '15' is found in bin 'all_bytes' of Coverpoint 'cp_wstrb'. It is invalid and will be ignored.
#    Time: 0 ns  Iteration: 7  Process: /uvm_pkg::uvm_phase::m_run_phases/#FORK#1847_7fefec4648d File: ../env/axi_coverage.sv Line: 73
# ** Warning: (vsim-8549) After dropping the illegal, ignore or invalid values, the values list associated with scalar bin 'all_bytes' in Coverpoint 'cp_wstrb' of Covergroup instance '\/axi_env_pkg::axi_coverage::write_cov ' has converged to empty list. The bin will be taken out of coverage calculation.
#    Time: 0 ns  Iteration: 7  Region: /uvm_pkg::uvm_phase::m_run_phases
# ** Warning: (vsim-8554) The expression 'binsof(cp_wstrb.single_byte)' inside the select expression of Bin 'invalid_wrap' of Cross 'STRB_CP' in Covergroup instance '\/axi_env_pkg::axi_coverage::write_cov ' is an empty user bin. The binsof expression will result in an empty set.
#    Time: 0 ns  Iteration: 7  Region: /uvm_pkg::uvm_phase::m_run_phases
# UVM_INFO ../env/s_agent/axi_s_seqr.sv(25) @ 0: uvm_test_top.env_h.s_uvc_h.s_agent_h[0].s_seqr_h [Data in s seqr] Data got in slave seqr
# UVM_INFO @ 0: reporter [UVMTOP] UVM testbench topology:
# --------------------------------------------------------------------------------
# Name                             Type                                Size  Value
# --------------------------------------------------------------------------------
# uvm_test_top                     axi_corner_test                     -     @479 
#   env_h                          axi_env                             -     @491 
#     m_uvc_h                      uvm_agent                           -     @513 
#       m_agent_h[0]               uvm_agent                           -     @693 
#         m_drv_h                  uvm_driver #(REQ,RSP)               -     @814 
#           rsp_port               uvm_analysis_port                   -     @829 
#           seq_item_port          uvm_seq_item_pull_port              -     @821 
#         m_mon_h                  axi_m_mon#(ADDR_WIDTH, DATA_WIDTH)  -     @837 
#           s_port                 uvm_analysis_port                   -     @844 
#         m_seqr_h                 uvm_sequencer                       -     @705 
#           rsp_export             uvm_analysis_export                 -     @712 
#           seq_item_export        uvm_seq_item_pull_imp               -     @806 
#           arbitration_queue      array                               0     -    
#           lock_queue             array                               0     -    
#           num_last_reqs          integral                            32    'd1  
#           num_last_rsps          integral                            32    'd1  
#     ref_model_h                  axi_ref_model                       -     @558 
#       mon_imp                    uvm_analysis_imp                    -     @565 
#       sb_imp                     uvm_analysis_port                   -     @573 
#     s_uvc_h                      uvm_agent                           -     @520 
#       s_agent_h[0]               uvm_agent                           -     @860 
#         s_drv_h                  uvm_driver #(REQ,RSP)               -     @1036
#           rsp_port               uvm_analysis_port                   -     @1051
#           seq_item_port          uvm_seq_item_pull_port              -     @1043
#         s_mon_h                  axi_s_mon#(ADDR_WIDTH, DATA_WIDTH)  -     @1059
#           s_port                 uvm_analysis_port                   -     @1066
#         s_seqr_h                 uvm_sequencer                       -     @872 
#           item_collected_export  uvm_analysis_export                 -     @981 
#           item_req_fifo          uvm_tlm_analysis_fifo #(T)          -     @989 
#             analysis_export      uvm_analysis_imp                    -     @1028
#             get_ap               uvm_analysis_port                   -     @1020
#             get_peek_export      uvm_get_peek_imp                    -     @1004
#             put_ap               uvm_analysis_port                   -     @1012
#             put_export           uvm_put_imp                         -     @996 
#           rsp_export             uvm_analysis_export                 -     @879 
#           seq_item_export        uvm_seq_item_pull_imp               -     @973 
#           arbitration_queue      array                               0     -    
#           lock_queue             array                               0     -    
#           num_last_reqs          integral                            32    'd1  
#           num_last_rsps          integral                            32    'd1  
#     sb_h                         axi_sb                              -     @527 
#       anl_imp_m                  uvm_analysis_imp_m                  -     @534 
#       anl_imp_ref                uvm_analysis_imp_ref                -     @542 
#     vseqr_h                      axi_virtual_seqr                    -     @581 
#       rsp_export                 uvm_analysis_export                 -     @588 
#       seq_item_export            uvm_seq_item_pull_imp               -     @682 
#       arbitration_queue          array                               0     -    
#       lock_queue                 array                               0     -    
#       num_last_reqs              integral                            32    'd1  
#       num_last_rsps              integral                            32    'd1  
# --------------------------------------------------------------------------------
# 
# UVM_INFO ../env/axi_sb.sv(80) @ 0: uvm_test_top.env_h.sb_h [before event in sb] aaaa
# UVM_INFO ../env/m_agent/axi_m_mon.sv(28) @ 0: uvm_test_top.env_h.m_uvc_h.m_agent_h[0].m_mon_h [M MON RUN PHASE before] Inside master mon run phase
# UVM_INFO ../env/m_agent/axi_m_mon.sv(36) @ 0: uvm_test_top.env_h.m_uvc_h.m_agent_h[0].m_mon_h [M MON run PHASE after] Inside master mon
# UVM_INFO ../env/m_agent/axi_m_mon.sv(41) @ 0: uvm_test_top.env_h.m_uvc_h.m_agent_h[0].m_mon_h [M MON write addr PHASE before] Inside master mon
# UVM_INFO ../env/m_agent/axi_m_mon.sv(60) @ 0: uvm_test_top.env_h.m_uvc_h.m_agent_h[0].m_mon_h [M MON write data PHASE before] Inside master mon
# UVM_INFO ../env/m_agent/axi_m_mon.sv(99) @ 0: uvm_test_top.env_h.m_uvc_h.m_agent_h[0].m_mon_h [M MON read addr PHASE before] Inside master mon
# UVM_INFO ../env/m_agent/axi_m_mon.sv(118) @ 0: uvm_test_top.env_h.m_uvc_h.m_agent_h[0].m_mon_h [M MON read data PHASE before] Inside master mon
# Before AW CHANNEL
# Before W CHANNEL
# Before AR CHANNEL
# Before R CHANNEL
# AWLEN IN M DRV:75
# cnt : 1
# AWLEN IN M DRV:154
# cnt : 2
# AWLEN IN M DRV:228
# cnt : 3
# AWLEN IN M DRV:183
# cnt : 4
# AWLEN IN M DRV:159
# cnt : 5
# AWLEN IN M DRV:255
# cnt : 6
# AWLEN IN M DRV:223
# cnt : 7
# AWLEN IN M DRV:120
# cnt : 8
# AWLEN IN M DRV:190
# cnt : 9
# AWLEN IN M DRV:243
# cnt : 10
# AWLEN IN M DRV:248
# cnt : 11
# AWLEN IN M DRV:148
# cnt : 12
# AWLEN IN M DRV:98
# cnt : 13
# AWLEN IN M DRV:68
# cnt : 14
# AWLEN IN M DRV:103
# cnt : 15
# AWLEN IN M DRV:152
# cnt : 16
# AWLEN IN M DRV:230
# cnt : 17
# AWLEN IN M DRV:239
# cnt : 18
# AWLEN IN M DRV:133
# cnt : 19
# AWLEN IN M DRV:241
# cnt : 20
# AWLEN IN M DRV:111
# cnt : 21
# AWLEN IN M DRV:153
# cnt : 22
# AWLEN IN M DRV:144
# cnt : 23
# AWLEN IN M DRV:20
# cnt : 24
# AWLEN IN M DRV:179
# cnt : 25
# AWLEN IN M DRV:107
# cnt : 26
# AWLEN IN M DRV:133
# cnt : 27
# AWLEN IN M DRV:95
# cnt : 28
# AWLEN IN M DRV:116
# cnt : 29
# AWLEN IN M DRV:190
# cnt : 30
# AWLEN IN M DRV:214
# cnt : 31
# AWLEN IN M DRV:159
# cnt : 32
# AWLEN IN M DRV:244
# cnt : 33
# AWLEN IN M DRV:125
# cnt : 34
# AWLEN IN M DRV:108
# cnt : 35
# AWLEN IN M DRV:95
# cnt : 36
# AWLEN IN M DRV:96
# cnt : 37
# AWLEN IN M DRV:111
# cnt : 38
# AWLEN IN M DRV:162
# cnt : 39
# AWLEN IN M DRV:114
# cnt : 40
# AWLEN IN M DRV:11
# cnt : 41
# AWLEN IN M DRV:34
# cnt : 42
# AWLEN IN M DRV:154
# cnt : 43
# AWLEN IN M DRV:161
# cnt : 44
# AWLEN IN M DRV:196
# cnt : 45
# AWLEN IN M DRV:189
# cnt : 46
# AWLEN IN M DRV:97
# cnt : 47
# AWLEN IN M DRV:132
# cnt : 48
# AWLEN IN M DRV:129
# cnt : 49
# AWLEN IN M DRV:154
# cnt : 50
# AWLEN IN M DRV:72
# cnt : 51
# AWLEN IN M DRV:86
# cnt : 52
# AWLEN IN M DRV:226
# cnt : 53
# AWLEN IN M DRV:164
# cnt : 54
# AWLEN IN M DRV:20
# cnt : 55
# AWLEN IN M DRV:72
# cnt : 56
# AWLEN IN M DRV:219
# cnt : 57
# AWLEN IN M DRV:31
# cnt : 58
# AWLEN IN M DRV:104
# cnt : 59
# AWLEN IN M DRV:186
# cnt : 60
# AWLEN IN M DRV:106
# cnt : 61
# AWLEN IN M DRV:231
# cnt : 62
# AWLEN IN M DRV:188
# cnt : 63
# AWLEN IN M DRV:23
# cnt : 64
# AWLEN IN M DRV:251
# cnt : 65
# AWLEN IN M DRV:50
# cnt : 66
# AWLEN IN M DRV:12
# cnt : 67
# AWLEN IN M DRV:87
# cnt : 68
# AWLEN IN M DRV:181
# cnt : 69
# AWLEN IN M DRV:61
# cnt : 70
# AWLEN IN M DRV:180
# cnt : 71
# AWLEN IN M DRV:80
# cnt : 72
# AWLEN IN M DRV:129
# cnt : 73
# AWLEN IN M DRV:32
# cnt : 74
# AWLEN IN M DRV:73
# cnt : 75
# AWLEN IN M DRV:201
# cnt : 76
# AWLEN IN M DRV:25
# cnt : 77
# AWLEN IN M DRV:23
# cnt : 78
# AWLEN IN M DRV:216
# cnt : 79
# AWLEN IN M DRV:100
# cnt : 80
# AWLEN IN M DRV:149
# cnt : 81
# AWLEN IN M DRV:253
# cnt : 82
# AWLEN IN M DRV:126
# cnt : 83
# AWLEN IN M DRV:202
# cnt : 84
# AWLEN IN M DRV:13
# cnt : 85
# AWLEN IN M DRV:97
# cnt : 86
# AWLEN IN M DRV:10
# cnt : 87
# AWLEN IN M DRV:97
# cnt : 88
# AWLEN IN M DRV:46
# cnt : 89
# AWLEN IN M DRV:90
# cnt : 90
# AWLEN IN M DRV:228
# cnt : 91
# AWLEN IN M DRV:172
# cnt : 92
# AWLEN IN M DRV:211
# cnt : 93
# AWLEN IN M DRV:17
# cnt : 94
# AWLEN IN M DRV:75
# cnt : 95
# AWLEN IN M DRV:163
# cnt : 96
# AWLEN IN M DRV:74
# cnt : 97
# AWLEN IN M DRV:95
# cnt : 98
# AWLEN IN M DRV:212
# cnt : 99
# AWLEN IN M DRV:214
# cnt : 100
# AWLEN IN M DRV:4
# cnt : 101
# AWLEN IN M DRV:228
# cnt : 102
# AWLEN IN M DRV:190
# cnt : 103
# AWLEN IN M DRV:70
# cnt : 104
# AWLEN IN M DRV:6
# cnt : 105
# AWLEN IN M DRV:239
# cnt : 106
# AWLEN IN M DRV:245
# cnt : 107
# AWLEN IN M DRV:91
# cnt : 108
# AWLEN IN M DRV:85
# cnt : 109
# AWLEN IN M DRV:124
# cnt : 110
# AWLEN IN M DRV:30
# cnt : 111
# AWLEN IN M DRV:178
# cnt : 112
# AWLEN IN M DRV:137
# cnt : 113
# AWLEN IN M DRV:139
# cnt : 114
# AWLEN IN M DRV:2
# cnt : 115
# AWLEN IN M DRV:74
# cnt : 116
# AWLEN IN M DRV:82
# cnt : 117
# AWLEN IN M DRV:203
# cnt : 118
# AWLEN IN M DRV:236
# cnt : 119
# AWLEN IN M DRV:145
# cnt : 120
# AWLEN IN M DRV:31
# cnt : 121
# AWLEN IN M DRV:63
# cnt : 122
# AWLEN IN M DRV:88
# cnt : 123
# AWLEN IN M DRV:43
# cnt : 124
# AWLEN IN M DRV:66
# cnt : 125
# AWLEN IN M DRV:206
# cnt : 126
# AWLEN IN M DRV:82
# cnt : 127
# AWLEN IN M DRV:14
# cnt : 128
# AWLEN IN M DRV:253
# cnt : 129
# AWLEN IN M DRV:99
# cnt : 130
# AWLEN IN M DRV:78
# cnt : 131
# AWLEN IN M DRV:149
# cnt : 132
# AWLEN IN M DRV:140
# cnt : 133
# AWLEN IN M DRV:40
# cnt : 134
# AWLEN IN M DRV:45
# cnt : 135
# AWLEN IN M DRV:48
# cnt : 136
# AWLEN IN M DRV:60
# cnt : 137
# AWLEN IN M DRV:246
# cnt : 138
# AWLEN IN M DRV:201
# cnt : 139
# AWLEN IN M DRV:234
# cnt : 140
# AWLEN IN M DRV:93
# cnt : 141
# AWLEN IN M DRV:44
# cnt : 142
# AWLEN IN M DRV:134
# cnt : 143
# AWLEN IN M DRV:24
# cnt : 144
# AWLEN IN M DRV:46
# cnt : 145
# AWLEN IN M DRV:254
# cnt : 146
# AWLEN IN M DRV:71
# cnt : 147
# AWLEN IN M DRV:239
# cnt : 148
# AWLEN IN M DRV:120
# cnt : 149
# AWLEN IN M DRV:7
# cnt : 150
# AWLEN IN M DRV:210
# cnt : 151
# AWLEN IN M DRV:67
# cnt : 152
# AWLEN IN M DRV:67
# cnt : 153
# AWLEN IN M DRV:0
# cnt : 154
# AWLEN IN M DRV:30
# cnt : 155
# AWLEN IN M DRV:135
# cnt : 156
# AWLEN IN M DRV:150
# cnt : 157
# AWLEN IN M DRV:111
# cnt : 158
# AWLEN IN M DRV:7
# cnt : 159
# AWLEN IN M DRV:188
# cnt : 160
# AWLEN IN M DRV:171
# cnt : 161
# AWLEN IN M DRV:42
# cnt : 162
# AWLEN IN M DRV:62
# cnt : 163
# AWLEN IN M DRV:75
# cnt : 164
# AWLEN IN M DRV:142
# cnt : 165
# AWLEN IN M DRV:181
# cnt : 166
# AWLEN IN M DRV:25
# cnt : 167
# AWLEN IN M DRV:69
# cnt : 168
# AWLEN IN M DRV:245
# cnt : 169
# AWLEN IN M DRV:40
# cnt : 170
# AWLEN IN M DRV:98
# cnt : 171
# AWLEN IN M DRV:32
# cnt : 172
# AWLEN IN M DRV:92
# cnt : 173
# AWLEN IN M DRV:24
# cnt : 174
# AWLEN IN M DRV:184
# cnt : 175
# AWLEN IN M DRV:164
# cnt : 176
# AWLEN IN M DRV:123
# cnt : 177
# AWLEN IN M DRV:68
# cnt : 178
# AWLEN IN M DRV:195
# cnt : 179
# AWLEN IN M DRV:12
# cnt : 180
# AWLEN IN M DRV:194
# cnt : 181
# AWLEN IN M DRV:31
# cnt : 182
# AWLEN IN M DRV:203
# cnt : 183
# AWLEN IN M DRV:192
# cnt : 184
# AWLEN IN M DRV:71
# cnt : 185
# AWLEN IN M DRV:105
# cnt : 186
# AWLEN IN M DRV:51
# cnt : 187
# AWLEN IN M DRV:33
# cnt : 188
# AWLEN IN M DRV:146
# cnt : 189
# AWLEN IN M DRV:45
# cnt : 190
# AWLEN IN M DRV:0
# cnt : 191
# AWLEN IN M DRV:48
# cnt : 192
# AWLEN IN M DRV:198
# cnt : 193
# AWLEN IN M DRV:188
# cnt : 194
# AWLEN IN M DRV:103
# cnt : 195
# AWLEN IN M DRV:2
# cnt : 196
# AWLEN IN M DRV:240
# cnt : 197
# AWLEN IN M DRV:88
# cnt : 198
# AWLEN IN M DRV:122
# cnt : 199
# AWLEN IN M DRV:253
# cnt : 200
# AWLEN IN M DRV:112
# cnt : 201
# AWLEN IN M DRV:35
# cnt : 202
# AWLEN IN M DRV:232
# cnt : 203
# AWLEN IN M DRV:71
# cnt : 204
# AWLEN IN M DRV:172
# cnt : 205
# AWLEN IN M DRV:91
# cnt : 206
# AWLEN IN M DRV:190
# cnt : 207
# AWLEN IN M DRV:86
# cnt : 208
# AWLEN IN M DRV:1
# cnt : 209
# AWLEN IN M DRV:124
# cnt : 210
# AWLEN IN M DRV:22
# cnt : 211
# AWLEN IN M DRV:18
# cnt : 212
# AWLEN IN M DRV:13
# cnt : 213
# AWLEN IN M DRV:180
# cnt : 214
# AWLEN IN M DRV:162
# cnt : 215
# AWLEN IN M DRV:111
# cnt : 216
# AWLEN IN M DRV:190
# cnt : 217
# AWLEN IN M DRV:124
# cnt : 218
# AWLEN IN M DRV:73
# cnt : 219
# AWLEN IN M DRV:231
# cnt : 220
# AWLEN IN M DRV:130
# cnt : 221
# AWLEN IN M DRV:180
# cnt : 222
# AWLEN IN M DRV:189
# cnt : 223
# AWLEN IN M DRV:157
# cnt : 224
# AWLEN IN M DRV:130
# cnt : 225
# AWLEN IN M DRV:62
# cnt : 226
# AWLEN IN M DRV:108
# cnt : 227
# AWLEN IN M DRV:227
# cnt : 228
# AWLEN IN M DRV:211
# cnt : 229
# AWLEN IN M DRV:55
# cnt : 230
# AWLEN IN M DRV:123
# cnt : 231
# AWLEN IN M DRV:28
# cnt : 232
# AWLEN IN M DRV:244
# cnt : 233
# AWLEN IN M DRV:253
# cnt : 234
# AWLEN IN M DRV:15
# cnt : 235
# AWLEN IN M DRV:130
# cnt : 236
# AWLEN IN M DRV:151
# cnt : 237
# AWLEN IN M DRV:229
# cnt : 238
# AWLEN IN M DRV:32
# cnt : 239
# AWLEN IN M DRV:28
# cnt : 240
# AWLEN IN M DRV:62
# cnt : 241
# AWLEN IN M DRV:24
# cnt : 242
# AWLEN IN M DRV:129
# cnt : 243
# AWLEN IN M DRV:156
# cnt : 244
# AWLEN IN M DRV:112
# cnt : 245
# AWLEN IN M DRV:66
# cnt : 246
# AWLEN IN M DRV:81
# cnt : 247
# AWLEN IN M DRV:254
# cnt : 248
# AWLEN IN M DRV:25
# cnt : 249
# AWLEN IN M DRV:218
# cnt : 250
# AWLEN IN M DRV:47
# cnt : 251
# AWLEN IN M DRV:217
# cnt : 252
# AWLEN IN M DRV:99
# cnt : 253
# AWLEN IN M DRV:252
# cnt : 254
# AWLEN IN M DRV:118
# cnt : 255
# AWLEN IN M DRV:43
# cnt : 256
# AWLEN IN M DRV:167
# cnt : 257
# AWLEN IN M DRV:84
# cnt : 258
# AWLEN IN M DRV:79
# cnt : 259
# AWLEN IN M DRV:12
# cnt : 260
# AWLEN IN M DRV:134
# cnt : 261
# AWLEN IN M DRV:157
# cnt : 262
# AWLEN IN M DRV:135
# cnt : 263
# AWLEN IN M DRV:170
# cnt : 264
# AWLEN IN M DRV:70
# cnt : 265
# AWLEN IN M DRV:213
# cnt : 266
# AWLEN IN M DRV:94
# cnt : 267
# AWLEN IN M DRV:191
# cnt : 268
# AWLEN IN M DRV:237
# cnt : 269
# AWLEN IN M DRV:220
# cnt : 270
# AWLEN IN M DRV:35
# cnt : 271
# AWLEN IN M DRV:147
# cnt : 272
# AWLEN IN M DRV:128
# cnt : 273
# AWLEN IN M DRV:220
# cnt : 274
# AWLEN IN M DRV:88
# cnt : 275
# AWLEN IN M DRV:235
# cnt : 276
# AWLEN IN M DRV:113
# cnt : 277
# AWLEN IN M DRV:167
# cnt : 278
# AWLEN IN M DRV:95
# cnt : 279
# AWLEN IN M DRV:139
# cnt : 280
# AWLEN IN M DRV:100
# cnt : 281
# AWLEN IN M DRV:114
# cnt : 282
# AWLEN IN M DRV:219
# cnt : 283
# AWLEN IN M DRV:146
# cnt : 284
# AWLEN IN M DRV:177
# cnt : 285
# AWLEN IN M DRV:144
# cnt : 286
# AWLEN IN M DRV:245
# cnt : 287
# AWLEN IN M DRV:172
# cnt : 288
# AWLEN IN M DRV:22
# cnt : 289
# AWLEN IN M DRV:42
# cnt : 290
# AWLEN IN M DRV:245
# cnt : 291
# AWLEN IN M DRV:101
# cnt : 292
# AWLEN IN M DRV:252
# cnt : 293
# AWLEN IN M DRV:48
# cnt : 294
# AWLEN IN M DRV:26
# cnt : 295
# AWLEN IN M DRV:124
# cnt : 296
# AWLEN IN M DRV:187
# cnt : 297
# AWLEN IN M DRV:95
# cnt : 298
# AWLEN IN M DRV:30
# cnt : 299
# AWLEN IN M DRV:243
# cnt : 300
# AWLEN IN M DRV:90
# cnt : 301
# AWLEN IN M DRV:134
# cnt : 302
# AWLEN IN M DRV:150
# cnt : 303
# AWLEN IN M DRV:244
# cnt : 304
# AWLEN IN M DRV:231
# cnt : 305
# AWLEN IN M DRV:219
# cnt : 306
# AWLEN IN M DRV:197
# cnt : 307
# AWLEN IN M DRV:224
# cnt : 308
# AWLEN IN M DRV:86
# cnt : 309
# AWLEN IN M DRV:156
# cnt : 310
# AWLEN IN M DRV:221
# cnt : 311
# AWLEN IN M DRV:218
# cnt : 312
# AWLEN IN M DRV:2
# cnt : 313
# AWLEN IN M DRV:165
# cnt : 314
# AWLEN IN M DRV:192
# cnt : 315
# AWLEN IN M DRV:37
# cnt : 316
# AWLEN IN M DRV:82
# cnt : 317
# AWLEN IN M DRV:21
# cnt : 318
# AWLEN IN M DRV:94
# cnt : 319
# AWLEN IN M DRV:230
# cnt : 320
# AWLEN IN M DRV:138
# cnt : 321
# AWLEN IN M DRV:253
# cnt : 322
# AWLEN IN M DRV:198
# cnt : 323
# AWLEN IN M DRV:225
# cnt : 324
# AWLEN IN M DRV:57
# cnt : 325
# AWLEN IN M DRV:203
# cnt : 326
# AWLEN IN M DRV:72
# cnt : 327
# AWLEN IN M DRV:27
# cnt : 328
# AWLEN IN M DRV:61
# cnt : 329
# AWLEN IN M DRV:46
# cnt : 330
# AWLEN IN M DRV:13
# cnt : 331
# AWLEN IN M DRV:148
# cnt : 332
# AWLEN IN M DRV:135
# cnt : 333
# AWLEN IN M DRV:102
# cnt : 334
# AWLEN IN M DRV:22
# cnt : 335
# AWLEN IN M DRV:222
# cnt : 336
# AWLEN IN M DRV:163
# cnt : 337
# AWLEN IN M DRV:147
# cnt : 338
# AWLEN IN M DRV:17
# cnt : 339
# AWLEN IN M DRV:25
# cnt : 340
# AWLEN IN M DRV:237
# cnt : 341
# AWLEN IN M DRV:226
# cnt : 342
# AWLEN IN M DRV:144
# cnt : 343
# AWLEN IN M DRV:85
# cnt : 344
# AWLEN IN M DRV:210
# cnt : 345
# AWLEN IN M DRV:144
# cnt : 346
# AWLEN IN M DRV:19
# cnt : 347
# AWLEN IN M DRV:80
# cnt : 348
# AWLEN IN M DRV:125
# cnt : 349
# AWLEN IN M DRV:55
# cnt : 350
# AWLEN IN M DRV:163
# cnt : 351
# AWLEN IN M DRV:187
# cnt : 352
# AWLEN IN M DRV:235
# cnt : 353
# AWLEN IN M DRV:53
# cnt : 354
# AWLEN IN M DRV:109
# cnt : 355
# AWLEN IN M DRV:165
# cnt : 356
# AWLEN IN M DRV:157
# cnt : 357
# AWLEN IN M DRV:151
# cnt : 358
# AWLEN IN M DRV:227
# cnt : 359
# AWLEN IN M DRV:113
# cnt : 360
# AWLEN IN M DRV:248
# cnt : 361
# AWLEN IN M DRV:37
# cnt : 362
# AWLEN IN M DRV:251
# cnt : 363
# AWLEN IN M DRV:104
# cnt : 364
# AWLEN IN M DRV:184
# cnt : 365
# AWLEN IN M DRV:173
# cnt : 366
# AWLEN IN M DRV:22
# cnt : 367
# AWLEN IN M DRV:2
# cnt : 368
# AWLEN IN M DRV:15
# cnt : 369
# AWLEN IN M DRV:166
# cnt : 370
# AWLEN IN M DRV:26
# cnt : 371
# AWLEN IN M DRV:156
# cnt : 372
# AWLEN IN M DRV:153
# cnt : 373
# AWLEN IN M DRV:17
# cnt : 374
# AWLEN IN M DRV:90
# cnt : 375
# AWLEN IN M DRV:144
# cnt : 376
# AWLEN IN M DRV:13
# cnt : 377
# AWLEN IN M DRV:164
# cnt : 378
# AWLEN IN M DRV:133
# cnt : 379
# AWLEN IN M DRV:40
# cnt : 380
# AWLEN IN M DRV:141
# cnt : 381
# AWLEN IN M DRV:51
# cnt : 382
# AWLEN IN M DRV:192
# cnt : 383
# AWLEN IN M DRV:169
# cnt : 384
# AWLEN IN M DRV:165
# cnt : 385
# AWLEN IN M DRV:37
# cnt : 386
# AWLEN IN M DRV:166
# cnt : 387
# AWLEN IN M DRV:121
# cnt : 388
# AWLEN IN M DRV:200
# cnt : 389
# AWLEN IN M DRV:170
# cnt : 390
# AWLEN IN M DRV:31
# cnt : 391
# AWLEN IN M DRV:104
# cnt : 392
# AWLEN IN M DRV:7
# cnt : 393
# AWLEN IN M DRV:45
# cnt : 394
# AWLEN IN M DRV:19
# cnt : 395
# AWLEN IN M DRV:17
# cnt : 396
# AWLEN IN M DRV:157
# cnt : 397
# AWLEN IN M DRV:241
# cnt : 398
# AWLEN IN M DRV:194
# cnt : 399
# AWLEN IN M DRV:243
# cnt : 400
# INIDE_SLAVE_MON_CTR=1
# arid in s mon : 54487
# m mon ar id : d4d7
# INIDE_SLAVE_MON_CTR=2
# arid in s mon : 56471
# m mon ar id : dc97
# INIDE_SLAVE_MON_CTR=3
# arid in s mon : 52119
# m mon ar id : cb97
# INIDE_SLAVE_MON_CTR=4
# arid in s mon : 23828
# m mon ar id : 5d14
# INIDE_SLAVE_MON_CTR=5
# arid in s mon : 10767
# m mon ar id : 2a0f
# INIDE_SLAVE_MON_CTR=6
# arid in s mon : 56038
# m mon ar id : dae6
# INIDE_SLAVE_MON_CTR=7
# arid in s mon : 43754
# m mon ar id : aaea
# INIDE_SLAVE_MON_CTR=8
# arid in s mon : 27239
# m mon ar id : 6a67
# INIDE_SLAVE_MON_CTR=9
# arid in s mon : 61247
# m mon ar id : ef3f
# INIDE_SLAVE_MON_CTR=10
# arid in s mon : 10517
# m mon ar id : 2915
# INIDE_SLAVE_MON_CTR=11
# arid in s mon : 60211
# m mon ar id : eb33
# INIDE_SLAVE_MON_CTR=12
# arid in s mon : 38088
# m mon ar id : 94c8
# INIDE_SLAVE_MON_CTR=13
# arid in s mon : 40785
# m mon ar id : 9f51
# INIDE_SLAVE_MON_CTR=14
# arid in s mon : 49478
# m mon ar id : c146
# INIDE_SLAVE_MON_CTR=15
# arid in s mon : 57053
# m mon ar id : dedd
# INIDE_SLAVE_MON_CTR=16
# arid in s mon : 12819
# m mon ar id : 3213
# INIDE_SLAVE_MON_CTR=17
# arid in s mon : 33461
# m mon ar id : 82b5
# INIDE_SLAVE_MON_CTR=18
# arid in s mon : 34721
# m mon ar id : 87a1
# INIDE_SLAVE_MON_CTR=19
# arid in s mon : 30201
# m mon ar id : 75f9
# INIDE_SLAVE_MON_CTR=20
# arid in s mon : 36991
# m mon ar id : 907f
# INIDE_SLAVE_MON_CTR=21
# arid in s mon : 6425
# m mon ar id : 1919
# INIDE_SLAVE_MON_CTR=22
# arid in s mon : 44207
# m mon ar id : acaf
# INIDE_SLAVE_MON_CTR=23
# arid in s mon : 32215
# m mon ar id : 7dd7
# INIDE_SLAVE_MON_CTR=24
# arid in s mon : 53237
# m mon ar id : cff5
# INIDE_SLAVE_MON_CTR=25
# arid in s mon : 11708
# m mon ar id : 2dbc
# INIDE_SLAVE_MON_CTR=26
# arid in s mon : 54751
# m mon ar id : d5df
# INIDE_SLAVE_MON_CTR=27
# arid in s mon : 14556
# m mon ar id : 38dc
# INIDE_SLAVE_MON_CTR=28
# arid in s mon : 54662
# m mon ar id : d586
# INIDE_SLAVE_MON_CTR=29
# arid in s mon : 2835
# m mon ar id : b13
# INIDE_SLAVE_MON_CTR=30
# arid in s mon : 18606
# m mon ar id : 48ae
# INIDE_SLAVE_MON_CTR=31
# arid in s mon : 49460
# m mon ar id : c134
# INIDE_SLAVE_MON_CTR=32
# arid in s mon : 30997
# m mon ar id : 7915
# INIDE_SLAVE_MON_CTR=33
# arid in s mon : 52692
# m mon ar id : cdd4
# INIDE_SLAVE_MON_CTR=34
# arid in s mon : 15400
# m mon ar id : 3c28
# INIDE_SLAVE_MON_CTR=35
# arid in s mon : 59521
# m mon ar id : e881
# INIDE_SLAVE_MON_CTR=36
# arid in s mon : 29125
# m mon ar id : 71c5
# INIDE_SLAVE_MON_CTR=37
# arid in s mon : 1772
# m mon ar id : 6ec
# INIDE_SLAVE_MON_CTR=38
# arid in s mon : 53564
# m mon ar id : d13c
# INIDE_SLAVE_MON_CTR=39
# arid in s mon : 49998
# m mon ar id : c34e
# INIDE_SLAVE_MON_CTR=40
# arid in s mon : 3252
# m mon ar id : cb4
# INIDE_SLAVE_MON_CTR=41
# arid in s mon : 52476
# m mon ar id : ccfc
# INIDE_SLAVE_MON_CTR=42
# arid in s mon : 15703
# m mon ar id : 3d57
# INIDE_SLAVE_MON_CTR=43
# arid in s mon : 56241
# m mon ar id : dbb1
# INIDE_SLAVE_MON_CTR=44
# arid in s mon : 64456
# m mon ar id : fbc8
# INIDE_SLAVE_MON_CTR=45
# arid in s mon : 11933
# m mon ar id : 2e9d
# INIDE_SLAVE_MON_CTR=46
# arid in s mon : 6513
# m mon ar id : 1971
# INIDE_SLAVE_MON_CTR=47
# arid in s mon : 49946
# m mon ar id : c31a
# INIDE_SLAVE_MON_CTR=48
# arid in s mon : 33955
# m mon ar id : 84a3
# INIDE_SLAVE_MON_CTR=49
# arid in s mon : 55972
# m mon ar id : daa4
# INIDE_SLAVE_MON_CTR=50
# arid in s mon : 19340
# m mon ar id : 4b8c
# INIDE_SLAVE_MON_CTR=51
# arid in s mon : 14014
# m mon ar id : 36be
# INIDE_SLAVE_MON_CTR=52
# arid in s mon : 52812
# m mon ar id : ce4c
# INIDE_SLAVE_MON_CTR=53
# arid in s mon : 11303
# m mon ar id : 2c27
# INIDE_SLAVE_MON_CTR=54
# arid in s mon : 14762
# m mon ar id : 39aa
# INIDE_SLAVE_MON_CTR=55
# arid in s mon : 42398
# m mon ar id : a59e
# INIDE_SLAVE_MON_CTR=56
# arid in s mon : 53425
# m mon ar id : d0b1
# INIDE_SLAVE_MON_CTR=57
# arid in s mon : 47743
# m mon ar id : ba7f
# INIDE_SLAVE_MON_CTR=58
# arid in s mon : 49866
# m mon ar id : c2ca
# INIDE_SLAVE_MON_CTR=59
# arid in s mon : 17575
# m mon ar id : 44a7
# INIDE_SLAVE_MON_CTR=60
# arid in s mon : 20331
# m mon ar id : 4f6b
# INIDE_SLAVE_MON_CTR=61
# arid in s mon : 51998
# m mon ar id : cb1e
# INIDE_SLAVE_MON_CTR=62
# arid in s mon : 35498
# m mon ar id : 8aaa
# INIDE_SLAVE_MON_CTR=63
# arid in s mon : 5480
# m mon ar id : 1568
# INIDE_SLAVE_MON_CTR=64
# arid in s mon : 23611
# m mon ar id : 5c3b
# INIDE_SLAVE_MON_CTR=65
# arid in s mon : 38421
# m mon ar id : 9615
# INIDE_SLAVE_MON_CTR=66
# arid in s mon : 40926
# m mon ar id : 9fde
# INIDE_SLAVE_MON_CTR=67
# arid in s mon : 31329
# m mon ar id : 7a61
# INIDE_SLAVE_MON_CTR=68
# arid in s mon : 63754
# m mon ar id : f90a
# INIDE_SLAVE_MON_CTR=69
# arid in s mon : 48661
# m mon ar id : be15
# INIDE_SLAVE_MON_CTR=70
# arid in s mon : 20907
# m mon ar id : 51ab
# INIDE_SLAVE_MON_CTR=71
# arid in s mon : 3472
# m mon ar id : d90
# INIDE_SLAVE_MON_CTR=72
# arid in s mon : 3783
# m mon ar id : ec7
# INIDE_SLAVE_MON_CTR=73
# arid in s mon : 3426
# m mon ar id : d62
# INIDE_SLAVE_MON_CTR=74
# arid in s mon : 46676
# m mon ar id : b654
# abc : 1
# ref model mem : 483361159
# abc : 2
# ref model mem : 483361167
# abc : 3
# ref model mem : 483361175
# abc : 4
# ref model mem : 483361183
# abc : 5
# ref model mem : 483361191
# abc : 6
# ref model mem : 483361199
# abc : 7
# ref model mem : 483361207
# abc : 8
# ref model mem : 483361215
# abc : 9
# ref model mem : 483361223
# abc : 10
# ref model mem : 483361231
# abc : 11
# ref model mem : 483361239
# abc : 12
# ref model mem : 483361247
# abc : 13
# ref model mem : 483361255
# abc : 14
# ref model mem : 483361263
# abc : 15
# ref model mem : 483361271
# abc : 16
# ref model mem : 483361279
# abc : 17
# ref model mem : 483361287
# abc : 18
# ref model mem : 483361295
# abc : 19
# ref model mem : 483361303
# abc : 20
# ref model mem : 483361311
# abc : 21
# ref model mem : 483361319
# abc : 22
# ref model mem : 483361327
# abc : 23
# ref model mem : 483361335
# abc : 24
# ref model mem : 483361343
# abc : 25
# ref model mem : 483361351
# abc : 26
# ref model mem : 483361359
# abc : 27
# ref model mem : 483361367
# abc : 28
# ref model mem : 483361375
# abc : 29
# ref model mem : 483361383
# abc : 30
# ref model mem : 483361391
# abc : 31
# ref model mem : 483361399
# abc : 32
# ref model mem : 483361407
# abc : 33
# ref model mem : 483361415
# abc : 34
# ref model mem : 483361423
# abc : 35
# ref model mem : 483361431
# abc : 36
# ref model mem : 483361439
# abc : 37
# ref model mem : 483361447
# abc : 38
# ref model mem : 483361455
# abc : 39
# ref model mem : 483361463
# abc : 40
# ref model mem : 483361471
# abc : 41
# ref model mem : 483361479
# abc : 42
# ref model mem : 483361487
# abc : 43
# ref model mem : 483361495
# abc : 44
# ref model mem : 483361503
# abc : 45
# ref model mem : 483361511
# abc : 46
# ref model mem : 483361519
# abc : 47
# ref model mem : 483361527
# abc : 48
# ref model mem : 483361535
# abc : 49
# ref model mem : 483361543
# abc : 50
# ref model mem : 483361551
# abc : 51
# ref model mem : 483361559
# abc : 52
# ref model mem : 483361567
# abc : 53
# ref model mem : 483361575
# abc : 54
# ref model mem : 483361583
# abc : 55
# ref model mem : 483361591
# abc : 56
# ref model mem : 483361599
# abc : 57
# ref model mem : 483361607
# abc : 58
# ref model mem : 483361615
# abc : 59
# ref model mem : 483361623
# abc : 60
# ref model mem : 483361631
# abc : 61
# ref model mem : 483361639
# abc : 62
# ref model mem : 483361647
# abc : 63
# ref model mem : 483361655
# abc : 64
# ref model mem : 483361663
# abc : 65
# ref model mem : 483361671
# abc : 66
# ref model mem : 483361679
# abc : 67
# ref model mem : 483361687
# abc : 68
# ref model mem : 483361695
# abc : 69
# ref model mem : 483361703
# abc : 70
# ref model mem : 483361711
# abc : 71
# ref model mem : 483361719
# abc : 72
# ref model mem : 483361727
# abc : 73
# ref model mem : 483361735
# abc : 74
# ref model mem : 483361743
# abc : 75
# ref model mem : 483361751
# abc : 76
# ref model mem : 483361759
# xyz : 1
# xyz : 2
# xyz : 3
# xyz : 4
# xyz : 5
# xyz : 6
# xyz : 7
# xyz : 8
# xyz : 9
# xyz : 10
# xyz : 11
# xyz : 12
# xyz : 13
# xyz : 14
# xyz : 15
# xyz : 16
# xyz : 17
# xyz : 18
# xyz : 19
# xyz : 20
# xyz : 21
# xyz : 22
# xyz : 23
# xyz : 24
# xyz : 25
# xyz : 26
# xyz : 27
# xyz : 28
# xyz : 29
# xyz : 30
# xyz : 31
# xyz : 32
# xyz : 33
# xyz : 34
# xyz : 35
# xyz : 36
# xyz : 37
# xyz : 38
# xyz : 39
# xyz : 40
# xyz : 41
# xyz : 42
# xyz : 43
# xyz : 44
# xyz : 45
# xyz : 46
# xyz : 47
# xyz : 48
# xyz : 49
# xyz : 50
# xyz : 51
# xyz : 52
# xyz : 53
# xyz : 54
# xyz : 55
# xyz : 56
# xyz : 57
# xyz : 58
# xyz : 59
# xyz : 60
# xyz : 61
# xyz : 62
# xyz : 63
# xyz : 64
# xyz : 65
# xyz : 66
# xyz : 67
# xyz : 68
# xyz : 69
# xyz : 70
# xyz : 71
# xyz : 72
# xyz : 73
# xyz : 74
# xyz : 75
# xyz : 76
# AR ADDR IN SB : 1ccf817f
# INIDE_SLAVE_MON_CTR=75
# arid in s mon : 12686
# AFFTER W CHANNEL
# m mon ar id : 318e
# match arid : 0 , rid : 0
# UVM_INFO ../env/s_agent/axi_s_drv.sv(31) @ 765: uvm_test_top.env_h.s_uvc_h.s_agent_h[0].s_drv_h [ID MATCH] aaaaa
# s seqs arid : 54487
# INIDE_SLAVE_SEQ_CTR=1
# match arid : d4d7 , rid : d4d7
# UVM_INFO ../env/s_agent/axi_s_drv.sv(31) @ 765: uvm_test_top.env_h.s_uvc_h.s_agent_h[0].s_drv_h [ID MATCH] aaaaa
# rd data in s drv: 0 , len : 75 , last:0 , valid : 1
# INIDE_SLAVE_MON_CTR=76
# arid in s mon : 39053
# m mon ar id : 988d
# m mon rid : d4d7
# rd data in s drv: 0 , len : 75 , last:0 , valid : 1
# INIDE_SLAVE_MON_CTR=77
# arid in s mon : 9722
# m mon rid : d4d7
# m mon ar id : 25fa
# req wid : 43709 , bid:43709
# UVM_INFO ../env/m_agent/axi_base_m_seqs.sv(26) @ 785: uvm_test_top.env_h.m_uvc_h.m_agent_h[0].m_seqr_h@@vseqs_h.m_wseqs_h [IN V SEQS] Got B-channel response from driver
# rd data in s drv: 0 , len : 75 , last:0 , valid : 1
# INIDE_SLAVE_MON_CTR=78
# arid in s mon : 29910
# m mon ar id : 74d6
# m mon rid : d4d7
# rd data in s drv: 0 , len : 75 , last:0 , valid : 1
# INIDE_SLAVE_MON_CTR=79
# arid in s mon : 23236
# m mon rid : d4d7
# m mon ar id : 5ac4
# rd data in s drv: 0 , len : 75 , last:0 , valid : 1
# INIDE_SLAVE_MON_CTR=80
# arid in s mon : 29335
# m mon ar id : 7297
# m mon rid : d4d7
# rd data in s drv: 0 , len : 75 , last:0 , valid : 1
# INIDE_SLAVE_MON_CTR=81
# arid in s mon : 5552
# m mon rid : d4d7
# m mon ar id : 15b0
# rd data in s drv: 0 , len : 75 , last:0 , valid : 1
# INIDE_SLAVE_MON_CTR=82
# arid in s mon : 50266
# m mon ar id : c45a
# m mon rid : d4d7
# rd data in s drv: 0 , len : 75 , last:0 , valid : 1
# INIDE_SLAVE_MON_CTR=83
# arid in s mon : 41291
# m mon rid : d4d7
# m mon ar id : a14b
# rd data in s drv: 0 , len : 75 , last:0 , valid : 1
# INIDE_SLAVE_MON_CTR=84
# arid in s mon : 27131
# m mon ar id : 69fb
# m mon rid : d4d7
# rd data in s drv: 0 , len : 75 , last:0 , valid : 1
# INIDE_SLAVE_MON_CTR=85
# arid in s mon : 61175
# m mon rid : d4d7
# m mon ar id : eef7
# rd data in s drv: 0 , len : 75 , last:0 , valid : 1
# INIDE_SLAVE_MON_CTR=86
# arid in s mon : 15034
# m mon ar id : 3aba
# m mon rid : d4d7
# rd data in s drv: 0 , len : 75 , last:0 , valid : 1
# INIDE_SLAVE_MON_CTR=87
# arid in s mon : 52983
# m mon rid : d4d7
# m mon ar id : cef7
# rd data in s drv: 0 , len : 75 , last:0 , valid : 1
# INIDE_SLAVE_MON_CTR=88
# arid in s mon : 1740
# m mon ar id : 6cc
# m mon rid : d4d7
# rd data in s drv: 0 , len : 75 , last:0 , valid : 1
# INIDE_SLAVE_MON_CTR=89
# arid in s mon : 33239
# m mon rid : d4d7
# m mon ar id : 81d7
# rd data in s drv: 0 , len : 75 , last:0 , valid : 1
# INIDE_SLAVE_MON_CTR=90
# arid in s mon : 34861
# m mon ar id : 882d
# m mon rid : d4d7
# rd data in s drv: 0 , len : 75 , last:0 , valid : 1
# INIDE_SLAVE_MON_CTR=91
# arid in s mon : 13004
# m mon rid : d4d7
# m mon ar id : 32cc
# rd data in s drv: 0 , len : 75 , last:0 , valid : 1
# INIDE_SLAVE_MON_CTR=92
# arid in s mon : 65126
# m mon ar id : fe66
# m mon rid : d4d7
# rd data in s drv: 0 , len : 75 , last:0 , valid : 1
# INIDE_SLAVE_MON_CTR=93
# arid in s mon : 29123
# m mon rid : d4d7
# m mon ar id : 71c3
# rd data in s drv: 0 , len : 75 , last:0 , valid : 1
# INIDE_SLAVE_MON_CTR=94
# arid in s mon : 62599
# m mon ar id : f487
# m mon rid : d4d7
# rd data in s drv: 0 , len : 75 , last:0 , valid : 1
# INIDE_SLAVE_MON_CTR=95
# arid in s mon : 3386
# m mon rid : d4d7
# m mon ar id : d3a
# rd data in s drv: 0 , len : 75 , last:0 , valid : 1
# INIDE_SLAVE_MON_CTR=96
# arid in s mon : 705
# m mon ar id : 2c1
# m mon rid : d4d7
# rd data in s drv: 0 , len : 75 , last:0 , valid : 1
# INIDE_SLAVE_MON_CTR=97
# arid in s mon : 57191
# m mon rid : d4d7
# m mon ar id : df67
# rd data in s drv: 0 , len : 75 , last:0 , valid : 1
# INIDE_SLAVE_MON_CTR=98
# arid in s mon : 59604
# m mon ar id : e8d4
# m mon rid : d4d7
# rd data in s drv: 0 , len : 75 , last:0 , valid : 1
# INIDE_SLAVE_MON_CTR=99
# arid in s mon : 40557
# m mon rid : d4d7
# m mon ar id : 9e6d
# rd data in s drv: 0 , len : 75 , last:0 , valid : 1
# INIDE_SLAVE_MON_CTR=100
# arid in s mon : 55349
# m mon ar id : d835
# m mon rid : d4d7
# rd data in s drv: 0 , len : 75 , last:0 , valid : 1
# INIDE_SLAVE_MON_CTR=101
# arid in s mon : 5915
# m mon rid : d4d7
# m mon ar id : 171b
# rd data in s drv: 0 , len : 75 , last:0 , valid : 1
# INIDE_SLAVE_MON_CTR=102
# arid in s mon : 4232
# m mon ar id : 1088
# m mon rid : d4d7
# rd data in s drv: 0 , len : 75 , last:0 , valid : 1
# INIDE_SLAVE_MON_CTR=103
# arid in s mon : 29616
# m mon rid : d4d7
# m mon ar id : 73b0
# rd data in s drv: 0 , len : 75 , last:0 , valid : 1
# INIDE_SLAVE_MON_CTR=104
# arid in s mon : 22941
# m mon ar id : 599d
# m mon rid : d4d7
# rd data in s drv: 0 , len : 75 , last:0 , valid : 1
# INIDE_SLAVE_MON_CTR=105
# arid in s mon : 31105
# m mon rid : d4d7
# m mon ar id : 7981
# rd data in s drv: 0 , len : 75 , last:0 , valid : 1
# INIDE_SLAVE_MON_CTR=106
# arid in s mon : 16507
# m mon ar id : 407b
# m mon rid : d4d7
# rd data in s drv: 0 , len : 75 , last:0 , valid : 1
# INIDE_SLAVE_MON_CTR=107
# arid in s mon : 16567
# m mon rid : d4d7
# m mon ar id : 40b7
# rd data in s drv: 0 , len : 75 , last:0 , valid : 1
# INIDE_SLAVE_MON_CTR=108
# arid in s mon : 17190
# m mon ar id : 4326
# m mon rid : d4d7
# rd data in s drv: 0 , len : 75 , last:0 , valid : 1
# INIDE_SLAVE_MON_CTR=109
# arid in s mon : 52346
# m mon rid : d4d7
# m mon ar id : cc7a
# rd data in s drv: 0 , len : 75 , last:0 , valid : 1
# INIDE_SLAVE_MON_CTR=110
# arid in s mon : 55987
# m mon ar id : dab3
# m mon rid : d4d7
# rd data in s drv: 0 , len : 75 , last:0 , valid : 1
# INIDE_SLAVE_MON_CTR=111
# arid in s mon : 57757
# m mon rid : d4d7
# m mon ar id : e19d
# rd data in s drv: 0 , len : 75 , last:0 , valid : 1
# INIDE_SLAVE_MON_CTR=112
# arid in s mon : 27764
# m mon ar id : 6c74
# m mon rid : d4d7
# rd data in s drv: 0 , len : 75 , last:0 , valid : 1
# INIDE_SLAVE_MON_CTR=113
# arid in s mon : 23787
# m mon rid : d4d7
# m mon ar id : 5ceb
# rd data in s drv: 0 , len : 75 , last:0 , valid : 1
# INIDE_SLAVE_MON_CTR=114
# arid in s mon : 3865
# m mon ar id : f19
# m mon rid : d4d7
# rd data in s drv: 0 , len : 75 , last:0 , valid : 1
# INIDE_SLAVE_MON_CTR=115
# arid in s mon : 32732
# m mon rid : d4d7
# m mon ar id : 7fdc
# rd data in s drv: 0 , len : 75 , last:0 , valid : 1
# INIDE_SLAVE_MON_CTR=116
# arid in s mon : 24994
# m mon ar id : 61a2
# m mon rid : d4d7
# rd data in s drv: 0 , len : 75 , last:0 , valid : 1
# INIDE_SLAVE_MON_CTR=117
# arid in s mon : 48493
# m mon rid : d4d7
# m mon ar id : bd6d
# rd data in s drv: 0 , len : 75 , last:0 , valid : 1
# INIDE_SLAVE_MON_CTR=118
# arid in s mon : 26912
# m mon ar id : 6920
# m mon rid : d4d7
# rd data in s drv: 0 , len : 75 , last:0 , valid : 1
# INIDE_SLAVE_MON_CTR=119
# arid in s mon : 31439
# m mon rid : d4d7
# m mon ar id : 7acf
# rd data in s drv: 0 , len : 75 , last:0 , valid : 1
# INIDE_SLAVE_MON_CTR=120
# arid in s mon : 58294
# m mon ar id : e3b6
# m mon rid : d4d7
# rd data in s drv: 0 , len : 75 , last:0 , valid : 1
# INIDE_SLAVE_MON_CTR=121
# arid in s mon : 22030
# m mon rid : d4d7
# m mon ar id : 560e
# rd data in s drv: 0 , len : 75 , last:0 , valid : 1
# INIDE_SLAVE_MON_CTR=122
# arid in s mon : 42271
# m mon ar id : a51f
# m mon rid : d4d7
# rd data in s drv: 0 , len : 75 , last:0 , valid : 1
# INIDE_SLAVE_MON_CTR=123
# arid in s mon : 35233
# m mon rid : d4d7
# m mon ar id : 89a1
# rd data in s drv: 0 , len : 75 , last:0 , valid : 1
# INIDE_SLAVE_MON_CTR=124
# arid in s mon : 6127
# m mon ar id : 17ef
# m mon rid : d4d7
# rd data in s drv: 0 , len : 75 , last:0 , valid : 1
# INIDE_SLAVE_MON_CTR=125
# arid in s mon : 3531
# m mon rid : d4d7
# m mon ar id : dcb
# rd data in s drv: 0 , len : 75 , last:0 , valid : 1
# INIDE_SLAVE_MON_CTR=126
# arid in s mon : 12653
# m mon ar id : 316d
# m mon rid : d4d7
# rd data in s drv: 0 , len : 75 , last:0 , valid : 1
# INIDE_SLAVE_MON_CTR=127
# arid in s mon : 28167
# m mon rid : d4d7
# m mon ar id : 6e07
# rd data in s drv: 0 , len : 75 , last:0 , valid : 1
# INIDE_SLAVE_MON_CTR=128
# arid in s mon : 29682
# m mon ar id : 73f2
# m mon rid : d4d7
# rd data in s drv: 0 , len : 75 , last:0 , valid : 1
# INIDE_SLAVE_MON_CTR=129
# arid in s mon : 62786
# m mon rid : d4d7
# m mon ar id : f542
# rd data in s drv: 0 , len : 75 , last:0 , valid : 1
# INIDE_SLAVE_MON_CTR=130
# arid in s mon : 8142
# m mon ar id : 1fce
# m mon rid : d4d7
# rd data in s drv: 0 , len : 75 , last:0 , valid : 1
# INIDE_SLAVE_MON_CTR=131
# arid in s mon : 20846
# m mon rid : d4d7
# m mon ar id : 516e
# rd data in s drv: 0 , len : 75 , last:0 , valid : 1
# INIDE_SLAVE_MON_CTR=132
# arid in s mon : 18104
# m mon ar id : 46b8
# m mon rid : d4d7
# rd data in s drv: 0 , len : 75 , last:0 , valid : 1
# INIDE_SLAVE_MON_CTR=133
# arid in s mon : 57727
# m mon rid : d4d7
# m mon ar id : e17f
# rd data in s drv: 0 , len : 75 , last:0 , valid : 1
# INIDE_SLAVE_MON_CTR=134
# arid in s mon : 44034
# m mon ar id : ac02
# m mon rid : d4d7
# rd data in s drv: 0 , len : 75 , last:0 , valid : 1
# INIDE_SLAVE_MON_CTR=135
# arid in s mon : 14337
# m mon rid : d4d7
# m mon ar id : 3801
# rd data in s drv: 0 , len : 75 , last:0 , valid : 1
# INIDE_SLAVE_MON_CTR=136
# arid in s mon : 4379
# m mon ar id : 111b
# m mon rid : d4d7
# rd data in s drv: 0 , len : 75 , last:0 , valid : 1
# INIDE_SLAVE_MON_CTR=137
# arid in s mon : 16487
# m mon rid : d4d7
# m mon ar id : 4067
# rd data in s drv: 0 , len : 75 , last:0 , valid : 1
# INIDE_SLAVE_MON_CTR=138
# arid in s mon : 37471
# m mon ar id : 925f
# m mon rid : d4d7
# rd data in s drv: 0 , len : 75 , last:0 , valid : 1
# INIDE_SLAVE_MON_CTR=139
# arid in s mon : 50244
# m mon rid : d4d7
# m mon ar id : c444
# rd data in s drv: 0 , len : 75 , last:0 , valid : 1
# INIDE_SLAVE_MON_CTR=140
# arid in s mon : 17116
# m mon ar id : 42dc
# m mon rid : d4d7
# rd data in s drv: 0 , len : 75 , last:0 , valid : 1
# INIDE_SLAVE_MON_CTR=141
# arid in s mon : 56375
# m mon rid : d4d7
# m mon ar id : dc37
# rd data in s drv: 0 , len : 75 , last:0 , valid : 1
# INIDE_SLAVE_MON_CTR=142
# arid in s mon : 51416
# m mon ar id : c8d8
# m mon rid : d4d7
# rd data in s drv: 0 , len : 75 , last:0 , valid : 1
# INIDE_SLAVE_MON_CTR=143
# arid in s mon : 48188
# m mon rid : d4d7
# m mon ar id : bc3c
# rd data in s drv: 0 , len : 75 , last:0 , valid : 1
# INIDE_SLAVE_MON_CTR=144
# arid in s mon : 50108
# m mon ar id : c3bc
# m mon rid : d4d7
# rd data in s drv: 0 , len : 75 , last:0 , valid : 1
# INIDE_SLAVE_MON_CTR=145
# arid in s mon : 64626
# m mon rid : d4d7
# m mon ar id : fc72
# rd data in s drv: 0 , len : 75 , last:0 , valid : 1
# INIDE_SLAVE_MON_CTR=146
# arid in s mon : 16801
# m mon ar id : 41a1
# m mon rid : d4d7
# rd data in s drv: 0 , len : 75 , last:0 , valid : 1
# INIDE_SLAVE_MON_CTR=147
# arid in s mon : 13005
# m mon rid : d4d7
# m mon ar id : 32cd
# rd data in s drv: 0 , len : 75 , last:0 , valid : 1
# INIDE_SLAVE_MON_CTR=148
# arid in s mon : 41058
# m mon ar id : a062
# m mon rid : d4d7
# rd data in s drv: 0 , len : 75 , last:0 , valid : 1
# INIDE_SLAVE_MON_CTR=149
# arid in s mon : 31658
# m mon rid : d4d7
# m mon ar id : 7baa
# rd data in s drv: 0 , len : 75 , last:0 , valid : 1
# INIDE_SLAVE_MON_CTR=150
# arid in s mon : 42894
# m mon ar id : a78e
# m mon rid : d4d7
# rd data in s drv: 0 , len : 75 , last:1 , valid : 1
# INIDE_SLAVE_MON_CTR=151
# arid in s mon : 42952
# req kind : READ
# INSIDE BEORE SAMPLE
# ---------------------------------------------------
# Name            Type               Size  Value     
# ---------------------------------------------------
# axi_m_seq_item  uvm_sequence_item  -     @2798     
#   AWID          integral           16    'h0       
#   AWADDR        integral           32    'h0       
#   AWLEN         integral           8     'd0       
#   AWSIZE        integral           3     'd0       
#   AWBURST       integral           2     'd0       
#   WID           integral           16    'h0       
#   WDATA         da(integral)       0     -         
#   WSTRB         da(integral)       0     -         
#   WLAST         integral           1     'd0       
#   BID           integral           16    'h0       
#   BRESP         integral           2     'd0       
#   ARID          integral           16    'hd4d7    
#   ARADDR        integral           32    'h1ccf817f
#   ARLEN         integral           8     'd75      
#   ARSIZE        integral           3     'd3       
#   ARBURST       integral           2     'd1       
#   RID           integral           16    'hd4d7    
#   RDATA         da(integral)       76    -         
#     [0]         integral           32    'h0       
#     [1]         integral           32    'h0       
#     [2]         integral           32    'h0       
#     [3]         integral           32    'h0       
#     [4]         integral           32    'h0       
#     ...         ...                ...   ...       
#     [71]        integral           32    'h0       
#     [72]        integral           32    'h0       
#     [73]        integral           32    'h0       
#     [74]        integral           32    'h0       
#     [75]        integral           32    'h0       
#   RRESP         integral           2     'd0       
#   RLAST         integral           1     'd0       
#   burst_kind_e  burst_kind         2     FIXED     
#   kind_e        trans_kind         2     READ      
# ---------------------------------------------------
# RDATa IN SB : 0 0 0 0 0 0 0 0 0 0 0 0 0 0 0 0 0 0 0 0 0 0 0 0 0 0 0 0 0 0 0 0 0 0 0 0 0 0 0 0 0 0 0 0 0 0 0 0 0 0 0 0 0 0 0 0 0 0 0 0 0 0 0 0 0 0 0 0 0 0 0 0 0 0 0 0
# m mon rid : d4d7
# m mon ar id : a7c8
# UVM_INFO ../env/axi_sb.sv(82) @ 1525: uvm_test_top.env_h.sb_h [after event in sb] aaaa
# UVM_INFO ../env/axi_sb.sv(80) @ 1525: uvm_test_top.env_h.sb_h [before event in sb] aaaa
# INIDE_SLAVE_MON_CTR=152
# arid in s mon : 17201
# m mon ar id : 4331
# INIDE_SLAVE_MON_CTR=153
# arid in s mon : 21088
# m mon ar id : 5260
# INIDE_SLAVE_MON_CTR=154
# arid in s mon : 37332
# m mon ar id : 91d4
# INIDE_SLAVE_MON_CTR=155
# arid in s mon : 25726
# m mon ar id : 647e
# INIDE_SLAVE_MON_CTR=156
# arid in s mon : 16035
# m mon ar id : 3ea3
# INIDE_SLAVE_MON_CTR=157
# arid in s mon : 63671
# m mon ar id : f8b7
# INIDE_SLAVE_MON_CTR=158
# arid in s mon : 22325
# m mon ar id : 5735
# INIDE_SLAVE_MON_CTR=159
# arid in s mon : 5472
# m mon ar id : 1560
# INIDE_SLAVE_MON_CTR=160
# arid in s mon : 44004
# m mon ar id : abe4
# INIDE_SLAVE_MON_CTR=161
# arid in s mon : 23664
# m mon ar id : 5c70
# INIDE_SLAVE_MON_CTR=162
# arid in s mon : 36625
# m mon ar id : 8f11
# INIDE_SLAVE_MON_CTR=163
# arid in s mon : 8535
# m mon ar id : 2157
# INIDE_SLAVE_MON_CTR=164
# arid in s mon : 34503
# m mon ar id : 86c7
# INIDE_SLAVE_MON_CTR=165
# arid in s mon : 41743
# m mon ar id : a30f
# INIDE_SLAVE_MON_CTR=166
# arid in s mon : 7039
# m mon ar id : 1b7f
# INIDE_SLAVE_MON_CTR=167
# arid in s mon : 44196
# m mon ar id : aca4
# INIDE_SLAVE_MON_CTR=168
# arid in s mon : 47
# m mon ar id : 2f
# INIDE_SLAVE_MON_CTR=169
# arid in s mon : 5043
# m mon ar id : 13b3
# INIDE_SLAVE_MON_CTR=170
# arid in s mon : 10039
# m mon ar id : 2737
# INIDE_SLAVE_MON_CTR=171
# arid in s mon : 62060
# m mon ar id : f26c
# INIDE_SLAVE_MON_CTR=172
# arid in s mon : 57894
# m mon ar id : e226
# INIDE_SLAVE_MON_CTR=173
# arid in s mon : 9308
# m mon ar id : 245c
# INIDE_SLAVE_MON_CTR=174
# arid in s mon : 54611
# m mon ar id : d553
# INIDE_SLAVE_MON_CTR=175
# arid in s mon : 41581
# m mon ar id : a26d
# INIDE_SLAVE_MON_CTR=176
# arid in s mon : 49098
# m mon ar id : bfca
# INIDE_SLAVE_MON_CTR=177
# arid in s mon : 61066
# m mon ar id : ee8a
# INIDE_SLAVE_MON_CTR=178
# arid in s mon : 51958
# m mon ar id : caf6
# INIDE_SLAVE_MON_CTR=179
# arid in s mon : 38729
# m mon ar id : 9749
# INIDE_SLAVE_MON_CTR=180
# arid in s mon : 52470
# m mon ar id : ccf6
# INIDE_SLAVE_MON_CTR=181
# arid in s mon : 62723
# m mon ar id : f503
# INIDE_SLAVE_MON_CTR=182
# arid in s mon : 57363
# m mon ar id : e013
# INIDE_SLAVE_MON_CTR=183
# arid in s mon : 58324
# m mon ar id : e3d4
# INIDE_SLAVE_MON_CTR=184
# arid in s mon : 38995
# m mon ar id : 9853
# INIDE_SLAVE_MON_CTR=185
# arid in s mon : 3512
# m mon ar id : db8
# INIDE_SLAVE_MON_CTR=186
# arid in s mon : 31851
# m mon ar id : 7c6b
# INIDE_SLAVE_MON_CTR=187
# arid in s mon : 8190
# m mon ar id : 1ffe
# INIDE_SLAVE_MON_CTR=188
# arid in s mon : 48895
# m mon ar id : beff
# INIDE_SLAVE_MON_CTR=189
# arid in s mon : 62140
# m mon ar id : f2bc
# INIDE_SLAVE_MON_CTR=190
# arid in s mon : 21974
# m mon ar id : 55d6
# INIDE_SLAVE_MON_CTR=191
# arid in s mon : 3686
# m mon ar id : e66
# INIDE_SLAVE_MON_CTR=192
# arid in s mon : 2755
# m mon ar id : ac3
# INIDE_SLAVE_MON_CTR=193
# arid in s mon : 53705
# m mon ar id : d1c9
# INIDE_SLAVE_MON_CTR=194
# arid in s mon : 30944
# m mon ar id : 78e0
# INIDE_SLAVE_MON_CTR=195
# arid in s mon : 40627
# m mon ar id : 9eb3
# INIDE_SLAVE_MON_CTR=196
# arid in s mon : 10361
# m mon ar id : 2879
# INIDE_SLAVE_MON_CTR=197
# arid in s mon : 17829
# m mon ar id : 45a5
# INIDE_SLAVE_MON_CTR=198
# arid in s mon : 39448
# m mon ar id : 9a18
# INIDE_SLAVE_MON_CTR=199
# arid in s mon : 42970
# m mon ar id : a7da
# INIDE_SLAVE_MON_CTR=200
# arid in s mon : 20349
# m mon ar id : 4f7d
# abc : 1
# ref model mem : 2626325168
# abc : 2
# ref model mem : 2626325176
# abc : 3
# ref model mem : 2626325184
# abc : 4
# ref model mem : 2626325192
# abc : 5
# ref model mem : 2626325200
# abc : 6
# ref model mem : 2626325208
# abc : 7
# ref model mem : 2626325216
# abc : 8
# ref model mem : 2626325224
# abc : 9
# ref model mem : 2626325232
# abc : 10
# ref model mem : 2626325240
# abc : 11
# ref model mem : 2626325248
# abc : 12
# ref model mem : 2626325256
# abc : 13
# ref model mem : 2626325264
# abc : 14
# ref model mem : 2626325272
# abc : 15
# ref model mem : 2626325280
# abc : 16
# ref model mem : 2626325288
# abc : 17
# ref model mem : 2626325296
# abc : 18
# ref model mem : 2626325304
# abc : 19
# ref model mem : 2626325312
# abc : 20
# ref model mem : 2626325320
# abc : 21
# ref model mem : 2626325328
# abc : 22
# ref model mem : 2626325336
# abc : 23
# ref model mem : 2626325344
# abc : 24
# ref model mem : 2626325352
# abc : 25
# ref model mem : 2626325360
# abc : 26
# ref model mem : 2626325368
# abc : 27
# ref model mem : 2626325376
# abc : 28
# ref model mem : 2626325384
# abc : 29
# ref model mem : 2626325392
# abc : 30
# ref model mem : 2626325400
# abc : 31
# ref model mem : 2626325408
# abc : 32
# ref model mem : 2626325416
# abc : 33
# ref model mem : 2626325424
# abc : 34
# ref model mem : 2626325432
# abc : 35
# ref model mem : 2626325440
# abc : 36
# ref model mem : 2626325448
# abc : 37
# ref model mem : 2626325456
# abc : 38
# ref model mem : 2626325464
# abc : 39
# ref model mem : 2626325472
# abc : 40
# ref model mem : 2626325480
# abc : 41
# ref model mem : 2626325488
# abc : 42
# ref model mem : 2626325496
# abc : 43
# ref model mem : 2626325504
# abc : 44
# ref model mem : 2626325512
# abc : 45
# ref model mem : 2626325520
# abc : 46
# ref model mem : 2626325528
# abc : 47
# ref model mem : 2626325536
# abc : 48
# ref model mem : 2626325544
# abc : 49
# ref model mem : 2626325552
# abc : 50
# ref model mem : 2626325560
# abc : 51
# ref model mem : 2626325568
# abc : 52
# ref model mem : 2626325576
# abc : 53
# ref model mem : 2626325584
# abc : 54
# ref model mem : 2626325592
# abc : 55
# ref model mem : 2626325600
# abc : 56
# ref model mem : 2626325608
# abc : 57
# ref model mem : 2626325616
# abc : 58
# ref model mem : 2626325624
# abc : 59
# ref model mem : 2626325632
# abc : 60
# ref model mem : 2626325640
# abc : 61
# ref model mem : 2626325648
# abc : 62
# ref model mem : 2626325656
# abc : 63
# ref model mem : 2626325664
# abc : 64
# ref model mem : 2626325672
# abc : 65
# ref model mem : 2626325680
# abc : 66
# ref model mem : 2626325688
# abc : 67
# ref model mem : 2626325696
# abc : 68
# ref model mem : 2626325704
# abc : 69
# ref model mem : 2626325712
# abc : 70
# ref model mem : 2626325720
# abc : 71
# ref model mem : 2626325728
# abc : 72
# ref model mem : 2626325736
# abc : 73
# ref model mem : 2626325744
# abc : 74
# ref model mem : 2626325752
# abc : 75
# ref model mem : 2626325760
# abc : 76
# ref model mem : 2626325768
# abc : 77
# ref model mem : 2626325776
# abc : 78
# ref model mem : 2626325784
# abc : 79
# ref model mem : 2626325792
# abc : 80
# ref model mem : 2626325800
# abc : 81
# ref model mem : 2626325808
# abc : 82
# ref model mem : 2626325816
# abc : 83
# ref model mem : 2626325824
# abc : 84
# ref model mem : 2626325832
# abc : 85
# ref model mem : 2626325840
# abc : 86
# ref model mem : 2626325848
# abc : 87
# ref model mem : 2626325856
# abc : 88
# ref model mem : 2626325864
# abc : 89
# ref model mem : 2626325872
# abc : 90
# ref model mem : 2626325880
# abc : 91
# ref model mem : 2626325888
# abc : 92
# ref model mem : 2626325896
# abc : 93
# ref model mem : 2626325904
# abc : 94
# ref model mem : 2626325912
# abc : 95
# ref model mem : 2626325920
# abc : 96
# ref model mem : 2626325928
# abc : 97
# ref model mem : 2626325936
# abc : 98
# ref model mem : 2626325944
# abc : 99
# ref model mem : 2626325952
# abc : 100
# ref model mem : 2626325960
# abc : 101
# ref model mem : 2626325968
# abc : 102
# ref model mem : 2626325976
# abc : 103
# ref model mem : 2626325984
# abc : 104
# ref model mem : 2626325992
# abc : 105
# ref model mem : 2626326000
# abc : 106
# ref model mem : 2626326008
# abc : 107
# ref model mem : 2626326016
# abc : 108
# ref model mem : 2626326024
# abc : 109
# ref model mem : 2626326032
# abc : 110
# ref model mem : 2626326040
# abc : 111
# ref model mem : 2626326048
# abc : 112
# ref model mem : 2626326056
# abc : 113
# ref model mem : 2626326064
# abc : 114
# ref model mem : 2626326072
# abc : 115
# ref model mem : 2626326080
# abc : 116
# ref model mem : 2626326088
# abc : 117
# ref model mem : 2626326096
# abc : 118
# ref model mem : 2626326104
# abc : 119
# ref model mem : 2626326112
# abc : 120
# ref model mem : 2626326120
# abc : 121
# ref model mem : 2626326128
# abc : 122
# ref model mem : 2626326136
# abc : 123
# ref model mem : 2626326144
# abc : 124
# ref model mem : 2626326152
# abc : 125
# ref model mem : 2626326160
# abc : 126
# ref model mem : 2626326168
# abc : 127
# ref model mem : 2626326176
# abc : 128
# ref model mem : 2626326184
# abc : 129
# ref model mem : 2626326192
# abc : 130
# ref model mem : 2626326200
# abc : 131
# ref model mem : 2626326208
# abc : 132
# ref model mem : 2626326216
# abc : 133
# ref model mem : 2626326224
# abc : 134
# ref model mem : 2626326232
# abc : 135
# ref model mem : 2626326240
# abc : 136
# ref model mem : 2626326248
# abc : 137
# ref model mem : 2626326256
# abc : 138
# ref model mem : 2626326264
# abc : 139
# ref model mem : 2626326272
# abc : 140
# ref model mem : 2626326280
# abc : 141
# ref model mem : 2626326288
# abc : 142
# ref model mem : 2626326296
# abc : 143
# ref model mem : 2626326304
# abc : 144
# ref model mem : 2626326312
# abc : 145
# ref model mem : 2626326320
# abc : 146
# ref model mem : 2626326328
# abc : 147
# ref model mem : 2626326336
# abc : 148
# ref model mem : 2626326344
# abc : 149
# ref model mem : 2626326352
# abc : 150
# ref model mem : 2626326360
# abc : 151
# ref model mem : 2626326368
# abc : 152
# ref model mem : 2626326376
# abc : 153
# ref model mem : 2626326384
# abc : 154
# ref model mem : 2626326392
# abc : 155
# ref model mem : 2626326400
# abc : 156
# ref model mem : 2626326408
# abc : 157
# ref model mem : 2626326416
# abc : 158
# ref model mem : 2626326424
# abc : 159
# ref model mem : 2626326432
# abc : 160
# ref model mem : 2626326440
# abc : 161
# ref model mem : 2626326448
# abc : 162
# ref model mem : 2626326456
# abc : 163
# ref model mem : 2626326464
# abc : 164
# ref model mem : 2626326472
# abc : 165
# ref model mem : 2626326480
# abc : 166
# ref model mem : 2626326488
# abc : 167
# ref model mem : 2626326496
# abc : 168
# ref model mem : 2626326504
# abc : 169
# ref model mem : 2626326512
# abc : 170
# ref model mem : 2626326520
# abc : 171
# ref model mem : 2626326528
# abc : 172
# ref model mem : 2626326536
# abc : 173
# ref model mem : 2626326544
# abc : 174
# ref model mem : 2626326552
# abc : 175
# ref model mem : 2626326560
# abc : 176
# ref model mem : 2626326568
# abc : 177
# ref model mem : 2626326576
# abc : 178
# ref model mem : 2626326584
# abc : 179
# ref model mem : 2626326592
# abc : 180
# ref model mem : 2626326600
# abc : 181
# ref model mem : 2626326608
# abc : 182
# ref model mem : 2626326616
# abc : 183
# ref model mem : 2626326624
# abc : 184
# ref model mem : 2626326632
# abc : 185
# ref model mem : 2626326640
# abc : 186
# ref model mem : 2626326648
# abc : 187
# ref model mem : 2626326656
# abc : 188
# ref model mem : 2626326664
# abc : 189
# ref model mem : 2626326672
# abc : 190
# ref model mem : 2626326680
# abc : 191
# ref model mem : 2626326688
# abc : 192
# ref model mem : 2626326696
# abc : 193
# ref model mem : 2626326704
# abc : 194
# ref model mem : 2626326712
# abc : 195
# ref model mem : 2626326720
# abc : 196
# ref model mem : 2626326728
# abc : 197
# ref model mem : 2626326736
# abc : 198
# ref model mem : 2626326744
# abc : 199
# ref model mem : 2626326752
# abc : 200
# ref model mem : 2626326760
# abc : 201
# ref model mem : 2626326768
# abc : 202
# ref model mem : 2626326776
# abc : 203
# ref model mem : 2626326784
# abc : 204
# ref model mem : 2626326792
# abc : 205
# ref model mem : 2626326800
# abc : 206
# ref model mem : 2626326808
# abc : 207
# ref model mem : 2626326816
# abc : 208
# ref model mem : 2626326824
# abc : 209
# ref model mem : 2626326832
# abc : 210
# ref model mem : 2626326840
# abc : 211
# ref model mem : 2626326848
# abc : 212
# ref model mem : 2626326856
# abc : 213
# ref model mem : 2626326864
# abc : 214
# ref model mem : 2626326872
# abc : 215
# ref model mem : 2626326880
# abc : 216
# ref model mem : 2626326888
# abc : 217
# ref model mem : 2626326896
# abc : 218
# ref model mem : 2626326904
# abc : 219
# ref model mem : 2626326912
# abc : 220
# ref model mem : 2626326920
# abc : 221
# ref model mem : 2626326928
# abc : 222
# ref model mem : 2626326936
# abc : 223
# ref model mem : 2626326944
# abc : 224
# ref model mem : 2626326952
# abc : 225
# ref model mem : 2626326960
# abc : 226
# ref model mem : 2626326968
# abc : 227
# ref model mem : 2626326976
# abc : 228
# ref model mem : 2626326984
# abc : 229
# ref model mem : 2626326992
# xyz : 1
# xyz : 2
# xyz : 3
# xyz : 4
# xyz : 5
# xyz : 6
# xyz : 7
# xyz : 8
# xyz : 9
# xyz : 10
# xyz : 11
# xyz : 12
# xyz : 13
# xyz : 14
# xyz : 15
# xyz : 16
# xyz : 17
# xyz : 18
# xyz : 19
# xyz : 20
# xyz : 21
# xyz : 22
# xyz : 23
# xyz : 24
# xyz : 25
# xyz : 26
# xyz : 27
# xyz : 28
# xyz : 29
# xyz : 30
# xyz : 31
# xyz : 32
# xyz : 33
# xyz : 34
# xyz : 35
# xyz : 36
# xyz : 37
# xyz : 38
# xyz : 39
# xyz : 40
# xyz : 41
# xyz : 42
# xyz : 43
# xyz : 44
# xyz : 45
# xyz : 46
# xyz : 47
# xyz : 48
# xyz : 49
# xyz : 50
# xyz : 51
# xyz : 52
# xyz : 53
# xyz : 54
# xyz : 55
# xyz : 56
# xyz : 57
# xyz : 58
# xyz : 59
# xyz : 60
# xyz : 61
# xyz : 62
# xyz : 63
# xyz : 64
# xyz : 65
# xyz : 66
# xyz : 67
# xyz : 68
# xyz : 69
# xyz : 70
# xyz : 71
# xyz : 72
# xyz : 73
# xyz : 74
# xyz : 75
# xyz : 76
# xyz : 77
# xyz : 78
# xyz : 79
# xyz : 80
# xyz : 81
# xyz : 82
# xyz : 83
# xyz : 84
# xyz : 85
# xyz : 86
# xyz : 87
# xyz : 88
# xyz : 89
# xyz : 90
# xyz : 91
# xyz : 92
# xyz : 93
# xyz : 94
# xyz : 95
# xyz : 96
# xyz : 97
# xyz : 98
# xyz : 99
# xyz : 100
# xyz : 101
# xyz : 102
# xyz : 103
# xyz : 104
# xyz : 105
# xyz : 106
# xyz : 107
# xyz : 108
# xyz : 109
# xyz : 110
# xyz : 111
# xyz : 112
# xyz : 113
# xyz : 114
# xyz : 115
# xyz : 116
# xyz : 117
# xyz : 118
# xyz : 119
# xyz : 120
# xyz : 121
# xyz : 122
# xyz : 123
# xyz : 124
# xyz : 125
# xyz : 126
# xyz : 127
# xyz : 128
# xyz : 129
# xyz : 130
# xyz : 131
# xyz : 132
# xyz : 133
# xyz : 134
# xyz : 135
# xyz : 136
# xyz : 137
# xyz : 138
# xyz : 139
# xyz : 140
# xyz : 141
# xyz : 142
# xyz : 143
# xyz : 144
# xyz : 145
# xyz : 146
# xyz : 147
# xyz : 148
# xyz : 149
# xyz : 150
# xyz : 151
# xyz : 152
# xyz : 153
# xyz : 154
# xyz : 155
# xyz : 156
# xyz : 157
# xyz : 158
# xyz : 159
# xyz : 160
# xyz : 161
# xyz : 162
# xyz : 163
# xyz : 164
# xyz : 165
# xyz : 166
# xyz : 167
# xyz : 168
# xyz : 169
# xyz : 170
# xyz : 171
# xyz : 172
# xyz : 173
# xyz : 174
# xyz : 175
# xyz : 176
# xyz : 177
# xyz : 178
# xyz : 179
# xyz : 180
# xyz : 181
# xyz : 182
# xyz : 183
# xyz : 184
# xyz : 185
# xyz : 186
# xyz : 187
# xyz : 188
# xyz : 189
# xyz : 190
# xyz : 191
# xyz : 192
# xyz : 193
# xyz : 194
# xyz : 195
# xyz : 196
# xyz : 197
# xyz : 198
# xyz : 199
# xyz : 200
# xyz : 201
# xyz : 202
# xyz : 203
# xyz : 204
# xyz : 205
# xyz : 206
# xyz : 207
# xyz : 208
# xyz : 209
# xyz : 210
# xyz : 211
# xyz : 212
# xyz : 213
# xyz : 214
# xyz : 215
# xyz : 216
# xyz : 217
# xyz : 218
# xyz : 219
# xyz : 220
# xyz : 221
# xyz : 222
# xyz : 223
# xyz : 224
# xyz : 225
# xyz : 226
# xyz : 227
# xyz : 228
# xyz : 229
# AR ADDR IN SB : 9c8a8aa8
# AFFTER W CHANNEL
# match arid : 0 , rid : 0
# UVM_INFO ../env/s_agent/axi_s_drv.sv(31) @ 3055: uvm_test_top.env_h.s_uvc_h.s_agent_h[0].s_drv_h [ID MATCH] aaaaa
# s seqs arid : 56471
# INIDE_SLAVE_SEQ_CTR=2
# match arid : dc97 , rid : dc97
# UVM_INFO ../env/s_agent/axi_s_drv.sv(31) @ 3055: uvm_test_top.env_h.s_uvc_h.s_agent_h[0].s_drv_h [ID MATCH] aaaaa
# rd data in s drv: 0 , len : 228 , last:0 , valid : 1
# m mon rid : dc97
# rd data in s drv: 0 , len : 228 , last:0 , valid : 1
# m mon rid : dc97
# req wid : 14589 , bid:14589
# UVM_INFO ../env/m_agent/axi_base_m_seqs.sv(26) @ 3075: uvm_test_top.env_h.m_uvc_h.m_agent_h[0].m_seqr_h@@vseqs_h.m_wseqs_h [IN V SEQS] Got B-channel response from driver
# rd data in s drv: 0 , len : 228 , last:0 , valid : 1
# m mon rid : dc97
# rd data in s drv: 0 , len : 228 , last:0 , valid : 1
# m mon rid : dc97
# rd data in s drv: 0 , len : 228 , last:0 , valid : 1
# m mon rid : dc97
# rd data in s drv: 0 , len : 228 , last:0 , valid : 1
# m mon rid : dc97
# rd data in s drv: 0 , len : 228 , last:0 , valid : 1
# m mon rid : dc97
# rd data in s drv: 0 , len : 228 , last:0 , valid : 1
# m mon rid : dc97
# rd data in s drv: 0 , len : 228 , last:0 , valid : 1
# m mon rid : dc97
# rd data in s drv: 0 , len : 228 , last:0 , valid : 1
# m mon rid : dc97
# rd data in s drv: 0 , len : 228 , last:0 , valid : 1
# m mon rid : dc97
# rd data in s drv: 0 , len : 228 , last:0 , valid : 1
# m mon rid : dc97
# rd data in s drv: 0 , len : 228 , last:0 , valid : 1
# m mon rid : dc97
# rd data in s drv: 0 , len : 228 , last:0 , valid : 1
# m mon rid : dc97
# rd data in s drv: 0 , len : 228 , last:0 , valid : 1
# m mon rid : dc97
# rd data in s drv: 0 , len : 228 , last:0 , valid : 1
# m mon rid : dc97
# rd data in s drv: 0 , len : 228 , last:0 , valid : 1
# m mon rid : dc97
# rd data in s drv: 0 , len : 228 , last:0 , valid : 1
# m mon rid : dc97
# rd data in s drv: 0 , len : 228 , last:0 , valid : 1
# m mon rid : dc97
# rd data in s drv: 0 , len : 228 , last:0 , valid : 1
# m mon rid : dc97
# rd data in s drv: 0 , len : 228 , last:0 , valid : 1
# m mon rid : dc97
# rd data in s drv: 0 , len : 228 , last:0 , valid : 1
# m mon rid : dc97
# rd data in s drv: 0 , len : 228 , last:0 , valid : 1
# m mon rid : dc97
# rd data in s drv: 0 , len : 228 , last:0 , valid : 1
# m mon rid : dc97
# rd data in s drv: 0 , len : 228 , last:0 , valid : 1
# m mon rid : dc97
# rd data in s drv: 0 , len : 228 , last:0 , valid : 1
# m mon rid : dc97
# rd data in s drv: 0 , len : 228 , last:0 , valid : 1
# m mon rid : dc97
# rd data in s drv: 0 , len : 228 , last:0 , valid : 1
# m mon rid : dc97
# rd data in s drv: 0 , len : 228 , last:0 , valid : 1
# m mon rid : dc97
# rd data in s drv: 0 , len : 228 , last:0 , valid : 1
# m mon rid : dc97
# rd data in s drv: 0 , len : 228 , last:0 , valid : 1
# m mon rid : dc97
# rd data in s drv: 0 , len : 228 , last:0 , valid : 1
# m mon rid : dc97
# rd data in s drv: 0 , len : 228 , last:0 , valid : 1
# m mon rid : dc97
# rd data in s drv: 0 , len : 228 , last:0 , valid : 1
# m mon rid : dc97
# rd data in s drv: 0 , len : 228 , last:0 , valid : 1
# m mon rid : dc97
# rd data in s drv: 0 , len : 228 , last:0 , valid : 1
# m mon rid : dc97
# rd data in s drv: 0 , len : 228 , last:0 , valid : 1
# m mon rid : dc97
# rd data in s drv: 0 , len : 228 , last:0 , valid : 1
# m mon rid : dc97
# rd data in s drv: 0 , len : 228 , last:0 , valid : 1
# m mon rid : dc97
# rd data in s drv: 0 , len : 228 , last:0 , valid : 1
# m mon rid : dc97
# rd data in s drv: 0 , len : 228 , last:0 , valid : 1
# m mon rid : dc97
# rd data in s drv: 0 , len : 228 , last:0 , valid : 1
# m mon rid : dc97
# rd data in s drv: 0 , len : 228 , last:0 , valid : 1
# m mon rid : dc97
# rd data in s drv: 0 , len : 228 , last:0 , valid : 1
# m mon rid : dc97
# rd data in s drv: 0 , len : 228 , last:0 , valid : 1
# m mon rid : dc97
# rd data in s drv: 0 , len : 228 , last:0 , valid : 1
# m mon rid : dc97
# rd data in s drv: 0 , len : 228 , last:0 , valid : 1
# m mon rid : dc97
# rd data in s drv: 0 , len : 228 , last:0 , valid : 1
# m mon rid : dc97
# rd data in s drv: 0 , len : 228 , last:0 , valid : 1
# m mon rid : dc97
# rd data in s drv: 0 , len : 228 , last:0 , valid : 1
# m mon rid : dc97
# rd data in s drv: 0 , len : 228 , last:0 , valid : 1
# m mon rid : dc97
# rd data in s drv: 0 , len : 228 , last:0 , valid : 1
# m mon rid : dc97
# rd data in s drv: 0 , len : 228 , last:0 , valid : 1
# m mon rid : dc97
# rd data in s drv: 0 , len : 228 , last:0 , valid : 1
# m mon rid : dc97
# rd data in s drv: 0 , len : 228 , last:0 , valid : 1
# m mon rid : dc97
# rd data in s drv: 0 , len : 228 , last:0 , valid : 1
# m mon rid : dc97
# rd data in s drv: 0 , len : 228 , last:0 , valid : 1
# m mon rid : dc97
# rd data in s drv: 0 , len : 228 , last:0 , valid : 1
# m mon rid : dc97
# rd data in s drv: 0 , len : 228 , last:0 , valid : 1
# m mon rid : dc97
# rd data in s drv: 0 , len : 228 , last:0 , valid : 1
# m mon rid : dc97
# rd data in s drv: 0 , len : 228 , last:0 , valid : 1
# m mon rid : dc97
# rd data in s drv: 0 , len : 228 , last:0 , valid : 1
# m mon rid : dc97
# rd data in s drv: 0 , len : 228 , last:0 , valid : 1
# m mon rid : dc97
# rd data in s drv: 0 , len : 228 , last:0 , valid : 1
# m mon rid : dc97
# rd data in s drv: 0 , len : 228 , last:0 , valid : 1
# m mon rid : dc97
# rd data in s drv: 0 , len : 228 , last:0 , valid : 1
# m mon rid : dc97
# rd data in s drv: 0 , len : 228 , last:0 , valid : 1
# m mon rid : dc97
# rd data in s drv: 0 , len : 228 , last:0 , valid : 1
# m mon rid : dc97
# rd data in s drv: 0 , len : 228 , last:0 , valid : 1
# m mon rid : dc97
# rd data in s drv: 0 , len : 228 , last:0 , valid : 1
# m mon rid : dc97
# rd data in s drv: 0 , len : 228 , last:0 , valid : 1
# m mon rid : dc97
# rd data in s drv: 0 , len : 228 , last:0 , valid : 1
# m mon rid : dc97
# rd data in s drv: 0 , len : 228 , last:0 , valid : 1
# m mon rid : dc97
# rd data in s drv: 0 , len : 228 , last:0 , valid : 1
# m mon rid : dc97
# rd data in s drv: 0 , len : 228 , last:0 , valid : 1
# m mon rid : dc97
# rd data in s drv: 0 , len : 228 , last:0 , valid : 1
# m mon rid : dc97
# rd data in s drv: 0 , len : 228 , last:0 , valid : 1
# m mon rid : dc97
# rd data in s drv: 0 , len : 228 , last:0 , valid : 1
# m mon rid : dc97
# rd data in s drv: 0 , len : 228 , last:0 , valid : 1
# m mon rid : dc97
# rd data in s drv: 0 , len : 228 , last:0 , valid : 1
# m mon rid : dc97
# rd data in s drv: 0 , len : 228 , last:0 , valid : 1
# m mon rid : dc97
# rd data in s drv: 0 , len : 228 , last:0 , valid : 1
# m mon rid : dc97
# rd data in s drv: 0 , len : 228 , last:0 , valid : 1
# m mon rid : dc97
# rd data in s drv: 0 , len : 228 , last:0 , valid : 1
# m mon rid : dc97
# rd data in s drv: 0 , len : 228 , last:0 , valid : 1
# m mon rid : dc97
# rd data in s drv: 0 , len : 228 , last:0 , valid : 1
# m mon rid : dc97
# rd data in s drv: 0 , len : 228 , last:0 , valid : 1
# m mon rid : dc97
# rd data in s drv: 0 , len : 228 , last:0 , valid : 1
# m mon rid : dc97
# rd data in s drv: 0 , len : 228 , last:0 , valid : 1
# m mon rid : dc97
# rd data in s drv: 0 , len : 228 , last:0 , valid : 1
# m mon rid : dc97
# rd data in s drv: 0 , len : 228 , last:0 , valid : 1
# m mon rid : dc97
# rd data in s drv: 0 , len : 228 , last:0 , valid : 1
# m mon rid : dc97
# rd data in s drv: 0 , len : 228 , last:0 , valid : 1
# m mon rid : dc97
# rd data in s drv: 0 , len : 228 , last:0 , valid : 1
# m mon rid : dc97
# rd data in s drv: 0 , len : 228 , last:0 , valid : 1
# m mon rid : dc97
# rd data in s drv: 0 , len : 228 , last:0 , valid : 1
# m mon rid : dc97
# rd data in s drv: 0 , len : 228 , last:0 , valid : 1
# m mon rid : dc97
# rd data in s drv: 0 , len : 228 , last:0 , valid : 1
# m mon rid : dc97
# rd data in s drv: 0 , len : 228 , last:0 , valid : 1
# m mon rid : dc97
# rd data in s drv: 0 , len : 228 , last:0 , valid : 1
# m mon rid : dc97
# rd data in s drv: 0 , len : 228 , last:0 , valid : 1
# m mon rid : dc97
# rd data in s drv: 0 , len : 228 , last:0 , valid : 1
# m mon rid : dc97
# rd data in s drv: 0 , len : 228 , last:0 , valid : 1
# m mon rid : dc97
# rd data in s drv: 0 , len : 228 , last:0 , valid : 1
# m mon rid : dc97
# rd data in s drv: 0 , len : 228 , last:0 , valid : 1
# m mon rid : dc97
# rd data in s drv: 0 , len : 228 , last:0 , valid : 1
# m mon rid : dc97
# rd data in s drv: 0 , len : 228 , last:0 , valid : 1
# m mon rid : dc97
# rd data in s drv: 0 , len : 228 , last:0 , valid : 1
# m mon rid : dc97
# rd data in s drv: 0 , len : 228 , last:0 , valid : 1
# m mon rid : dc97
# rd data in s drv: 0 , len : 228 , last:0 , valid : 1
# m mon rid : dc97
# rd data in s drv: 0 , len : 228 , last:0 , valid : 1
# m mon rid : dc97
# rd data in s drv: 0 , len : 228 , last:0 , valid : 1
# m mon rid : dc97
# rd data in s drv: 0 , len : 228 , last:0 , valid : 1
# m mon rid : dc97
# rd data in s drv: 0 , len : 228 , last:0 , valid : 1
# m mon rid : dc97
# rd data in s drv: 0 , len : 228 , last:0 , valid : 1
# m mon rid : dc97
# rd data in s drv: 0 , len : 228 , last:0 , valid : 1
# m mon rid : dc97
# rd data in s drv: 0 , len : 228 , last:0 , valid : 1
# m mon rid : dc97
# rd data in s drv: 0 , len : 228 , last:0 , valid : 1
# m mon rid : dc97
# rd data in s drv: 0 , len : 228 , last:0 , valid : 1
# m mon rid : dc97
# rd data in s drv: 0 , len : 228 , last:0 , valid : 1
# m mon rid : dc97
# rd data in s drv: 0 , len : 228 , last:0 , valid : 1
# m mon rid : dc97
# rd data in s drv: 0 , len : 228 , last:0 , valid : 1
# m mon rid : dc97
# rd data in s drv: 0 , len : 228 , last:0 , valid : 1
# m mon rid : dc97
# rd data in s drv: 0 , len : 228 , last:0 , valid : 1
# m mon rid : dc97
# rd data in s drv: 0 , len : 228 , last:0 , valid : 1
# m mon rid : dc97
# rd data in s drv: 0 , len : 228 , last:0 , valid : 1
# m mon rid : dc97
# rd data in s drv: 0 , len : 228 , last:0 , valid : 1
# m mon rid : dc97
# rd data in s drv: 0 , len : 228 , last:0 , valid : 1
# m mon rid : dc97
# rd data in s drv: 0 , len : 228 , last:0 , valid : 1
# m mon rid : dc97
# rd data in s drv: 0 , len : 228 , last:0 , valid : 1
# m mon rid : dc97
# rd data in s drv: 0 , len : 228 , last:0 , valid : 1
# m mon rid : dc97
# rd data in s drv: 0 , len : 228 , last:0 , valid : 1
# m mon rid : dc97
# rd data in s drv: 0 , len : 228 , last:0 , valid : 1
# m mon rid : dc97
# rd data in s drv: 0 , len : 228 , last:0 , valid : 1
# m mon rid : dc97
# rd data in s drv: 0 , len : 228 , last:0 , valid : 1
# m mon rid : dc97
# rd data in s drv: 0 , len : 228 , last:0 , valid : 1
# m mon rid : dc97
# rd data in s drv: 0 , len : 228 , last:0 , valid : 1
# m mon rid : dc97
# rd data in s drv: 0 , len : 228 , last:0 , valid : 1
# m mon rid : dc97
# rd data in s drv: 0 , len : 228 , last:0 , valid : 1
# m mon rid : dc97
# rd data in s drv: 0 , len : 228 , last:0 , valid : 1
# m mon rid : dc97
# rd data in s drv: 0 , len : 228 , last:0 , valid : 1
# m mon rid : dc97
# rd data in s drv: 0 , len : 228 , last:0 , valid : 1
# m mon rid : dc97
# rd data in s drv: 0 , len : 228 , last:0 , valid : 1
# m mon rid : dc97
# rd data in s drv: 0 , len : 228 , last:0 , valid : 1
# m mon rid : dc97
# rd data in s drv: 0 , len : 228 , last:0 , valid : 1
# m mon rid : dc97
# rd data in s drv: 0 , len : 228 , last:0 , valid : 1
# m mon rid : dc97
# rd data in s drv: 0 , len : 228 , last:0 , valid : 1
# m mon rid : dc97
# rd data in s drv: 0 , len : 228 , last:0 , valid : 1
# m mon rid : dc97
# rd data in s drv: 0 , len : 228 , last:0 , valid : 1
# m mon rid : dc97
# rd data in s drv: 0 , len : 228 , last:0 , valid : 1
# m mon rid : dc97
# rd data in s drv: 0 , len : 228 , last:0 , valid : 1
# m mon rid : dc97
# rd data in s drv: 0 , len : 228 , last:0 , valid : 1
# m mon rid : dc97
# rd data in s drv: 0 , len : 228 , last:0 , valid : 1
# m mon rid : dc97
# rd data in s drv: 0 , len : 228 , last:0 , valid : 1
# m mon rid : dc97
# rd data in s drv: 0 , len : 228 , last:0 , valid : 1
# m mon rid : dc97
# rd data in s drv: 0 , len : 228 , last:0 , valid : 1
# m mon rid : dc97
# rd data in s drv: 0 , len : 228 , last:0 , valid : 1
# m mon rid : dc97
# rd data in s drv: 0 , len : 228 , last:0 , valid : 1
# m mon rid : dc97
# rd data in s drv: 0 , len : 228 , last:0 , valid : 1
# m mon rid : dc97
# rd data in s drv: 0 , len : 228 , last:0 , valid : 1
# abc : 1
# ref model mem : 1070039950
# abc : 2
# ref model mem : 1070039958
# abc : 3
# ref model mem : 1070039966
# abc : 4
# ref model mem : 1070039974
# abc : 5
# ref model mem : 1070039982
# abc : 6
# ref model mem : 1070039990
# abc : 7
# ref model mem : 1070039998
# abc : 8
# ref model mem : 1070040006
# abc : 9
# ref model mem : 1070040014
# abc : 10
# ref model mem : 1070040022
# abc : 11
# ref model mem : 1070040030
# abc : 12
# ref model mem : 1070040038
# abc : 13
# ref model mem : 1070040046
# abc : 14
# ref model mem : 1070040054
# abc : 15
# ref model mem : 1070040062
# abc : 16
# ref model mem : 1070040070
# abc : 17
# ref model mem : 1070040078
# abc : 18
# ref model mem : 1070040086
# abc : 19
# ref model mem : 1070040094
# abc : 20
# ref model mem : 1070040102
# abc : 21
# ref model mem : 1070040110
# abc : 22
# ref model mem : 1070040118
# abc : 23
# ref model mem : 1070040126
# abc : 24
# ref model mem : 1070040134
# abc : 25
# ref model mem : 1070040142
# abc : 26
# ref model mem : 1070040150
# abc : 27
# ref model mem : 1070040158
# abc : 28
# ref model mem : 1070040166
# abc : 29
# ref model mem : 1070040174
# abc : 30
# ref model mem : 1070040182
# abc : 31
# ref model mem : 1070040190
# abc : 32
# ref model mem : 1070040198
# abc : 33
# ref model mem : 1070040206
# abc : 34
# ref model mem : 1070040214
# abc : 35
# ref model mem : 1070040222
# abc : 36
# ref model mem : 1070040230
# abc : 37
# ref model mem : 1070040238
# abc : 38
# ref model mem : 1070040246
# abc : 39
# ref model mem : 1070040254
# abc : 40
# ref model mem : 1070040262
# abc : 41
# ref model mem : 1070040270
# abc : 42
# ref model mem : 1070040278
# abc : 43
# ref model mem : 1070040286
# abc : 44
# ref model mem : 1070040294
# abc : 45
# ref model mem : 1070040302
# abc : 46
# ref model mem : 1070040310
# abc : 47
# ref model mem : 1070040318
# abc : 48
# ref model mem : 1070040326
# abc : 49
# ref model mem : 1070040334
# abc : 50
# ref model mem : 1070040342
# abc : 51
# ref model mem : 1070040350
# abc : 52
# ref model mem : 1070040358
# abc : 53
# ref model mem : 1070040366
# abc : 54
# ref model mem : 1070040374
# abc : 55
# ref model mem : 1070040382
# abc : 56
# ref model mem : 1070040390
# abc : 57
# ref model mem : 1070040398
# abc : 58
# ref model mem : 1070040406
# abc : 59
# ref model mem : 1070040414
# abc : 60
# ref model mem : 1070040422
# abc : 61
# ref model mem : 1070040430
# abc : 62
# ref model mem : 1070040438
# abc : 63
# ref model mem : 1070040446
# abc : 64
# ref model mem : 1070040454
# abc : 65
# ref model mem : 1070040462
# abc : 66
# ref model mem : 1070040470
# abc : 67
# ref model mem : 1070040478
# abc : 68
# ref model mem : 1070040486
# abc : 69
# ref model mem : 1070040494
# abc : 70
# ref model mem : 1070040502
# abc : 71
# ref model mem : 1070040510
# abc : 72
# ref model mem : 1070040518
# abc : 73
# ref model mem : 1070040526
# abc : 74
# ref model mem : 1070040534
# abc : 75
# ref model mem : 1070040542
# abc : 76
# ref model mem : 1070040550
# abc : 77
# ref model mem : 1070040558
# abc : 78
# ref model mem : 1070040566
# abc : 79
# ref model mem : 1070040574
# abc : 80
# ref model mem : 1070040582
# abc : 81
# ref model mem : 1070040590
# abc : 82
# ref model mem : 1070040598
# abc : 83
# ref model mem : 1070040606
# abc : 84
# ref model mem : 1070040614
# abc : 85
# ref model mem : 1070040622
# abc : 86
# ref model mem : 1070040630
# abc : 87
# ref model mem : 1070040638
# abc : 88
# ref model mem : 1070040646
# abc : 89
# ref model mem : 1070040654
# abc : 90
# ref model mem : 1070040662
# abc : 91
# ref model mem : 1070040670
# abc : 92
# ref model mem : 1070040678
# abc : 93
# ref model mem : 1070040686
# abc : 94
# ref model mem : 1070040694
# abc : 95
# ref model mem : 1070040702
# abc : 96
# ref model mem : 1070040710
# abc : 97
# ref model mem : 1070040718
# abc : 98
# ref model mem : 1070040726
# abc : 99
# ref model mem : 1070040734
# abc : 100
# ref model mem : 1070040742
# abc : 101
# ref model mem : 1070040750
# abc : 102
# ref model mem : 1070040758
# abc : 103
# ref model mem : 1070040766
# abc : 104
# ref model mem : 1070040774
# abc : 105
# ref model mem : 1070040782
# abc : 106
# ref model mem : 1070040790
# abc : 107
# ref model mem : 1070040798
# abc : 108
# ref model mem : 1070040806
# abc : 109
# ref model mem : 1070040814
# abc : 110
# ref model mem : 1070040822
# abc : 111
# ref model mem : 1070040830
# abc : 112
# ref model mem : 1070040838
# abc : 113
# ref model mem : 1070040846
# abc : 114
# ref model mem : 1070040854
# abc : 115
# ref model mem : 1070040862
# abc : 116
# ref model mem : 1070040870
# abc : 117
# ref model mem : 1070040878
# abc : 118
# ref model mem : 1070040886
# abc : 119
# ref model mem : 1070040894
# abc : 120
# ref model mem : 1070040902
# abc : 121
# ref model mem : 1070040910
# abc : 122
# ref model mem : 1070040918
# abc : 123
# ref model mem : 1070040926
# abc : 124
# ref model mem : 1070040934
# abc : 125
# ref model mem : 1070040942
# abc : 126
# ref model mem : 1070040950
# abc : 127
# ref model mem : 1070040958
# abc : 128
# ref model mem : 1070040966
# abc : 129
# ref model mem : 1070040974
# abc : 130
# ref model mem : 1070040982
# abc : 131
# ref model mem : 1070040990
# abc : 132
# ref model mem : 1070040998
# abc : 133
# ref model mem : 1070041006
# abc : 134
# ref model mem : 1070041014
# abc : 135
# ref model mem : 1070041022
# abc : 136
# ref model mem : 1070041030
# abc : 137
# ref model mem : 1070041038
# abc : 138
# ref model mem : 1070041046
# abc : 139
# ref model mem : 1070041054
# abc : 140
# ref model mem : 1070041062
# abc : 141
# ref model mem : 1070041070
# abc : 142
# ref model mem : 1070041078
# abc : 143
# ref model mem : 1070041086
# abc : 144
# ref model mem : 1070041094
# abc : 145
# ref model mem : 1070041102
# abc : 146
# ref model mem : 1070041110
# abc : 147
# ref model mem : 1070041118
# abc : 148
# ref model mem : 1070041126
# abc : 149
# ref model mem : 1070041134
# abc : 150
# ref model mem : 1070041142
# abc : 151
# ref model mem : 1070041150
# abc : 152
# ref model mem : 1070041158
# abc : 153
# ref model mem : 1070041166
# abc : 154
# ref model mem : 1070041174
# abc : 155
# ref model mem : 1070041182
# abc : 156
# ref model mem : 1070041190
# abc : 157
# ref model mem : 1070041198
# abc : 158
# ref model mem : 1070041206
# abc : 159
# ref model mem : 1070041214
# abc : 160
# ref model mem : 1070041222
# xyz : 1
# xyz : 2
# xyz : 3
# xyz : 4
# xyz : 5
# xyz : 6
# xyz : 7
# xyz : 8
# xyz : 9
# xyz : 10
# xyz : 11
# xyz : 12
# xyz : 13
# xyz : 14
# xyz : 15
# xyz : 16
# xyz : 17
# xyz : 18
# xyz : 19
# xyz : 20
# xyz : 21
# xyz : 22
# xyz : 23
# xyz : 24
# xyz : 25
# xyz : 26
# xyz : 27
# xyz : 28
# xyz : 29
# xyz : 30
# xyz : 31
# xyz : 32
# xyz : 33
# xyz : 34
# xyz : 35
# xyz : 36
# xyz : 37
# xyz : 38
# xyz : 39
# xyz : 40
# xyz : 41
# xyz : 42
# xyz : 43
# xyz : 44
# xyz : 45
# xyz : 46
# xyz : 47
# xyz : 48
# xyz : 49
# xyz : 50
# xyz : 51
# xyz : 52
# xyz : 53
# xyz : 54
# xyz : 55
# xyz : 56
# xyz : 57
# xyz : 58
# xyz : 59
# xyz : 60
# xyz : 61
# xyz : 62
# xyz : 63
# xyz : 64
# xyz : 65
# xyz : 66
# xyz : 67
# xyz : 68
# xyz : 69
# xyz : 70
# xyz : 71
# xyz : 72
# xyz : 73
# xyz : 74
# xyz : 75
# xyz : 76
# xyz : 77
# xyz : 78
# xyz : 79
# xyz : 80
# xyz : 81
# xyz : 82
# xyz : 83
# xyz : 84
# xyz : 85
# xyz : 86
# xyz : 87
# xyz : 88
# xyz : 89
# xyz : 90
# xyz : 91
# xyz : 92
# xyz : 93
# xyz : 94
# xyz : 95
# xyz : 96
# xyz : 97
# xyz : 98
# xyz : 99
# xyz : 100
# xyz : 101
# xyz : 102
# xyz : 103
# xyz : 104
# xyz : 105
# xyz : 106
# xyz : 107
# xyz : 108
# xyz : 109
# xyz : 110
# xyz : 111
# xyz : 112
# xyz : 113
# xyz : 114
# xyz : 115
# xyz : 116
# xyz : 117
# xyz : 118
# xyz : 119
# xyz : 120
# xyz : 121
# xyz : 122
# xyz : 123
# xyz : 124
# xyz : 125
# xyz : 126
# xyz : 127
# xyz : 128
# xyz : 129
# xyz : 130
# xyz : 131
# xyz : 132
# xyz : 133
# xyz : 134
# xyz : 135
# xyz : 136
# xyz : 137
# xyz : 138
# xyz : 139
# xyz : 140
# xyz : 141
# xyz : 142
# xyz : 143
# xyz : 144
# xyz : 145
# xyz : 146
# xyz : 147
# xyz : 148
# xyz : 149
# xyz : 150
# xyz : 151
# xyz : 152
# xyz : 153
# xyz : 154
# xyz : 155
# xyz : 156
# xyz : 157
# xyz : 158
# xyz : 159
# xyz : 160
# AR ADDR IN SB : 3fc78386
# AFFTER W CHANNEL
# m mon rid : dc97
# match arid : 0 , rid : 0
# UVM_INFO ../env/s_agent/axi_s_drv.sv(31) @ 4655: uvm_test_top.env_h.s_uvc_h.s_agent_h[0].s_drv_h [ID MATCH] aaaaa
# s seqs arid : 52119
# INIDE_SLAVE_SEQ_CTR=3
# match arid : cb97 , rid : cb97
# UVM_INFO ../env/s_agent/axi_s_drv.sv(31) @ 4655: uvm_test_top.env_h.s_uvc_h.s_agent_h[0].s_drv_h [ID MATCH] aaaaa
# rd data in s drv: 0 , len : 228 , last:0 , valid : 1
# m mon rid : dc97
# rd data in s drv: 0 , len : 228 , last:0 , valid : 1
# m mon rid : dc97
# req wid : 51924 , bid:51924
# UVM_INFO ../env/m_agent/axi_base_m_seqs.sv(26) @ 4675: uvm_test_top.env_h.m_uvc_h.m_agent_h[0].m_seqr_h@@vseqs_h.m_wseqs_h [IN V SEQS] Got B-channel response from driver
# rd data in s drv: 0 , len : 228 , last:0 , valid : 1
# m mon rid : dc97
# rd data in s drv: 0 , len : 228 , last:0 , valid : 1
# m mon rid : dc97
# rd data in s drv: 0 , len : 228 , last:0 , valid : 1
# m mon rid : dc97
# rd data in s drv: 0 , len : 228 , last:0 , valid : 1
# m mon rid : dc97
# rd data in s drv: 0 , len : 228 , last:0 , valid : 1
# m mon rid : dc97
# rd data in s drv: 0 , len : 228 , last:0 , valid : 1
# m mon rid : dc97
# rd data in s drv: 0 , len : 228 , last:0 , valid : 1
# m mon rid : dc97
# rd data in s drv: 0 , len : 228 , last:0 , valid : 1
# m mon rid : dc97
# rd data in s drv: 0 , len : 228 , last:0 , valid : 1
# m mon rid : dc97
# rd data in s drv: 0 , len : 228 , last:0 , valid : 1
# m mon rid : dc97
# rd data in s drv: 0 , len : 228 , last:0 , valid : 1
# m mon rid : dc97
# rd data in s drv: 0 , len : 228 , last:0 , valid : 1
# m mon rid : dc97
# rd data in s drv: 0 , len : 228 , last:0 , valid : 1
# m mon rid : dc97
# rd data in s drv: 0 , len : 228 , last:0 , valid : 1
# m mon rid : dc97
# rd data in s drv: 0 , len : 228 , last:0 , valid : 1
# m mon rid : dc97
# rd data in s drv: 0 , len : 228 , last:0 , valid : 1
# m mon rid : dc97
# rd data in s drv: 0 , len : 228 , last:0 , valid : 1
# m mon rid : dc97
# rd data in s drv: 0 , len : 228 , last:0 , valid : 1
# m mon rid : dc97
# rd data in s drv: 0 , len : 228 , last:0 , valid : 1
# m mon rid : dc97
# rd data in s drv: 0 , len : 228 , last:0 , valid : 1
# m mon rid : dc97
# rd data in s drv: 0 , len : 228 , last:0 , valid : 1
# m mon rid : dc97
# rd data in s drv: 0 , len : 228 , last:0 , valid : 1
# m mon rid : dc97
# rd data in s drv: 0 , len : 228 , last:0 , valid : 1
# m mon rid : dc97
# rd data in s drv: 0 , len : 228 , last:0 , valid : 1
# m mon rid : dc97
# rd data in s drv: 0 , len : 228 , last:0 , valid : 1
# m mon rid : dc97
# rd data in s drv: 0 , len : 228 , last:0 , valid : 1
# m mon rid : dc97
# rd data in s drv: 0 , len : 228 , last:0 , valid : 1
# m mon rid : dc97
# rd data in s drv: 0 , len : 228 , last:0 , valid : 1
# m mon rid : dc97
# rd data in s drv: 0 , len : 228 , last:0 , valid : 1
# m mon rid : dc97
# rd data in s drv: 0 , len : 228 , last:0 , valid : 1
# m mon rid : dc97
# rd data in s drv: 0 , len : 228 , last:0 , valid : 1
# m mon rid : dc97
# rd data in s drv: 0 , len : 228 , last:0 , valid : 1
# m mon rid : dc97
# rd data in s drv: 0 , len : 228 , last:0 , valid : 1
# m mon rid : dc97
# rd data in s drv: 0 , len : 228 , last:0 , valid : 1
# m mon rid : dc97
# rd data in s drv: 0 , len : 228 , last:0 , valid : 1
# m mon rid : dc97
# rd data in s drv: 0 , len : 228 , last:0 , valid : 1
# m mon rid : dc97
# rd data in s drv: 0 , len : 228 , last:0 , valid : 1
# m mon rid : dc97
# rd data in s drv: 0 , len : 228 , last:0 , valid : 1
# m mon rid : dc97
# rd data in s drv: 0 , len : 228 , last:0 , valid : 1
# m mon rid : dc97
# rd data in s drv: 0 , len : 228 , last:0 , valid : 1
# m mon rid : dc97
# rd data in s drv: 0 , len : 228 , last:0 , valid : 1
# m mon rid : dc97
# rd data in s drv: 0 , len : 228 , last:0 , valid : 1
# m mon rid : dc97
# rd data in s drv: 0 , len : 228 , last:0 , valid : 1
# m mon rid : dc97
# rd data in s drv: 0 , len : 228 , last:0 , valid : 1
# m mon rid : dc97
# rd data in s drv: 0 , len : 228 , last:0 , valid : 1
# m mon rid : dc97
# rd data in s drv: 0 , len : 228 , last:0 , valid : 1
# m mon rid : dc97
# rd data in s drv: 0 , len : 228 , last:0 , valid : 1
# m mon rid : dc97
# rd data in s drv: 0 , len : 228 , last:0 , valid : 1
# m mon rid : dc97
# rd data in s drv: 0 , len : 228 , last:0 , valid : 1
# m mon rid : dc97
# rd data in s drv: 0 , len : 228 , last:0 , valid : 1
# m mon rid : dc97
# rd data in s drv: 0 , len : 228 , last:0 , valid : 1
# m mon rid : dc97
# rd data in s drv: 0 , len : 228 , last:0 , valid : 1
# m mon rid : dc97
# rd data in s drv: 0 , len : 228 , last:0 , valid : 1
# m mon rid : dc97
# rd data in s drv: 0 , len : 228 , last:0 , valid : 1
# m mon rid : dc97
# rd data in s drv: 0 , len : 228 , last:0 , valid : 1
# m mon rid : dc97
# rd data in s drv: 0 , len : 228 , last:0 , valid : 1
# m mon rid : dc97
# rd data in s drv: 0 , len : 228 , last:0 , valid : 1
# m mon rid : dc97
# rd data in s drv: 0 , len : 228 , last:0 , valid : 1
# m mon rid : dc97
# rd data in s drv: 0 , len : 228 , last:0 , valid : 1
# m mon rid : dc97
# rd data in s drv: 0 , len : 228 , last:0 , valid : 1
# m mon rid : dc97
# rd data in s drv: 0 , len : 228 , last:0 , valid : 1
# m mon rid : dc97
# rd data in s drv: 0 , len : 228 , last:0 , valid : 1
# m mon rid : dc97
# rd data in s drv: 0 , len : 228 , last:0 , valid : 1
# m mon rid : dc97
# rd data in s drv: 0 , len : 228 , last:0 , valid : 1
# m mon rid : dc97
# rd data in s drv: 0 , len : 228 , last:0 , valid : 1
# m mon rid : dc97
# rd data in s drv: 0 , len : 228 , last:0 , valid : 1
# m mon rid : dc97
# rd data in s drv: 0 , len : 228 , last:1 , valid : 1
# req kind : READ
# INSIDE BEORE SAMPLE
# ---------------------------------------------------
# Name            Type               Size  Value     
# ---------------------------------------------------
# axi_m_seq_item  uvm_sequence_item  -     @2818     
#   AWID          integral           16    'h0       
#   AWADDR        integral           32    'h0       
#   AWLEN         integral           8     'd0       
#   AWSIZE        integral           3     'd0       
#   AWBURST       integral           2     'd0       
#   WID           integral           16    'h0       
#   WDATA         da(integral)       0     -         
#   WSTRB         da(integral)       0     -         
#   WLAST         integral           1     'd0       
#   BID           integral           16    'h0       
#   BRESP         integral           2     'd0       
#   ARID          integral           16    'hdc97    
#   ARADDR        integral           32    'h9c8a8aa8
#   ARLEN         integral           8     228       
#   ARSIZE        integral           3     'd3       
#   ARBURST       integral           2     'd1       
#   RID           integral           16    'hdc97    
#   RDATA         da(integral)       229   -         
#     [0]         integral           32    'h0       
#     [1]         integral           32    'h0       
#     [2]         integral           32    'h0       
#     [3]         integral           32    'h0       
#     [4]         integral           32    'h0       
#     ...         ...                ...   ...       
#     [224]       integral           32    'h0       
#     [225]       integral           32    'h0       
#     [226]       integral           32    'h0       
#     [227]       integral           32    'h0       
#     [228]       integral           32    'h0       
#   RRESP         integral           2     'd0       
#   RLAST         integral           1     'd0       
#   burst_kind_e  burst_kind         2     FIXED     
#   kind_e        trans_kind         2     READ      
# ---------------------------------------------------
# RDATa IN SB : 0 0 0 0 0 0 0 0 0 0 0 0 0 0 0 0 0 0 0 0 0 0 0 0 0 0 0 0 0 0 0 0 0 0 0 0 0 0 0 0 0 0 0 0 0 0 0 0 0 0 0 0 0 0 0 0 0 0 0 0 0 0 0 0 0 0 0 0 0 0 0 0 0 0 0 0 0 0 0 0 0 0 0 0 0 0 0 0 0 0 0 0 0 0 0 0 0 0 0 0 0 0 0 0 0 0 0 0 0 0 0 0 0 0 0 0 0 0 0 0 0 0 0 0 0 0 0 0 0 0 0 0 0 0 0 0 0 0 0 0 0 0 0 0 0 0 0 0 0 0 0 0 0 0 0 0 0 0 0 0 0 0 0 0 0 0 0 0 0 0 0 0 0 0 0 0 0 0 0 0 0 0 0 0 0 0 0 0 0 0 0 0 0 0 0 0 0 0 0 0 0 0 0 0 0 0 0 0 0 0 0 0 0 0 0 0 0 0 0 0 0 0 0 0 0 0 0 0 0
# m mon rid : dc97
# UVM_INFO ../env/axi_sb.sv(82) @ 5345: uvm_test_top.env_h.sb_h [after event in sb] aaaa
# UVM_INFO ../env/axi_sb.sv(80) @ 5345: uvm_test_top.env_h.sb_h [before event in sb] aaaa
# rd data in s drv: 0 , len : 159 , last:0 , valid : 1
# m mon rid : cb97
# rd data in s drv: 0 , len : 159 , last:0 , valid : 1
# m mon rid : cb97
# rd data in s drv: 0 , len : 159 , last:0 , valid : 1
# m mon rid : cb97
# rd data in s drv: 0 , len : 159 , last:0 , valid : 1
# m mon rid : cb97
# rd data in s drv: 0 , len : 159 , last:0 , valid : 1
# m mon rid : cb97
# rd data in s drv: 0 , len : 159 , last:0 , valid : 1
# m mon rid : cb97
# rd data in s drv: 0 , len : 159 , last:0 , valid : 1
# m mon rid : cb97
# rd data in s drv: 0 , len : 159 , last:0 , valid : 1
# m mon rid : cb97
# rd data in s drv: 0 , len : 159 , last:0 , valid : 1
# m mon rid : cb97
# rd data in s drv: 0 , len : 159 , last:0 , valid : 1
# m mon rid : cb97
# rd data in s drv: 0 , len : 159 , last:0 , valid : 1
# m mon rid : cb97
# rd data in s drv: 0 , len : 159 , last:0 , valid : 1
# m mon rid : cb97
# rd data in s drv: 0 , len : 159 , last:0 , valid : 1
# m mon rid : cb97
# rd data in s drv: 0 , len : 159 , last:0 , valid : 1
# m mon rid : cb97
# rd data in s drv: 0 , len : 159 , last:0 , valid : 1
# m mon rid : cb97
# rd data in s drv: 0 , len : 159 , last:0 , valid : 1
# m mon rid : cb97
# rd data in s drv: 0 , len : 159 , last:0 , valid : 1
# m mon rid : cb97
# rd data in s drv: 0 , len : 159 , last:0 , valid : 1
# m mon rid : cb97
# rd data in s drv: 0 , len : 159 , last:0 , valid : 1
# m mon rid : cb97
# rd data in s drv: 0 , len : 159 , last:0 , valid : 1
# m mon rid : cb97
# rd data in s drv: 0 , len : 159 , last:0 , valid : 1
# m mon rid : cb97
# rd data in s drv: 0 , len : 159 , last:0 , valid : 1
# m mon rid : cb97
# rd data in s drv: 0 , len : 159 , last:0 , valid : 1
# m mon rid : cb97
# rd data in s drv: 0 , len : 159 , last:0 , valid : 1
# m mon rid : cb97
# rd data in s drv: 0 , len : 159 , last:0 , valid : 1
# m mon rid : cb97
# rd data in s drv: 0 , len : 159 , last:0 , valid : 1
# m mon rid : cb97
# rd data in s drv: 0 , len : 159 , last:0 , valid : 1
# m mon rid : cb97
# rd data in s drv: 0 , len : 159 , last:0 , valid : 1
# m mon rid : cb97
# rd data in s drv: 0 , len : 159 , last:0 , valid : 1
# m mon rid : cb97
# rd data in s drv: 0 , len : 159 , last:0 , valid : 1
# m mon rid : cb97
# rd data in s drv: 0 , len : 159 , last:0 , valid : 1
# m mon rid : cb97
# rd data in s drv: 0 , len : 159 , last:0 , valid : 1
# m mon rid : cb97
# rd data in s drv: 0 , len : 159 , last:0 , valid : 1
# m mon rid : cb97
# rd data in s drv: 0 , len : 159 , last:0 , valid : 1
# m mon rid : cb97
# rd data in s drv: 0 , len : 159 , last:0 , valid : 1
# m mon rid : cb97
# rd data in s drv: 0 , len : 159 , last:0 , valid : 1
# m mon rid : cb97
# rd data in s drv: 0 , len : 159 , last:0 , valid : 1
# m mon rid : cb97
# rd data in s drv: 0 , len : 159 , last:0 , valid : 1
# m mon rid : cb97
# rd data in s drv: 0 , len : 159 , last:0 , valid : 1
# m mon rid : cb97
# rd data in s drv: 0 , len : 159 , last:0 , valid : 1
# m mon rid : cb97
# rd data in s drv: 0 , len : 159 , last:0 , valid : 1
# m mon rid : cb97
# rd data in s drv: 0 , len : 159 , last:0 , valid : 1
# m mon rid : cb97
# rd data in s drv: 0 , len : 159 , last:0 , valid : 1
# m mon rid : cb97
# rd data in s drv: 0 , len : 159 , last:0 , valid : 1
# m mon rid : cb97
# rd data in s drv: 0 , len : 159 , last:0 , valid : 1
# m mon rid : cb97
# rd data in s drv: 0 , len : 159 , last:0 , valid : 1
# m mon rid : cb97
# rd data in s drv: 0 , len : 159 , last:0 , valid : 1
# m mon rid : cb97
# rd data in s drv: 0 , len : 159 , last:0 , valid : 1
# m mon rid : cb97
# rd data in s drv: 0 , len : 159 , last:0 , valid : 1
# m mon rid : cb97
# rd data in s drv: 0 , len : 159 , last:0 , valid : 1
# m mon rid : cb97
# rd data in s drv: 0 , len : 159 , last:0 , valid : 1
# m mon rid : cb97
# rd data in s drv: 0 , len : 159 , last:0 , valid : 1
# m mon rid : cb97
# rd data in s drv: 0 , len : 159 , last:0 , valid : 1
# m mon rid : cb97
# rd data in s drv: 0 , len : 159 , last:0 , valid : 1
# m mon rid : cb97
# rd data in s drv: 0 , len : 159 , last:0 , valid : 1
# m mon rid : cb97
# rd data in s drv: 0 , len : 159 , last:0 , valid : 1
# m mon rid : cb97
# rd data in s drv: 0 , len : 159 , last:0 , valid : 1
# m mon rid : cb97
# rd data in s drv: 0 , len : 159 , last:0 , valid : 1
# m mon rid : cb97
# rd data in s drv: 0 , len : 159 , last:0 , valid : 1
# m mon rid : cb97
# rd data in s drv: 0 , len : 159 , last:0 , valid : 1
# m mon rid : cb97
# rd data in s drv: 0 , len : 159 , last:0 , valid : 1
# m mon rid : cb97
