# vsim -coverage -voptargs="+acc" axi_tb_top -c -do "coverage save -onexit -directive -cvg -codeall axi_wrap_test.ucdb; run -all; exit" "+UVM_TESTNAME=axi_wrap_test" -l axi_wrap_test.log 
# Start time: 09:58:58 on May 06,2026
# ** Note: (vsim-3812) Design is being optimized...
# ** Warning: (vopt-10587) Some optimizations are turned off because the +acc switch is in effect. This will cause your simulation to run slowly. Please use -access/-debug to maintain needed visibility.
# ** Warning: (vopt-13408) Code coverage will be disabled for some DUs/packages/classes and source files.
# ** Note: (vsim-12126) Error and warning message counts have been restored: Errors=0, Warnings=2.
# //  Questa Sim-64
# //  Version 2023.4 linux_x86_64 Oct  9 2023
# //
# //  Copyright 1991-2023 Mentor Graphics Corporation
# //  All Rights Reserved.
# //
# //  QuestaSim and its associated documentation contain trade
# //  secrets and commercial or financial information that are the property of
# //  Mentor Graphics Corporation and are privileged, confidential,
# //  and exempt from disclosure under the Freedom of Information Act,
# //  5 U.S.C. Section 552. Furthermore, this information
# //  is prohibited from disclosure under the Trade Secrets Act,
# //  18 U.S.C. Section 1905.
# //
# Loading sv_std.std
# Loading work.axi_s_inf(fast)
# Loading work.axi_m_inf(fast)
# Loading mtiUvm.uvm_pkg(fast)
# Loading work.axi_s_agent_pkg(fast)
# Loading work.axi_m_agent_pkg(fast)
# Loading work.axi_env_pkg(fast)
# Loading work.axi_test_pkg(fast)
# Loading mtiUvm.questa_uvm_pkg(fast)
# Loading work.axi_tb_top(fast)
# Loading work.axi_m_inf(fast__2)
# Loading work.axi_s_inf(fast__2)
# ** Warning: (vsim-8441) Clocking block output s_vif.s_drv_cb.RDATA is not legal in this
# or another expression.
#    Time: 0 ns  Iteration: 0  Region: /axi_s_agent_pkg::axi_s_drv #(32, 32) File: ../env/s_agent/axi_s_drv.sv Line: 113
# ** Warning: (vsim-8441) Clocking block output s_vif.s_drv_cb.RVALID is not legal in this
# or another expression.
#    Time: 0 ns  Iteration: 0  Region: /axi_s_agent_pkg::axi_s_drv #(32, 32) File: ../env/s_agent/axi_s_drv.sv Line: 115
# ** Warning: (vsim-8441) Clocking block output s_vif.s_drv_cb.RLAST is not legal in this
# or another expression.
#    Time: 0 ns  Iteration: 0  Region: /axi_s_agent_pkg::axi_s_drv #(32, 32) File: ../env/s_agent/axi_s_drv.sv Line: 116
# ** Warning: (vsim-8441) Clocking block output s_vif.s_drv_cb.RDATA is not legal in this
# or another expression.
#    Time: 0 ns  Iteration: 0  Region: /axi_s_agent_pkg::axi_s_drv #(32, 32) File: ../env/s_agent/axi_s_drv.sv Line: 113
# ** Warning: (vsim-8441) Clocking block output s_vif.s_drv_cb.RLAST is not legal in this
# or another expression.
#    Time: 0 ns  Iteration: 0  Region: /axi_s_agent_pkg::axi_s_drv #(32, 32) File: ../env/s_agent/axi_s_drv.sv Line: 116
# ** Warning: (vsim-8441) Clocking block output s_vif.s_drv_cb.RVALID is not legal in this
# or another expression.
#    Time: 0 ns  Iteration: 0  Region: /axi_s_agent_pkg::axi_s_drv #(32, 32) File: ../env/s_agent/axi_s_drv.sv Line: 115
# ** Warning: (vsim-8441) Clocking block output s_vif.s_drv_cb.RVALID is not legal in this
# or another expression.
#    Time: 0 ns  Iteration: 0  Region: /axi_s_agent_pkg::axi_s_drv #(32, 32) File: ../env/s_agent/axi_s_drv.sv Line: 115
# ** Warning: (vsim-8441) Clocking block output s_vif.s_drv_cb.RLAST is not legal in this
# or another expression.
#    Time: 0 ns  Iteration: 0  Region: /axi_s_agent_pkg::axi_s_drv #(32, 32) File: ../env/s_agent/axi_s_drv.sv Line: 116
# ** Warning: (vsim-8441) Clocking block output m_vif.m_drv_cb.WID is not legal in this
# or another expression.
#    Time: 0 ns  Iteration: 0  Region: /axi_m_agent_pkg::axi_m_drv #(32, 32) File: ../env/m_agent/axi_m_drv.sv Line: 95
# ** Warning: (vsim-8441) Clocking block output m_vif.m_drv_cb.WID is not legal in this
# or another expression.
#    Time: 0 ns  Iteration: 0  Region: /axi_m_agent_pkg::axi_m_drv #(32, 32) File: ../env/m_agent/axi_m_drv.sv Line: 95
# ** Warning: (vsim-8441) Clocking block output m_vif.m_drv_cb.WLAST is not legal in this
# or another expression.
#    Time: 0 ns  Iteration: 0  Region: /axi_m_agent_pkg::axi_m_drv #(32, 32) File: ../env/m_agent/axi_m_drv.sv Line: 100
# ** Warning: (vsim-8441) Clocking block output m_vif.m_drv_cb.WLAST is not legal in this
# or another expression.
#    Time: 0 ns  Iteration: 0  Region: /axi_m_agent_pkg::axi_m_drv #(32, 32) File: ../env/m_agent/axi_m_drv.sv Line: 100
# ** Warning: (vsim-8441) Clocking block output m_vif.m_drv_cb.WLAST is not legal in this
# or another expression.
#    Time: 0 ns  Iteration: 0  Region: /axi_m_agent_pkg::axi_m_drv #(32, 32) File: ../env/m_agent/axi_m_drv.sv Line: 100
# ** Warning: (vsim-8441) Clocking block output m_vif.m_drv_cb.WLAST is not legal in this
# or another expression.
#    Time: 0 ns  Iteration: 0  Region: /axi_m_agent_pkg::axi_m_drv #(32, 32) File: ../env/m_agent/axi_m_drv.sv Line: 100
# Loading /tools/mentor/questa/2023.4/questasim/uvm-1.1d/linux_x86_64/uvm_dpi.so
# coverage save -onexit -directive -cvg -codeall axi_wrap_test.ucdb
#  run -all
# ----------------------------------------------------------------
# UVM-1.1d
# (C) 2007-2013 Mentor Graphics Corporation
# (C) 2007-2013 Cadence Design Systems, Inc.
# (C) 2006-2013 Synopsys, Inc.
# (C) 2011-2013 Cypress Semiconductor Corp.
# ----------------------------------------------------------------
# 
#   ***********       IMPORTANT RELEASE NOTES         ************
# 
#   You are using a version of the UVM library that has been compiled
#   with `UVM_NO_DEPRECATED undefined.
#   See http://www.eda.org/svdb/view.php?id=3313 for more details.
# 
#   You are using a version of the UVM library that has been compiled
#   with `UVM_OBJECT_MUST_HAVE_CONSTRUCTOR undefined.
#   See http://www.eda.org/svdb/view.php?id=3770 for more details.
# 
#       (Specify +UVM_NO_RELNOTES to turn off this notice)
# 
# UVM_INFO verilog_src/questa_uvm_pkg-1.2/src/questa_uvm_pkg.sv(277) @ 0: reporter [Questa UVM] QUESTA_UVM-1.2.3
# UVM_INFO verilog_src/questa_uvm_pkg-1.2/src/questa_uvm_pkg.sv(278) @ 0: reporter [Questa UVM]  questa_uvm::init(+struct)
# UVM_INFO @ 0: reporter [RNTST] Running test axi_wrap_test...
# UVM_INFO ../env/s_agent/axi_s_seqr.sv(25) @ 0: uvm_test_top.env_h.s_uvc_h.s_agent_h[0].s_seqr_h [Data in s seqr] Data got in slave seqr
# UVM_INFO @ 0: reporter [UVMTOP] UVM testbench topology:
# --------------------------------------------------------------------------------
# Name                             Type                                Size  Value
# --------------------------------------------------------------------------------
# uvm_test_top                     axi_wrap_test                       -     @479 
#   env_h                          axi_env                             -     @491 
#     m_uvc_h                      uvm_agent                           -     @513 
#       m_agent_h[0]               uvm_agent                           -     @693 
#         m_drv_h                  uvm_driver #(REQ,RSP)               -     @814 
#           rsp_port               uvm_analysis_port                   -     @829 
#           seq_item_port          uvm_seq_item_pull_port              -     @821 
#         m_mon_h                  axi_m_mon#(ADDR_WIDTH, DATA_WIDTH)  -     @837 
#           s_port                 uvm_analysis_port                   -     @844 
#         m_seqr_h                 uvm_sequencer                       -     @705 
#           rsp_export             uvm_analysis_export                 -     @712 
#           seq_item_export        uvm_seq_item_pull_imp               -     @806 
#           arbitration_queue      array                               0     -    
#           lock_queue             array                               0     -    
#           num_last_reqs          integral                            32    'd1  
#           num_last_rsps          integral                            32    'd1  
#     ref_model_h                  axi_ref_model                       -     @558 
#       mon_imp                    uvm_analysis_imp                    -     @565 
#       sb_imp                     uvm_analysis_port                   -     @573 
#     s_uvc_h                      uvm_agent                           -     @520 
#       s_agent_h[0]               uvm_agent                           -     @860 
#         s_drv_h                  uvm_driver #(REQ,RSP)               -     @1036
#           rsp_port               uvm_analysis_port                   -     @1051
#           seq_item_port          uvm_seq_item_pull_port              -     @1043
#         s_mon_h                  axi_s_mon#(ADDR_WIDTH, DATA_WIDTH)  -     @1059
#           s_port                 uvm_analysis_port                   -     @1066
#         s_seqr_h                 uvm_sequencer                       -     @872 
#           item_collected_export  uvm_analysis_export                 -     @981 
#           item_req_fifo          uvm_tlm_analysis_fifo #(T)          -     @989 
#             analysis_export      uvm_analysis_imp                    -     @1028
#             get_ap               uvm_analysis_port                   -     @1020
#             get_peek_export      uvm_get_peek_imp                    -     @1004
#             put_ap               uvm_analysis_port                   -     @1012
#             put_export           uvm_put_imp                         -     @996 
#           rsp_export             uvm_analysis_export                 -     @879 
#           seq_item_export        uvm_seq_item_pull_imp               -     @973 
#           arbitration_queue      array                               0     -    
#           lock_queue             array                               0     -    
#           num_last_reqs          integral                            32    'd1  
#           num_last_rsps          integral                            32    'd1  
#     sb_h                         axi_sb                              -     @527 
#       anl_imp_m                  uvm_analysis_imp_m                  -     @534 
#       anl_imp_ref                uvm_analysis_imp_ref                -     @542 
#     vseqr_h                      axi_virtual_seqr                    -     @581 
#       rsp_export                 uvm_analysis_export                 -     @588 
#       seq_item_export            uvm_seq_item_pull_imp               -     @682 
#       arbitration_queue          array                               0     -    
#       lock_queue                 array                               0     -    
#       num_last_reqs              integral                            32    'd1  
#       num_last_rsps              integral                            32    'd1  
# --------------------------------------------------------------------------------
# 
# UVM_INFO ../env/axi_sb.sv(59) @ 0: uvm_test_top.env_h.sb_h [before event in sb] aaaa
# UVM_INFO ../env/m_agent/axi_m_mon.sv(29) @ 0: uvm_test_top.env_h.m_uvc_h.m_agent_h[0].m_mon_h [M MON RUN PHASE before] Inside master mon run phase
# UVM_INFO ../env/m_agent/axi_m_mon.sv(36) @ 0: uvm_test_top.env_h.m_uvc_h.m_agent_h[0].m_mon_h [M MON run PHASE after] Inside master mon
# UVM_INFO ../env/m_agent/axi_m_mon.sv(41) @ 0: uvm_test_top.env_h.m_uvc_h.m_agent_h[0].m_mon_h [M MON write addr PHASE before] Inside master mon
# UVM_INFO ../env/m_agent/axi_m_mon.sv(61) @ 0: uvm_test_top.env_h.m_uvc_h.m_agent_h[0].m_mon_h [M MON write data PHASE before] Inside master mon
# UVM_INFO ../env/m_agent/axi_m_mon.sv(86) @ 0: uvm_test_top.env_h.m_uvc_h.m_agent_h[0].m_mon_h [M MON read addr PHASE before] Inside master mon
# UVM_INFO ../env/m_agent/axi_m_mon.sv(108) @ 0: uvm_test_top.env_h.m_uvc_h.m_agent_h[0].m_mon_h [M MON read data PHASE before] Inside master mon
# Before AW CHANNEL
# Before W CHANNEL
# Before AR CHANNEL
# Before R CHANNEL
# cnt : 1
# wr in wrap seqs: 1 , len : 3 , wr_addr : 1376 , aw_id : 48469 , w_id : 6768
# ARID IN WRAP SEQS : eb2b
# cnt : 2
# rd in wrap seqs: 1 , len : 3 , rd_addr : 1376 , ar_id : 60203 , r_id : 0
# cnt : 3
# wr in wrap seqs: 2 , len : 7 , wr_addr : 1792 , aw_id : 48924 , w_id : 34007
# ARID IN WRAP SEQS : e93b
# cnt : 4
# rd in wrap seqs: 2 , len : 7 , rd_addr : 1792 , ar_id : 59707 , r_id : 0
# cnt : 5
# wr in wrap seqs: 3 , len : 1 , wr_addr : 896 , aw_id : 11091 , w_id : 15737
# ARID IN WRAP SEQS : e9d3
# cnt : 6
# rd in wrap seqs: 3 , len : 1 , rd_addr : 896 , ar_id : 59859 , r_id : 0
# cnt : 7
# wr in wrap seqs: 4 , len : 1 , wr_addr : 1712 , aw_id : 42546 , w_id : 19669
# ARID IN WRAP SEQS : 28ba
# cnt : 8
# rd in wrap seqs: 4 , len : 1 , rd_addr : 1712 , ar_id : 10426 , r_id : 0
# cnt : 9
# wr in wrap seqs: 5 , len : 7 , wr_addr : 1600 , aw_id : 32817 , w_id : 20928
# ARID IN WRAP SEQS : f054
# cnt : 10
# rd in wrap seqs: 5 , len : 7 , rd_addr : 1600 , ar_id : 61524 , r_id : 0
# cnt : 11
# wr in wrap seqs: 6 , len : 15 , wr_addr : 1152 , aw_id : 64272 , w_id : 19288
# ARID IN WRAP SEQS : 675b
# cnt : 12
# rd in wrap seqs: 6 , len : 15 , rd_addr : 1152 , ar_id : 26459 , r_id : 0
# cnt : 13
# wr in wrap seqs: 7 , len : 1 , wr_addr : 720 , aw_id : 48097 , w_id : 31214
# ARID IN WRAP SEQS : 5755
# cnt : 14
# rd in wrap seqs: 7 , len : 1 , rd_addr : 720 , ar_id : 22357 , r_id : 0
# cnt : 15
# wr in wrap seqs: 8 , len : 15 , wr_addr : 768 , aw_id : 48149 , w_id : 55366
# ARID IN WRAP SEQS : e656
# cnt : 16
# rd in wrap seqs: 8 , len : 15 , rd_addr : 768 , ar_id : 58966 , r_id : 0
# cnt : 17
# wr in wrap seqs: 9 , len : 3 , wr_addr : 320 , aw_id : 23496 , w_id : 42796
# ARID IN WRAP SEQS : fcf7
# cnt : 18
# rd in wrap seqs: 9 , len : 3 , rd_addr : 320 , ar_id : 64759 , r_id : 0
# cnt : 19
# wr in wrap seqs: 10 , len : 7 , wr_addr : 1664 , aw_id : 53607 , w_id : 56768
# ARID IN WRAP SEQS : a894
# cnt : 20
# rd in wrap seqs: 10 , len : 7 , rd_addr : 1664 , ar_id : 43156 , r_id : 0
# cnt : 21
# wr in wrap seqs: 11 , len : 15 , wr_addr : 512 , aw_id : 17367 , w_id : 38938
# ARID IN WRAP SEQS : ccd7
# cnt : 22
# rd in wrap seqs: 11 , len : 15 , rd_addr : 512 , ar_id : 52439 , r_id : 0
# cnt : 23
# wr in wrap seqs: 12 , len : 3 , wr_addr : 1312 , aw_id : 23008 , w_id : 14294
# ARID IN WRAP SEQS : 1329
# cnt : 24
# rd in wrap seqs: 12 , len : 3 , rd_addr : 1312 , ar_id : 4905 , r_id : 0
# cnt : 25
# wr in wrap seqs: 13 , len : 7 , wr_addr : 512 , aw_id : 32031 , w_id : 44974
# ARID IN WRAP SEQS : 8af9
# cnt : 26
# rd in wrap seqs: 13 , len : 7 , rd_addr : 512 , ar_id : 35577 , r_id : 0
# cnt : 27
# wr in wrap seqs: 14 , len : 15 , wr_addr : 128 , aw_id : 12673 , w_id : 53390
# ARID IN WRAP SEQS : 6283
# cnt : 28
# rd in wrap seqs: 14 , len : 15 , rd_addr : 128 , ar_id : 25219 , r_id : 0
# cnt : 29
# wr in wrap seqs: 15 , len : 1 , wr_addr : 912 , aw_id : 40425 , w_id : 46056
# ARID IN WRAP SEQS : bb7b
# cnt : 30
# rd in wrap seqs: 15 , len : 1 , rd_addr : 912 , ar_id : 47995 , r_id : 0
# cnt : 31
# wr in wrap seqs: 16 , len : 15 , wr_addr : 1280 , aw_id : 34571 , w_id : 19512
# ARID IN WRAP SEQS : c84c
# cnt : 32
# rd in wrap seqs: 16 , len : 15 , rd_addr : 1280 , ar_id : 51276 , r_id : 0
# cnt : 33
# wr in wrap seqs: 17 , len : 1 , wr_addr : 1296 , aw_id : 3557 , w_id : 57870
# ARID IN WRAP SEQS : ad41
# cnt : 34
# rd in wrap seqs: 17 , len : 1 , rd_addr : 1296 , ar_id : 44353 , r_id : 0
# cnt : 35
# wr in wrap seqs: 18 , len : 3 , wr_addr : 928 , aw_id : 13717 , w_id : 55663
# ARID IN WRAP SEQS : 85e1
# cnt : 36
# rd in wrap seqs: 18 , len : 3 , rd_addr : 928 , ar_id : 34273 , r_id : 0
# cnt : 37
# wr in wrap seqs: 19 , len : 1 , wr_addr : 624 , aw_id : 8568 , w_id : 45876
# ARID IN WRAP SEQS : 9fae
# cnt : 38
# rd in wrap seqs: 19 , len : 1 , rd_addr : 624 , ar_id : 40878 , r_id : 0
# cnt : 39
# wr in wrap seqs: 20 , len : 3 , wr_addr : 480 , aw_id : 44422 , w_id : 9306
# ARID IN WRAP SEQS : fe09
# cnt : 40
# rd in wrap seqs: 20 , len : 3 , rd_addr : 480 , ar_id : 65033 , r_id : 0
# cnt : 41
# wr in wrap seqs: 21 , len : 1 , wr_addr : 32 , aw_id : 65129 , w_id : 42950
# ARID IN WRAP SEQS : 9898
# cnt : 42
# rd in wrap seqs: 21 , len : 1 , rd_addr : 32 , ar_id : 39064 , r_id : 0
# cnt : 43
# wr in wrap seqs: 22 , len : 1 , wr_addr : 96 , aw_id : 6012 , w_id : 58909
# ARID IN WRAP SEQS : f535
# cnt : 44
# rd in wrap seqs: 22 , len : 1 , rd_addr : 96 , ar_id : 62773 , r_id : 0
# cnt : 45
# wr in wrap seqs: 23 , len : 1 , wr_addr : 1136 , aw_id : 26141 , w_id : 59905
# ARID IN WRAP SEQS : ebbe
# cnt : 46
# rd in wrap seqs: 23 , len : 1 , rd_addr : 1136 , ar_id : 60350 , r_id : 0
# cnt : 47
# wr in wrap seqs: 24 , len : 1 , wr_addr : 1616 , aw_id : 59295 , w_id : 63406
# ARID IN WRAP SEQS : aff3
# cnt : 48
# rd in wrap seqs: 24 , len : 1 , rd_addr : 1616 , ar_id : 45043 , r_id : 0
# cnt : 49
# wr in wrap seqs: 25 , len : 1 , wr_addr : 1648 , aw_id : 23954 , w_id : 61925
# ARID IN WRAP SEQS : 3db4
# cnt : 50
# rd in wrap seqs: 25 , len : 1 , rd_addr : 1648 , ar_id : 15796 , r_id : 0
# cnt : 51
# wr in wrap seqs: 26 , len : 1 , wr_addr : 1968 , aw_id : 29878 , w_id : 35261
# ARID IN WRAP SEQS : fbab
# cnt : 52
# rd in wrap seqs: 26 , len : 1 , rd_addr : 1968 , ar_id : 64427 , r_id : 0
# cnt : 53
# wr in wrap seqs: 27 , len : 1 , wr_addr : 976 , aw_id : 10880 , w_id : 65179
# ARID IN WRAP SEQS : 3b1c
# cnt : 54
# rd in wrap seqs: 27 , len : 1 , rd_addr : 976 , ar_id : 15132 , r_id : 0
# cnt : 55
# wr in wrap seqs: 28 , len : 15 , wr_addr : 1920 , aw_id : 8187 , w_id : 48679
# ARID IN WRAP SEQS : 61ab
# cnt : 56
# rd in wrap seqs: 28 , len : 15 , rd_addr : 1920 , ar_id : 25003 , r_id : 0
# cnt : 57
# wr in wrap seqs: 29 , len : 3 , wr_addr : 1920 , aw_id : 17206 , w_id : 8801
# ARID IN WRAP SEQS : c8d0
# cnt : 58
# rd in wrap seqs: 29 , len : 3 , rd_addr : 1920 , ar_id : 51408 , r_id : 0
# cnt : 59
# wr in wrap seqs: 30 , len : 1 , wr_addr : 1632 , aw_id : 10359 , w_id : 9255
# ARID IN WRAP SEQS : 7512
# cnt : 60
# rd in wrap seqs: 30 , len : 1 , rd_addr : 1632 , ar_id : 29970 , r_id : 0
# cnt : 61
# wr in wrap seqs: 31 , len : 3 , wr_addr : 1216 , aw_id : 857 , w_id : 4677
# ARID IN WRAP SEQS : 2c83
# cnt : 62
# rd in wrap seqs: 31 , len : 3 , rd_addr : 1216 , ar_id : 11395 , r_id : 0
# cnt : 63
# wr in wrap seqs: 32 , len : 1 , wr_addr : 16 , aw_id : 14014 , w_id : 31624
# ARID IN WRAP SEQS : a89e
# cnt : 64
# rd in wrap seqs: 32 , len : 1 , rd_addr : 16 , ar_id : 43166 , r_id : 0
# cnt : 65
# wr in wrap seqs: 33 , len : 1 , wr_addr : 560 , aw_id : 12583 , w_id : 7105
# ARID IN WRAP SEQS : 2bb3
# cnt : 66
# rd in wrap seqs: 33 , len : 1 , rd_addr : 560 , ar_id : 11187 , r_id : 0
# cnt : 67
# wr in wrap seqs: 34 , len : 7 , wr_addr : 1344 , aw_id : 21072 , w_id : 14158
# ARID IN WRAP SEQS : 143c
# cnt : 68
# rd in wrap seqs: 34 , len : 7 , rd_addr : 1344 , ar_id : 5180 , r_id : 0
# cnt : 69
# wr in wrap seqs: 35 , len : 7 , wr_addr : 192 , aw_id : 12011 , w_id : 43570
# ARID IN WRAP SEQS : 8117
# cnt : 70
# rd in wrap seqs: 35 , len : 7 , rd_addr : 192 , ar_id : 33047 , r_id : 0
# cnt : 71
# wr in wrap seqs: 36 , len : 3 , wr_addr : 1824 , aw_id : 11344 , w_id : 9153
# ARID IN WRAP SEQS : a38e
# cnt : 72
# rd in wrap seqs: 36 , len : 3 , rd_addr : 1824 , ar_id : 41870 , r_id : 0
# cnt : 73
# wr in wrap seqs: 37 , len : 3 , wr_addr : 352 , aw_id : 33036 , w_id : 54372
# ARID IN WRAP SEQS : 3760
# cnt : 74
# rd in wrap seqs: 37 , len : 3 , rd_addr : 352 , ar_id : 14176 , r_id : 0
# cnt : 75
# wr in wrap seqs: 38 , len : 1 , wr_addr : 944 , aw_id : 52090 , w_id : 52531
# ARID IN WRAP SEQS : 3c8b
# cnt : 76
# rd in wrap seqs: 38 , len : 1 , rd_addr : 944 , ar_id : 15499 , r_id : 0
# cnt : 77
# wr in wrap seqs: 39 , len : 3 , wr_addr : 704 , aw_id : 11006 , w_id : 63661
# ARID IN WRAP SEQS : 72c3
# cnt : 78
# rd in wrap seqs: 39 , len : 3 , rd_addr : 704 , ar_id : 29379 , r_id : 0
# cnt : 79
# wr in wrap seqs: 40 , len : 15 , wr_addr : 768 , aw_id : 37036 , w_id : 14177
# ARID IN WRAP SEQS : 2d30
# cnt : 80
# rd in wrap seqs: 40 , len : 15 , rd_addr : 768 , ar_id : 11568 , r_id : 0
# cnt : 81
# wr in wrap seqs: 41 , len : 1 , wr_addr : 176 , aw_id : 46798 , w_id : 48426
# ARID IN WRAP SEQS : 3f33
# cnt : 82
# rd in wrap seqs: 41 , len : 1 , rd_addr : 176 , ar_id : 16179 , r_id : 0
# cnt : 83
# wr in wrap seqs: 42 , len : 1 , wr_addr : 688 , aw_id : 27349 , w_id : 51892
# ARID IN WRAP SEQS : eabc
# cnt : 84
# rd in wrap seqs: 42 , len : 1 , rd_addr : 688 , ar_id : 60092 , r_id : 0
# cnt : 85
# wr in wrap seqs: 43 , len : 1 , wr_addr : 960 , aw_id : 51404 , w_id : 2187
# ARID IN WRAP SEQS : 8ddb
# cnt : 86
# rd in wrap seqs: 43 , len : 1 , rd_addr : 960 , ar_id : 36315 , r_id : 0
# cnt : 87
# wr in wrap seqs: 44 , len : 1 , wr_addr : 1776 , aw_id : 5078 , w_id : 33426
# ARID IN WRAP SEQS : 13df
# cnt : 88
# rd in wrap seqs: 44 , len : 1 , rd_addr : 1776 , ar_id : 5087 , r_id : 0
# cnt : 89
# wr in wrap seqs: 45 , len : 15 , wr_addr : 0 , aw_id : 27177 , w_id : 47664
# ARID IN WRAP SEQS : b974
# cnt : 90
# rd in wrap seqs: 45 , len : 15 , rd_addr : 0 , ar_id : 47476 , r_id : 0
# cnt : 91
# wr in wrap seqs: 46 , len : 1 , wr_addr : 1552 , aw_id : 43401 , w_id : 7274
# ARID IN WRAP SEQS : 8e98
# cnt : 92
# rd in wrap seqs: 46 , len : 1 , rd_addr : 1552 , ar_id : 36504 , r_id : 0
# cnt : 93
# wr in wrap seqs: 47 , len : 15 , wr_addr : 768 , aw_id : 39135 , w_id : 28027
# ARID IN WRAP SEQS : 58c3
# cnt : 94
# rd in wrap seqs: 47 , len : 15 , rd_addr : 768 , ar_id : 22723 , r_id : 0
# cnt : 95
# wr in wrap seqs: 48 , len : 1 , wr_addr : 1472 , aw_id : 19348 , w_id : 52051
# ARID IN WRAP SEQS : c521
# cnt : 96
# rd in wrap seqs: 48 , len : 1 , rd_addr : 1472 , ar_id : 50465 , r_id : 0
# cnt : 97
# wr in wrap seqs: 49 , len : 1 , wr_addr : 1168 , aw_id : 17688 , w_id : 12112
# ARID IN WRAP SEQS : 255b
# cnt : 98
# rd in wrap seqs: 49 , len : 1 , rd_addr : 1168 , ar_id : 9563 , r_id : 0
# cnt : 99
# wr in wrap seqs: 50 , len : 1 , wr_addr : 304 , aw_id : 20083 , w_id : 14135
# ARID IN WRAP SEQS : 31d2
# cnt : 100
# rd in wrap seqs: 50 , len : 1 , rd_addr : 304 , ar_id : 12754 , r_id : 0
# cnt : 101
# wr in wrap seqs: 51 , len : 3 , wr_addr : 32 , aw_id : 56144 , w_id : 61640
# ARID IN WRAP SEQS : 7d6c
# cnt : 102
# rd in wrap seqs: 51 , len : 3 , rd_addr : 32 , ar_id : 32108 , r_id : 0
# cnt : 103
# wr in wrap seqs: 52 , len : 1 , wr_addr : 912 , aw_id : 32125 , w_id : 62834
# ARID IN WRAP SEQS : 3273
# cnt : 104
# rd in wrap seqs: 52 , len : 1 , rd_addr : 912 , ar_id : 12915 , r_id : 0
# cnt : 105
# wr in wrap seqs: 53 , len : 1 , wr_addr : 1168 , aw_id : 64865 , w_id : 42692
# ARID IN WRAP SEQS : e434
# cnt : 106
# rd in wrap seqs: 53 , len : 1 , rd_addr : 1168 , ar_id : 58420 , r_id : 0
# cnt : 107
# wr in wrap seqs: 54 , len : 1 , wr_addr : 560 , aw_id : 25037 , w_id : 23966
# ARID IN WRAP SEQS : 559c
# cnt : 108
# rd in wrap seqs: 54 , len : 1 , rd_addr : 560 , ar_id : 21916 , r_id : 0
# cnt : 109
# wr in wrap seqs: 55 , len : 15 , wr_addr : 1920 , aw_id : 6015 , w_id : 53697
# ARID IN WRAP SEQS : 79a5
# cnt : 110
# rd in wrap seqs: 55 , len : 15 , rd_addr : 1920 , ar_id : 31141 , r_id : 0
# cnt : 111
# wr in wrap seqs: 56 , len : 15 , wr_addr : 1536 , aw_id : 1226 , w_id : 47422
# ARID IN WRAP SEQS : 8d0b
# cnt : 112
# rd in wrap seqs: 56 , len : 15 , rd_addr : 1536 , ar_id : 36107 , r_id : 0
# cnt : 113
# wr in wrap seqs: 57 , len : 15 , wr_addr : 512 , aw_id : 62581 , w_id : 40277
# ARID IN WRAP SEQS : fe5d
# cnt : 114
# rd in wrap seqs: 57 , len : 15 , rd_addr : 512 , ar_id : 65117 , r_id : 0
# cnt : 115
# wr in wrap seqs: 58 , len : 1 , wr_addr : 1296 , aw_id : 62177 , w_id : 59048
# ARID IN WRAP SEQS : 5343
# cnt : 116
# rd in wrap seqs: 58 , len : 1 , rd_addr : 1296 , ar_id : 21315 , r_id : 0
# cnt : 117
# wr in wrap seqs: 59 , len : 3 , wr_addr : 928 , aw_id : 44142 , w_id : 615
# ARID IN WRAP SEQS : e522
# cnt : 118
# rd in wrap seqs: 59 , len : 3 , rd_addr : 928 , ar_id : 58658 , r_id : 0
# cnt : 119
# wr in wrap seqs: 60 , len : 7 , wr_addr : 192 , aw_id : 817 , w_id : 60701
# ARID IN WRAP SEQS : d6f2
# cnt : 120
# rd in wrap seqs: 60 , len : 7 , rd_addr : 192 , ar_id : 55026 , r_id : 0
# cnt : 121
# wr in wrap seqs: 61 , len : 1 , wr_addr : 1424 , aw_id : 62993 , w_id : 22196
# ARID IN WRAP SEQS : 78d3
# cnt : 122
# rd in wrap seqs: 61 , len : 1 , rd_addr : 1424 , ar_id : 30931 , r_id : 0
# cnt : 123
# wr in wrap seqs: 62 , len : 1 , wr_addr : 48 , aw_id : 7436 , w_id : 24588
# ARID IN WRAP SEQS : 5551
# cnt : 124
# rd in wrap seqs: 62 , len : 1 , rd_addr : 48 , ar_id : 21841 , r_id : 0
# cnt : 125
# wr in wrap seqs: 63 , len : 1 , wr_addr : 304 , aw_id : 61979 , w_id : 51640
# ARID IN WRAP SEQS : 16a8
# cnt : 126
# rd in wrap seqs: 63 , len : 1 , rd_addr : 304 , ar_id : 5800 , r_id : 0
# cnt : 127
# wr in wrap seqs: 64 , len : 3 , wr_addr : 672 , aw_id : 33225 , w_id : 49029
# ARID IN WRAP SEQS : dc3a
# cnt : 128
# rd in wrap seqs: 64 , len : 3 , rd_addr : 672 , ar_id : 56378 , r_id : 0
# cnt : 129
# wr in wrap seqs: 65 , len : 7 , wr_addr : 896 , aw_id : 35486 , w_id : 5238
# ARID IN WRAP SEQS : a869
# cnt : 130
# rd in wrap seqs: 65 , len : 7 , rd_addr : 896 , ar_id : 43113 , r_id : 0
# cnt : 131
# wr in wrap seqs: 66 , len : 1 , wr_addr : 1280 , aw_id : 6032 , w_id : 56454
# ARID IN WRAP SEQS : 7bf9
# cnt : 132
# rd in wrap seqs: 66 , len : 1 , rd_addr : 1280 , ar_id : 31737 , r_id : 0
# cnt : 133
# wr in wrap seqs: 67 , len : 7 , wr_addr : 768 , aw_id : 64657 , w_id : 64334
# ARID IN WRAP SEQS : 865e
# cnt : 134
# rd in wrap seqs: 67 , len : 7 , rd_addr : 768 , ar_id : 34398 , r_id : 0
# cnt : 135
# wr in wrap seqs: 68 , len : 1 , wr_addr : 336 , aw_id : 4156 , w_id : 28892
# ARID IN WRAP SEQS : 509f
# cnt : 136
# rd in wrap seqs: 68 , len : 1 , rd_addr : 336 , ar_id : 20639 , r_id : 0
# cnt : 137
# wr in wrap seqs: 69 , len : 7 , wr_addr : 640 , aw_id : 18733 , w_id : 53522
# ARID IN WRAP SEQS : a87d
# cnt : 138
# rd in wrap seqs: 69 , len : 7 , rd_addr : 640 , ar_id : 43133 , r_id : 0
# cnt : 139
# wr in wrap seqs: 70 , len : 1 , wr_addr : 1760 , aw_id : 20354 , w_id : 48987
# ARID IN WRAP SEQS : d58a
# cnt : 140
# rd in wrap seqs: 70 , len : 1 , rd_addr : 1760 , ar_id : 54666 , r_id : 0
# cnt : 141
# wr in wrap seqs: 71 , len : 7 , wr_addr : 1792 , aw_id : 5762 , w_id : 51213
# ARID IN WRAP SEQS : 9b0
# cnt : 142
# rd in wrap seqs: 71 , len : 7 , rd_addr : 1792 , ar_id : 2480 , r_id : 0
# cnt : 143
# wr in wrap seqs: 72 , len : 1 , wr_addr : 320 , aw_id : 19223 , w_id : 12552
# ARID IN WRAP SEQS : e370
# cnt : 144
# rd in wrap seqs: 72 , len : 1 , rd_addr : 320 , ar_id : 58224 , r_id : 0
# cnt : 145
# wr in wrap seqs: 73 , len : 1 , wr_addr : 1328 , aw_id : 36001 , w_id : 11989
# ARID IN WRAP SEQS : 46b0
# cnt : 146
# rd in wrap seqs: 73 , len : 1 , rd_addr : 1328 , ar_id : 18096 , r_id : 0
# cnt : 147
# wr in wrap seqs: 74 , len : 15 , wr_addr : 896 , aw_id : 56571 , w_id : 38349
# ARID IN WRAP SEQS : 2a6d
# cnt : 148
# rd in wrap seqs: 74 , len : 15 , rd_addr : 896 , ar_id : 10861 , r_id : 0
# cnt : 149
# wr in wrap seqs: 75 , len : 7 , wr_addr : 192 , aw_id : 59088 , w_id : 4062
# ARID IN WRAP SEQS : 718c
# cnt : 150
# rd in wrap seqs: 75 , len : 7 , rd_addr : 192 , ar_id : 29068 , r_id : 0
# cnt : 151
# wr in wrap seqs: 76 , len : 15 , wr_addr : 640 , aw_id : 36977 , w_id : 4960
# ARID IN WRAP SEQS : b119
# cnt : 152
# rd in wrap seqs: 76 , len : 15 , rd_addr : 640 , ar_id : 45337 , r_id : 0
# cnt : 153
# wr in wrap seqs: 77 , len : 3 , wr_addr : 320 , aw_id : 9780 , w_id : 36608
# ARID IN WRAP SEQS : 5fa4
# cnt : 154
# rd in wrap seqs: 77 , len : 3 , rd_addr : 320 , ar_id : 24484 , r_id : 0
# cnt : 155
# wr in wrap seqs: 78 , len : 1 , wr_addr : 336 , aw_id : 19189 , w_id : 56564
# ARID IN WRAP SEQS : 6b2e
# cnt : 156
# rd in wrap seqs: 78 , len : 1 , rd_addr : 336 , ar_id : 27438 , r_id : 0
# cnt : 157
# wr in wrap seqs: 79 , len : 1 , wr_addr : 896 , aw_id : 49160 , w_id : 49251
# ARID IN WRAP SEQS : 235a
# cnt : 158
# rd in wrap seqs: 79 , len : 1 , rd_addr : 896 , ar_id : 9050 , r_id : 0
# cnt : 159
# wr in wrap seqs: 80 , len : 15 , wr_addr : 384 , aw_id : 55148 , w_id : 46854
# ARID IN WRAP SEQS : e94e
# cnt : 160
# rd in wrap seqs: 80 , len : 15 , rd_addr : 384 , ar_id : 59726 , r_id : 0
# cnt : 161
# wr in wrap seqs: 81 , len : 3 , wr_addr : 96 , aw_id : 12293 , w_id : 18389
# ARID IN WRAP SEQS : da8
# cnt : 162
# rd in wrap seqs: 81 , len : 3 , rd_addr : 96 , ar_id : 3496 , r_id : 0
# cnt : 163
# wr in wrap seqs: 82 , len : 1 , wr_addr : 368 , aw_id : 30700 , w_id : 309
# ARID IN WRAP SEQS : 5a23
# cnt : 164
# rd in wrap seqs: 82 , len : 1 , rd_addr : 368 , ar_id : 23075 , r_id : 0
# cnt : 165
# wr in wrap seqs: 83 , len : 7 , wr_addr : 960 , aw_id : 39432 , w_id : 6108
# ARID IN WRAP SEQS : d285
# cnt : 166
# rd in wrap seqs: 83 , len : 7 , rd_addr : 960 , ar_id : 53893 , r_id : 0
# cnt : 167
# wr in wrap seqs: 84 , len : 15 , wr_addr : 1664 , aw_id : 19234 , w_id : 53889
# ARID IN WRAP SEQS : df96
# cnt : 168
# rd in wrap seqs: 84 , len : 15 , rd_addr : 1664 , ar_id : 57238 , r_id : 0
# cnt : 169
# wr in wrap seqs: 85 , len : 3 , wr_addr : 1728 , aw_id : 30603 , w_id : 33484
# ARID IN WRAP SEQS : ef77
# cnt : 170
# rd in wrap seqs: 85 , len : 3 , rd_addr : 1728 , ar_id : 61303 , r_id : 0
# cnt : 171
# wr in wrap seqs: 86 , len : 1 , wr_addr : 848 , aw_id : 19330 , w_id : 31145
# ARID IN WRAP SEQS : 5d5c
# cnt : 172
# rd in wrap seqs: 86 , len : 1 , rd_addr : 848 , ar_id : 23900 , r_id : 0
# cnt : 173
# wr in wrap seqs: 87 , len : 3 , wr_addr : 416 , aw_id : 56635 , w_id : 56873
# ARID IN WRAP SEQS : ef73
# cnt : 174
# rd in wrap seqs: 87 , len : 3 , rd_addr : 416 , ar_id : 61299 , r_id : 0
# cnt : 175
# wr in wrap seqs: 88 , len : 1 , wr_addr : 864 , aw_id : 14986 , w_id : 40695
# ARID IN WRAP SEQS : 3360
# cnt : 176
# rd in wrap seqs: 88 , len : 1 , rd_addr : 864 , ar_id : 13152 , r_id : 0
# cnt : 177
# wr in wrap seqs: 89 , len : 1 , wr_addr : 1296 , aw_id : 41841 , w_id : 1499
# ARID IN WRAP SEQS : eb81
# cnt : 178
# rd in wrap seqs: 89 , len : 1 , rd_addr : 1296 , ar_id : 60289 , r_id : 0
# cnt : 179
# wr in wrap seqs: 90 , len : 1 , wr_addr : 1872 , aw_id : 45681 , w_id : 2987
# ARID IN WRAP SEQS : b411
# cnt : 180
# rd in wrap seqs: 90 , len : 1 , rd_addr : 1872 , ar_id : 46097 , r_id : 0
# cnt : 181
# wr in wrap seqs: 91 , len : 3 , wr_addr : 1312 , aw_id : 30206 , w_id : 46862
# ARID IN WRAP SEQS : 334c
# cnt : 182
# rd in wrap seqs: 91 , len : 3 , rd_addr : 1312 , ar_id : 13132 , r_id : 0
# cnt : 183
# wr in wrap seqs: 92 , len : 1 , wr_addr : 80 , aw_id : 2193 , w_id : 23980
# ARID IN WRAP SEQS : 667f
# cnt : 184
# rd in wrap seqs: 92 , len : 1 , rd_addr : 80 , ar_id : 26239 , r_id : 0
# cnt : 185
# wr in wrap seqs: 93 , len : 3 , wr_addr : 1952 , aw_id : 38182 , w_id : 49344
# ARID IN WRAP SEQS : c38e
# cnt : 186
# rd in wrap seqs: 93 , len : 3 , rd_addr : 1952 , ar_id : 50062 , r_id : 0
# cnt : 187
# wr in wrap seqs: 94 , len : 3 , wr_addr : 320 , aw_id : 30099 , w_id : 57948
# ARID IN WRAP SEQS : e12f
# cnt : 188
# rd in wrap seqs: 94 , len : 3 , rd_addr : 320 , ar_id : 57647 , r_id : 0
# cnt : 189
# wr in wrap seqs: 95 , len : 1 , wr_addr : 240 , aw_id : 36787 , w_id : 19117
# ARID IN WRAP SEQS : 5cb0
# cnt : 190
# rd in wrap seqs: 95 , len : 1 , rd_addr : 240 , ar_id : 23728 , r_id : 0
# cnt : 191
# wr in wrap seqs: 96 , len : 15 , wr_addr : 1152 , aw_id : 6394 , w_id : 35476
# ARID IN WRAP SEQS : 8340
# cnt : 192
# rd in wrap seqs: 96 , len : 15 , rd_addr : 1152 , ar_id : 33600 , r_id : 0
# cnt : 193
# wr in wrap seqs: 97 , len : 3 , wr_addr : 416 , aw_id : 20682 , w_id : 60080
# ARID IN WRAP SEQS : e6fb
# cnt : 194
# rd in wrap seqs: 97 , len : 3 , rd_addr : 416 , ar_id : 59131 , r_id : 0
# cnt : 195
# wr in wrap seqs: 98 , len : 3 , wr_addr : 1120 , aw_id : 32065 , w_id : 60159
# ARID IN WRAP SEQS : 2b17
# cnt : 196
# rd in wrap seqs: 98 , len : 3 , rd_addr : 1120 , ar_id : 11031 , r_id : 0
# cnt : 197
# wr in wrap seqs: 99 , len : 7 , wr_addr : 1920 , aw_id : 22463 , w_id : 58206
# ARID IN WRAP SEQS : b679
# cnt : 198
# rd in wrap seqs: 99 , len : 7 , rd_addr : 1920 , ar_id : 46713 , r_id : 0
# cnt : 199
# wr in wrap seqs: 100 , len : 1 , wr_addr : 448 , aw_id : 458 , w_id : 16671
# ARID IN WRAP SEQS : ac1b
# cnt : 200
# rd in wrap seqs: 100 , len : 1 , rd_addr : 448 , ar_id : 44059 , r_id : 0
# WID: 48469 , AWID : 48469
# awid in s mon : bd55 , awaddr : 560
#                   15wlast : 0
# WID: 48469 , AWID : 48469
# awid in s mon : bf1c , awaddr : 700
# INIDE_SLAVE_MON_CTR=1
# arid in s mon : 60203
#                   25wlast : 0
# WID: 48469 , AWID : 48469
# m mon ar id : eb2b
# INIDE_SLAVE_MON_CTR=2
# arid in s mon : 59707
# awid in s mon : 2b53 , awaddr : 380
#                   35wlast : 0
# WID: 48469 , AWID : 48469
# m mon ar id : e93b
# abc : 1
# abc : 2
# abc : 3
# abc : 4
# xyz : 1
# xyz : 2
# xyz : 3
# xyz : 4
# awid in s mon : a632 , awaddr : 6b0
# INIDE_SLAVE_MON_CTR=3
# arid in s mon : 59859
#                   45wlast : 1
# AFFTER W CHANNEL
# WID: 48924 , AWID : 48924
# m mon ar id : e9d3
# match arid : 0 , rid : 0
# UVM_INFO ../env/s_agent/axi_s_drv.sv(31) @ 45: uvm_test_top.env_h.s_uvc_h.s_agent_h[0].s_drv_h [ID MATCH] aaaaa
# s seqs arid : 60203
# INIDE_SLAVE_SEQ_CTR=1
# match arid : eb2b , rid : eb2b
# UVM_INFO ../env/s_agent/axi_s_drv.sv(31) @ 45: uvm_test_top.env_h.s_uvc_h.s_agent_h[0].s_drv_h [ID MATCH] aaaaa
# rd data in s drv: e179b080 , len : 3 , last:0 , valid : 1
# INIDE_SLAVE_MON_CTR=4
# arid in s mon : 10426
# awid in s mon : 8031 , awaddr : 640
#                   55wlast : 0
# WID: 48924 , AWID : 48924
# m mon ar id : 28ba
# m mon rid : eb2b
# rd data in s drv: 5ade4b3 , len : 3 , last:0 , valid : 1
# awid in s mon : fb10 , awaddr : 480
# INIDE_SLAVE_MON_CTR=5
# arid in s mon : 61524
#                   65wlast : 0
# WID: 48924 , AWID : 48924
# m mon rid : eb2b
# m mon ar id : f054
# UVM_INFO ../env/m_agent/axi_base_m_seqs.sv(26) @ 65: uvm_test_top.env_h.m_uvc_h.m_agent_h[0].m_seqr_h@@vseqs_h.m_wseqs_h [IN V SEQS] Got B-channel response from driver
# rd data in s drv: 55d992b7 , len : 3 , last:0 , valid : 1
# INIDE_SLAVE_MON_CTR=6
# arid in s mon : 26459
# awid in s mon : bbe1 , awaddr : 2d0
#                   75wlast : 0
# WID: 48924 , AWID : 48924
# m mon ar id : 675b
# m mon rid : eb2b
# rd data in s drv: edb2c52b , len : 3 , last:1 , valid : 1
# awid in s mon : bc15 , awaddr : 300
# INIDE_SLAVE_MON_CTR=7
# arid in s mon : 22357
#                   85wlast : 0
# WID: 48924 , AWID : 48924
# m mon rid : eb2b
# m mon ar id : 5755
# UVM_INFO ../env/axi_sb.sv(61) @ 85: uvm_test_top.env_h.sb_h [after event in sb] aaaa
# UVM_INFO ../env/axi_sb.sv(74) @ 85: uvm_test_top.env_h.sb_h [SB MATCH] ARID=60203 RID=60203 MATCH! RDATA=3782848640 95282355 1440322231 3987916075 (Passes: 1)
# UVM_INFO ../env/axi_sb.sv(59) @ 85: uvm_test_top.env_h.sb_h [before event in sb] aaaa
# INIDE_SLAVE_MON_CTR=8
# arid in s mon : 58966
# awid in s mon : 5bc8 , awaddr : 140
#                   95wlast : 0
# WID: 48924 , AWID : 48924
# m mon ar id : e656
# awid in s mon : d167 , awaddr : 680
# INIDE_SLAVE_MON_CTR=9
# arid in s mon : 64759
#                  105wlast : 0
# WID: 48924 , AWID : 48924
# m mon ar id : fcf7
# INIDE_SLAVE_MON_CTR=10
# arid in s mon : 43156
# awid in s mon : 43d7 , awaddr : 200
#                  115wlast : 0
# WID: 48924 , AWID : 48924
# m mon ar id : a894
# abc : 1
# abc : 2
# abc : 3
# abc : 4
# abc : 5
# abc : 6
# abc : 7
# abc : 8
# xyz : 1
# xyz : 2
# xyz : 3
# xyz : 4
# xyz : 5
# xyz : 6
# xyz : 7
# xyz : 8
# awid in s mon : 59e0 , awaddr : 520
# INIDE_SLAVE_MON_CTR=11
# arid in s mon : 52439
#                  125wlast : 1
# AFFTER W CHANNEL
# WID: 11091 , AWID : 11091
# m mon ar id : ccd7
# match arid : 0 , rid : 0
# UVM_INFO ../env/s_agent/axi_s_drv.sv(31) @ 125: uvm_test_top.env_h.s_uvc_h.s_agent_h[0].s_drv_h [ID MATCH] aaaaa
# s seqs arid : 59707
# INIDE_SLAVE_SEQ_CTR=2
# match arid : e93b , rid : e93b
# UVM_INFO ../env/s_agent/axi_s_drv.sv(31) @ 125: uvm_test_top.env_h.s_uvc_h.s_agent_h[0].s_drv_h [ID MATCH] aaaaa
# rd data in s drv: 766d2096 , len : 7 , last:0 , valid : 1
# INIDE_SLAVE_MON_CTR=12
# arid in s mon : 4905
# awid in s mon : 7d1f , awaddr : 200
#                  135wlast : 0
# WID: 11091 , AWID : 11091
# m mon ar id : 1329
# m mon rid : e93b
# rd data in s drv: c6d5f5ef , len : 7 , last:0 , valid : 1
# abc : 1
# abc : 2
# xyz : 1
# xyz : 2
# awid in s mon : 3181 , awaddr : 80
# INIDE_SLAVE_MON_CTR=13
# arid in s mon : 35577
#                  145wlast : 1
# AFFTER W CHANNEL
# WID: 42546 , AWID : 42546
# m mon rid : e93b
# m mon ar id : 8af9
# UVM_INFO ../env/m_agent/axi_base_m_seqs.sv(26) @ 145: uvm_test_top.env_h.m_uvc_h.m_agent_h[0].m_seqr_h@@vseqs_h.m_wseqs_h [IN V SEQS] Got B-channel response from driver
# match arid : 0 , rid : 0
# UVM_INFO ../env/s_agent/axi_s_drv.sv(31) @ 145: uvm_test_top.env_h.s_uvc_h.s_agent_h[0].s_drv_h [ID MATCH] aaaaa
# s seqs arid : 59859
# INIDE_SLAVE_SEQ_CTR=3
# match arid : e9d3 , rid : e9d3
# UVM_INFO ../env/s_agent/axi_s_drv.sv(31) @ 145: uvm_test_top.env_h.s_uvc_h.s_agent_h[0].s_drv_h [ID MATCH] aaaaa
# rd data in s drv: b8665e42 , len : 7 , last:0 , valid : 1
# INIDE_SLAVE_MON_CTR=14
# arid in s mon : 25219
# awid in s mon : 9de9 , awaddr : 390
#                  155wlast : 0
# WID: 42546 , AWID : 42546
# m mon ar id : 6283
# m mon rid : e93b
# rd data in s drv: eaba05fa , len : 7 , last:0 , valid : 1
# abc : 1
# abc : 2
# xyz : 1
# xyz : 2
# awid in s mon : 870b , awaddr : 500
# INIDE_SLAVE_MON_CTR=15
# arid in s mon : 47995
#                  165wlast : 1
# AFFTER W CHANNEL
# WID: 32817 , AWID : 32817
# m mon rid : e93b
# m mon ar id : bb7b
# UVM_INFO ../env/m_agent/axi_base_m_seqs.sv(26) @ 165: uvm_test_top.env_h.m_uvc_h.m_agent_h[0].m_seqr_h@@vseqs_h.m_wseqs_h [IN V SEQS] Got B-channel response from driver
# match arid : 0 , rid : 0
# UVM_INFO ../env/s_agent/axi_s_drv.sv(31) @ 165: uvm_test_top.env_h.s_uvc_h.s_agent_h[0].s_drv_h [ID MATCH] aaaaa
# s seqs arid : 10426
# INIDE_SLAVE_SEQ_CTR=4
# match arid : 28ba , rid : 28ba
# UVM_INFO ../env/s_agent/axi_s_drv.sv(31) @ 165: uvm_test_top.env_h.s_uvc_h.s_agent_h[0].s_drv_h [ID MATCH] aaaaa
# rd data in s drv: 74abeee2 , len : 7 , last:0 , valid : 1
# INIDE_SLAVE_MON_CTR=16
# arid in s mon : 51276
# awid in s mon : de5 , awaddr : 510
#                  175wlast : 0
# WID: 32817 , AWID : 32817
# m mon ar id : c84c
# m mon rid : e93b
# rd data in s drv: b4ecdf42 , len : 7 , last:0 , valid : 1
# awid in s mon : 3595 , awaddr : 3a0
# INIDE_SLAVE_MON_CTR=17
# arid in s mon : 44353
#                  185wlast : 0
# WID: 32817 , AWID : 32817
# m mon rid : e93b
# m mon ar id : ad41
# UVM_INFO ../env/m_agent/axi_base_m_seqs.sv(26) @ 185: uvm_test_top.env_h.m_uvc_h.m_agent_h[0].m_seqr_h@@vseqs_h.m_wseqs_h [IN V SEQS] Got B-channel response from driver
# rd data in s drv: 680aea50 , len : 7 , last:0 , valid : 1
# INIDE_SLAVE_MON_CTR=18
# arid in s mon : 34273
# awid in s mon : 2178 , awaddr : 270
#                  195wlast : 0
# WID: 32817 , AWID : 32817
# m mon ar id : 85e1
# m mon rid : e93b
# rd data in s drv: 41508d27 , len : 7 , last:1 , valid : 1
# awid in s mon : ad86 , awaddr : 1e0
# INIDE_SLAVE_MON_CTR=19
# arid in s mon : 40878
#                  205wlast : 0
# WID: 32817 , AWID : 32817
# m mon rid : e93b
# m mon ar id : 9fae
# UVM_INFO ../env/axi_sb.sv(61) @ 205: uvm_test_top.env_h.sb_h [after event in sb] aaaa
# UVM_INFO ../env/axi_sb.sv(74) @ 205: uvm_test_top.env_h.sb_h [SB MATCH] ARID=59707 RID=59707 MATCH! RDATA=1986863254 3335910895 3093716546 3938059770 1957424866 3035422530 1745545808 1095798055 (Passes: 2)
# UVM_INFO ../env/axi_sb.sv(59) @ 205: uvm_test_top.env_h.sb_h [before event in sb] aaaa
# rd data in s drv: 4542837f , len : 1 , last:0 , valid : 1
# INIDE_SLAVE_MON_CTR=20
# arid in s mon : 65033
# awid in s mon : fe69 , awaddr : 20
#                  215wlast : 0
# WID: 32817 , AWID : 32817
# m mon ar id : fe09
# m mon rid : e9d3
# rd data in s drv: 3b27ee47 , len : 1 , last:1 , valid : 1
# awid in s mon : 177c , awaddr : 60
# INIDE_SLAVE_MON_CTR=21
# arid in s mon : 39064
#                  225wlast : 0
# WID: 32817 , AWID : 32817
# m mon rid : e9d3
# m mon ar id : 9898
# UVM_INFO ../env/axi_sb.sv(61) @ 225: uvm_test_top.env_h.sb_h [after event in sb] aaaa
# UVM_INFO ../env/axi_sb.sv(74) @ 225: uvm_test_top.env_h.sb_h [SB MATCH] ARID=59859 RID=59859 MATCH! RDATA=1161986943 992472647 (Passes: 3)
# UVM_INFO ../env/axi_sb.sv(59) @ 225: uvm_test_top.env_h.sb_h [before event in sb] aaaa
# rd data in s drv: 7ef31ad8 , len : 1 , last:0 , valid : 1
# INIDE_SLAVE_MON_CTR=22
# arid in s mon : 62773
# awid in s mon : 661d , awaddr : 470
#                  235wlast : 0
# WID: 32817 , AWID : 32817
# m mon ar id : f535
# m mon rid : 28ba
# rd data in s drv: 400041b1 , len : 1 , last:1 , valid : 1
# abc : 1
# abc : 2
# abc : 3
# abc : 4
# abc : 5
# abc : 6
# abc : 7
# abc : 8
# xyz : 1
# xyz : 2
# xyz : 3
# xyz : 4
# xyz : 5
# xyz : 6
# xyz : 7
# xyz : 8
# awid in s mon : e79f , awaddr : 650
# INIDE_SLAVE_MON_CTR=23
# arid in s mon : 60350
#                  245wlast : 1
# AFFTER W CHANNEL
# WID: 64272 , AWID : 64272
# m mon rid : 28ba
# m mon ar id : ebbe
# UVM_INFO ../env/axi_sb.sv(61) @ 245: uvm_test_top.env_h.sb_h [after event in sb] aaaa
# UVM_INFO ../env/axi_sb.sv(74) @ 245: uvm_test_top.env_h.sb_h [SB MATCH] ARID=10426 RID=10426 MATCH! RDATA=2129861336 1073758641 (Passes: 4)
# UVM_INFO ../env/axi_sb.sv(59) @ 245: uvm_test_top.env_h.sb_h [before event in sb] aaaa
# match arid : 0 , rid : 0
# UVM_INFO ../env/s_agent/axi_s_drv.sv(31) @ 245: uvm_test_top.env_h.s_uvc_h.s_agent_h[0].s_drv_h [ID MATCH] aaaaa
# s seqs arid : 61524
# INIDE_SLAVE_SEQ_CTR=5
# match arid : f054 , rid : f054
# UVM_INFO ../env/s_agent/axi_s_drv.sv(31) @ 245: uvm_test_top.env_h.s_uvc_h.s_agent_h[0].s_drv_h [ID MATCH] aaaaa
# rd data in s drv: 90e411e0 , len : 7 , last:0 , valid : 1
# INIDE_SLAVE_MON_CTR=24
# arid in s mon : 45043
# xyz : 1
# xyz : 2
# awid in s mon : 5d92 , awaddr : 670
#                  255wlast : 0
# WID: 64272 , AWID : 64272
# m mon ar id : aff3
# m mon rid : f054
# s seqs arid : 45043
# INIDE_SLAVE_SEQ_CTR=6
# match arid : aff3 , rid : aff3
# UVM_INFO ../env/s_agent/axi_s_drv.sv(31) @ 255: uvm_test_top.env_h.s_uvc_h.s_agent_h[0].s_drv_h [ID MATCH] aaaaa
# rd data in s drv: 7c5cf680 , len : 7 , last:0 , valid : 1
# awid in s mon : 74b6 , awaddr : 7b0
# INIDE_SLAVE_MON_CTR=25
# arid in s mon : 15796
# xyz : 1
# xyz : 2
#                  265wlast : 0
# WID: 64272 , AWID : 64272
# m mon rid : f054
# m mon ar id : 3db4
# s seqs arid : 15796
# INIDE_SLAVE_SEQ_CTR=7
# UVM_INFO ../env/m_agent/axi_base_m_seqs.sv(26) @ 265: uvm_test_top.env_h.m_uvc_h.m_agent_h[0].m_seqr_h@@vseqs_h.m_wseqs_h [IN V SEQS] Got B-channel response from driver
# match arid : 3db4 , rid : 3db4
# UVM_INFO ../env/s_agent/axi_s_drv.sv(31) @ 265: uvm_test_top.env_h.s_uvc_h.s_agent_h[0].s_drv_h [ID MATCH] aaaaa
# rd data in s drv: cdcb11b4 , len : 7 , last:0 , valid : 1
# INIDE_SLAVE_MON_CTR=26
# arid in s mon : 64427
# awid in s mon : 2a80 , awaddr : 3d0
#                  275wlast : 0
# WID: 64272 , AWID : 64272
# m mon ar id : fbab
# m mon rid : f054
# rd data in s drv: e77068cf , len : 7 , last:0 , valid : 1
# awid in s mon : 1ffb , awaddr : 780
# INIDE_SLAVE_MON_CTR=27
# arid in s mon : 15132
#                  285wlast : 0
# WID: 64272 , AWID : 64272
# m mon rid : f054
# m mon ar id : 3b1c
# rd data in s drv: e748098f , len : 7 , last:0 , valid : 1
# INIDE_SLAVE_MON_CTR=28
# arid in s mon : 25003
# awid in s mon : 4336 , awaddr : 780
#                  295wlast : 0
# WID: 64272 , AWID : 64272
# m mon ar id : 61ab
# m mon rid : f054
# rd data in s drv: bda1c34e , len : 7 , last:0 , valid : 1
# awid in s mon : 2877 , awaddr : 660
# INIDE_SLAVE_MON_CTR=29
# arid in s mon : 51408
#                  305wlast : 0
# WID: 64272 , AWID : 64272
# m mon rid : f054
# m mon ar id : c8d0
# rd data in s drv: 21d79332 , len : 7 , last:0 , valid : 1
# INIDE_SLAVE_MON_CTR=30
# arid in s mon : 29970
# xyz : 1
# xyz : 2
# awid in s mon : 359 , awaddr : 4c0
#                  315wlast : 0
# WID: 64272 , AWID : 64272
# m mon ar id : 7512
# m mon rid : f054
# s seqs arid : 29970
# INIDE_SLAVE_SEQ_CTR=8
# match arid : 7512 , rid : 7512
# UVM_INFO ../env/s_agent/axi_s_drv.sv(31) @ 315: uvm_test_top.env_h.s_uvc_h.s_agent_h[0].s_drv_h [ID MATCH] aaaaa
# rd data in s drv: 5e2db49 , len : 7 , last:1 , valid : 1
# awid in s mon : 36be , awaddr : 10
# INIDE_SLAVE_MON_CTR=31
# arid in s mon : 11395
#                  325wlast : 0
# WID: 64272 , AWID : 64272
# m mon rid : f054
# m mon ar id : 2c83
# UVM_INFO ../env/axi_sb.sv(61) @ 325: uvm_test_top.env_h.sb_h [after event in sb] aaaa
# UVM_INFO ../env/axi_sb.sv(74) @ 325: uvm_test_top.env_h.sb_h [SB MATCH] ARID=61524 RID=61524 MATCH! RDATA=2430865888 2086467200 3452637620 3882903759 3880257935 3181495118 567776050 98753353 (Passes: 5)
# UVM_INFO ../env/axi_sb.sv(59) @ 325: uvm_test_top.env_h.sb_h [before event in sb] aaaa
# rd data in s drv: cdcb11b4 , len : 1 , last:0 , valid : 1
# INIDE_SLAVE_MON_CTR=32
# arid in s mon : 43166
# awid in s mon : 3127 , awaddr : 230
#                  335wlast : 0
# WID: 64272 , AWID : 64272
# m mon ar id : a89e
# m mon rid : aff3
# rd data in s drv: e77068cf , len : 1 , last:1 , valid : 1
# awid in s mon : 5250 , awaddr : 540
# INIDE_SLAVE_MON_CTR=33
# arid in s mon : 11187
#                  345wlast : 0
# WID: 64272 , AWID : 64272
# m mon rid : aff3
# m mon ar id : 2bb3
# UVM_INFO ../env/axi_sb.sv(61) @ 345: uvm_test_top.env_h.sb_h [after event in sb] aaaa
# UVM_INFO ../env/axi_sb.sv(74) @ 345: uvm_test_top.env_h.sb_h [SB MATCH] ARID=45043 RID=45043 MATCH! RDATA=3452637620 3882903759 (Passes: 6)
# UVM_INFO ../env/axi_sb.sv(59) @ 345: uvm_test_top.env_h.sb_h [before event in sb] aaaa
# rd data in s drv: 21d79332 , len : 1 , last:0 , valid : 1
# INIDE_SLAVE_MON_CTR=34
# arid in s mon : 5180
# awid in s mon : 2eeb , awaddr : c0
#                  355wlast : 0
# WID: 64272 , AWID : 64272
# m mon ar id : 143c
# m mon rid : 3db4
# rd data in s drv: 5e2db49 , len : 1 , last:1 , valid : 1
# awid in s mon : 2c50 , awaddr : 720
# INIDE_SLAVE_MON_CTR=35
# arid in s mon : 33047
#                  365wlast : 0
# WID: 64272 , AWID : 64272
# m mon rid : 3db4
# m mon ar id : 8117
# UVM_INFO ../env/axi_sb.sv(61) @ 365: uvm_test_top.env_h.sb_h [after event in sb] aaaa
# UVM_INFO ../env/axi_sb.sv(74) @ 365: uvm_test_top.env_h.sb_h [SB MATCH] ARID=15796 RID=15796 MATCH! RDATA=567776050 98753353 (Passes: 7)
# UVM_INFO ../env/axi_sb.sv(59) @ 365: uvm_test_top.env_h.sb_h [before event in sb] aaaa
# rd data in s drv: e748098f , len : 1 , last:0 , valid : 1
# INIDE_SLAVE_MON_CTR=36
# arid in s mon : 41870
# xyz : 1
# xyz : 2
# xyz : 3
# xyz : 4
# awid in s mon : 810c , awaddr : 160
#                  375wlast : 0
# WID: 64272 , AWID : 64272
# m mon ar id : a38e
# m mon rid : 7512
# s seqs arid : 41870
# INIDE_SLAVE_SEQ_CTR=9
# match arid : a38e , rid : a38e
# UVM_INFO ../env/s_agent/axi_s_drv.sv(31) @ 375: uvm_test_top.env_h.s_uvc_h.s_agent_h[0].s_drv_h [ID MATCH] aaaaa
# rd data in s drv: bda1c34e , len : 1 , last:1 , valid : 1
# awid in s mon : cb7a , awaddr : 3b0
# INIDE_SLAVE_MON_CTR=37
# arid in s mon : 14176
#                  385wlast : 0
# WID: 64272 , AWID : 64272
# m mon rid : 7512
# m mon ar id : 3760
# UVM_INFO ../env/axi_sb.sv(61) @ 385: uvm_test_top.env_h.sb_h [after event in sb] aaaa
# UVM_INFO ../env/axi_sb.sv(74) @ 385: uvm_test_top.env_h.sb_h [SB MATCH] ARID=29970 RID=29970 MATCH! RDATA=3880257935 3181495118 (Passes: 8)
# UVM_INFO ../env/axi_sb.sv(59) @ 385: uvm_test_top.env_h.sb_h [before event in sb] aaaa
# rd data in s drv: 74abeee2 , len : 3 , last:0 , valid : 1
# INIDE_SLAVE_MON_CTR=38
# arid in s mon : 15499
# awid in s mon : 2afe , awaddr : 2c0
#                  395wlast : 0
# WID: 64272 , AWID : 64272
# m mon ar id : 3c8b
# m mon rid : a38e
# rd data in s drv: b4ecdf42 , len : 3 , last:0 , valid : 1
# abc : 1
# abc : 2
# abc : 3
# abc : 4
# abc : 5
# abc : 6
# abc : 7
# abc : 8
# abc : 9
# abc : 10
# abc : 11
# abc : 12
# abc : 13
# abc : 14
# abc : 15
# abc : 16
# xyz : 1
# xyz : 2
# xyz : 3
# xyz : 4
# xyz : 5
# xyz : 6
# xyz : 7
# xyz : 8
# xyz : 9
# xyz : 10
# xyz : 11
# xyz : 12
# xyz : 13
# xyz : 14
# xyz : 15
# xyz : 16
# xyz : 17
# xyz : 18
# xyz : 19
# xyz : 20
# awid in s mon : 90ac , awaddr : 300
# INIDE_SLAVE_MON_CTR=39
# arid in s mon : 29379
#                  405wlast : 1
# AFFTER W CHANNEL
# WID: 48097 , AWID : 48097
# m mon rid : a38e
# m mon ar id : 72c3
# match arid : 0 , rid : 0
# UVM_INFO ../env/s_agent/axi_s_drv.sv(31) @ 405: uvm_test_top.env_h.s_uvc_h.s_agent_h[0].s_drv_h [ID MATCH] aaaaa
# s seqs arid : 26459
# INIDE_SLAVE_SEQ_CTR=10
# match arid : 675b , rid : 675b
# UVM_INFO ../env/s_agent/axi_s_drv.sv(31) @ 405: uvm_test_top.env_h.s_uvc_h.s_agent_h[0].s_drv_h [ID MATCH] aaaaa
# s seqs arid : 11395
# INIDE_SLAVE_SEQ_CTR=11
# match arid : 2c83 , rid : 2c83
# UVM_INFO ../env/s_agent/axi_s_drv.sv(31) @ 405: uvm_test_top.env_h.s_uvc_h.s_agent_h[0].s_drv_h [ID MATCH] aaaaa
# rd data in s drv: 680aea50 , len : 3 , last:0 , valid : 1
# INIDE_SLAVE_MON_CTR=40
# arid in s mon : 11568
# awid in s mon : b6ce , awaddr : b0
#                  415wlast : 0
# WID: 48097 , AWID : 48097
# m mon ar id : 2d30
# m mon rid : a38e
# rd data in s drv: 41508d27 , len : 3 , last:1 , valid : 1
# abc : 1
# abc : 2
# xyz : 1
# xyz : 2
# awid in s mon : 6ad5 , awaddr : 2b0
# INIDE_SLAVE_MON_CTR=41
# arid in s mon : 16179
#                  425wlast : 1
# AFFTER W CHANNEL
# WID: 48149 , AWID : 48149
# m mon rid : a38e
# m mon ar id : 3f33
# UVM_INFO ../env/m_agent/axi_base_m_seqs.sv(26) @ 425: uvm_test_top.env_h.m_uvc_h.m_agent_h[0].m_seqr_h@@vseqs_h.m_wseqs_h [IN V SEQS] Got B-channel response from driver
# UVM_INFO ../env/axi_sb.sv(61) @ 425: uvm_test_top.env_h.sb_h [after event in sb] aaaa
# UVM_INFO ../env/axi_sb.sv(74) @ 425: uvm_test_top.env_h.sb_h [SB MATCH] ARID=41870 RID=41870 MATCH! RDATA=1957424866 3035422530 1745545808 1095798055 (Passes: 9)
# UVM_INFO ../env/axi_sb.sv(59) @ 425: uvm_test_top.env_h.sb_h [before event in sb] aaaa
# match arid : 0 , rid : 0
# UVM_INFO ../env/s_agent/axi_s_drv.sv(31) @ 425: uvm_test_top.env_h.s_uvc_h.s_agent_h[0].s_drv_h [ID MATCH] aaaaa
# s seqs arid : 22357
# INIDE_SLAVE_SEQ_CTR=12
# match arid : 5755 , rid : 5755
# UVM_INFO ../env/s_agent/axi_s_drv.sv(31) @ 425: uvm_test_top.env_h.s_uvc_h.s_agent_h[0].s_drv_h [ID MATCH] aaaaa
# rd data in s drv: e692a955 , len : 15 , last:0 , valid : 1
# INIDE_SLAVE_MON_CTR=42
# arid in s mon : 60092
# awid in s mon : c8cc , awaddr : 3c0
#                  435wlast : 0
# WID: 48149 , AWID : 48149
# m mon ar id : eabc
# m mon rid : 675b
# rd data in s drv: 5e5d6ae8 , len : 15 , last:0 , valid : 1
# awid in s mon : 13d6 , awaddr : 6f0
# INIDE_SLAVE_MON_CTR=43
# arid in s mon : 36315
#                  445wlast : 0
# WID: 48149 , AWID : 48149
# m mon rid : 675b
# m mon ar id : 8ddb
# UVM_INFO ../env/m_agent/axi_base_m_seqs.sv(26) @ 445: uvm_test_top.env_h.m_uvc_h.m_agent_h[0].m_seqr_h@@vseqs_h.m_wseqs_h [IN V SEQS] Got B-channel response from driver
# rd data in s drv: 2e5cdf84 , len : 15 , last:0 , valid : 1
# INIDE_SLAVE_MON_CTR=44
# arid in s mon : 5087
# awid in s mon : 6a29 , awaddr : 0
#                  455wlast : 0
# WID: 48149 , AWID : 48149
# m mon ar id : 13df
# m mon rid : 675b
# rd data in s drv: 85dca7b4 , len : 15 , last:0 , valid : 1
# awid in s mon : a989 , awaddr : 610
# INIDE_SLAVE_MON_CTR=45
# arid in s mon : 47476
#                  465wlast : 0
# WID: 48149 , AWID : 48149
# m mon rid : 675b
# m mon ar id : b974
# rd data in s drv: a29faa36 , len : 15 , last:0 , valid : 1
# INIDE_SLAVE_MON_CTR=46
# arid in s mon : 36504
# awid in s mon : 98df , awaddr : 300
#                  475wlast : 0
# WID: 48149 , AWID : 48149
# m mon ar id : 8e98
# m mon rid : 675b
# rd data in s drv: d6eb0a92 , len : 15 , last:0 , valid : 1
# awid in s mon : 4b94 , awaddr : 5c0
# INIDE_SLAVE_MON_CTR=47
# arid in s mon : 22723
#                  485wlast : 0
# WID: 48149 , AWID : 48149
# m mon rid : 675b
# m mon ar id : 58c3
# rd data in s drv: e73ddebe , len : 15 , last:0 , valid : 1
# INIDE_SLAVE_MON_CTR=48
# arid in s mon : 50465
# awid in s mon : 4518 , awaddr : 490
#                  495wlast : 0
# WID: 48149 , AWID : 48149
# m mon ar id : c521
# m mon rid : 675b
# rd data in s drv: de58f65a , len : 15 , last:0 , valid : 1
# awid in s mon : 4e73 , awaddr : 130
# INIDE_SLAVE_MON_CTR=49
# arid in s mon : 9563
# xyz : 1
# xyz : 2
#                  505wlast : 0
# WID: 48149 , AWID : 48149
# m mon rid : 675b
# m mon ar id : 255b
# s seqs arid : 9563
# INIDE_SLAVE_SEQ_CTR=13
# match arid : 255b , rid : 255b
# UVM_INFO ../env/s_agent/axi_s_drv.sv(31) @ 505: uvm_test_top.env_h.s_uvc_h.s_agent_h[0].s_drv_h [ID MATCH] aaaaa
# rd data in s drv: c4621ac7 , len : 15 , last:0 , valid : 1
# INIDE_SLAVE_MON_CTR=50
# arid in s mon : 12754
# awid in s mon : db50 , awaddr : 20
#                  515wlast : 0
# WID: 48149 , AWID : 48149
# m mon ar id : 31d2
# m mon rid : 675b
# rd data in s drv: 39ddeae8 , len : 15 , last:0 , valid : 1
# awid in s mon : 7d7d , awaddr : 390
# INIDE_SLAVE_MON_CTR=51
# arid in s mon : 32108
#                  525wlast : 0
# WID: 48149 , AWID : 48149
# m mon rid : 675b
# m mon ar id : 7d6c
# rd data in s drv: 9dd4f93e , len : 15 , last:0 , valid : 1
# INIDE_SLAVE_MON_CTR=52
# arid in s mon : 12915
# awid in s mon : fd61 , awaddr : 490
#                  535wlast : 0
# WID: 48149 , AWID : 48149
# m mon ar id : 3273
# m mon rid : 675b
# rd data in s drv: a19d830f , len : 15 , last:0 , valid : 1
# awid in s mon : 61cd , awaddr : 230
# INIDE_SLAVE_MON_CTR=53
# arid in s mon : 58420
# xyz : 1
# xyz : 2
#                  545wlast : 0
# WID: 48149 , AWID : 48149
# m mon rid : 675b
# m mon ar id : e434
# s seqs arid : 58420
# INIDE_SLAVE_SEQ_CTR=14
# match arid : e434 , rid : e434
# UVM_INFO ../env/s_agent/axi_s_drv.sv(31) @ 545: uvm_test_top.env_h.s_uvc_h.s_agent_h[0].s_drv_h [ID MATCH] aaaaa
# rd data in s drv: 8714b927 , len : 15 , last:0 , valid : 1
# INIDE_SLAVE_MON_CTR=54
# arid in s mon : 21916
# awid in s mon : 177f , awaddr : 780
#                  555wlast : 0
# WID: 48149 , AWID : 48149
# m mon ar id : 559c
# m mon rid : 675b
# rd data in s drv: 4e6f6152 , len : 15 , last:0 , valid : 1
# awid in s mon : 4ca , awaddr : 600
# INIDE_SLAVE_MON_CTR=55
# arid in s mon : 31141
#                  565wlast : 0
# WID: 48149 , AWID : 48149
# m mon rid : 675b
# m mon ar id : 79a5
# rd data in s drv: 83b164bb , len : 15 , last:0 , valid : 1
# INIDE_SLAVE_MON_CTR=56
# arid in s mon : 36107
# awid in s mon : f475 , awaddr : 200
#                  575wlast : 0
# WID: 48149 , AWID : 48149
# m mon ar id : 8d0b
# m mon rid : 675b
# rd data in s drv: b2e22138 , len : 15 , last:1 , valid : 1
# abc : 1
# abc : 2
# abc : 3
# abc : 4
# abc : 5
# abc : 6
# abc : 7
# abc : 8
# abc : 9
# abc : 10
# abc : 11
# abc : 12
# abc : 13
# abc : 14
# abc : 15
# abc : 16
# xyz : 1
# xyz : 2
# xyz : 3
# xyz : 4
# xyz : 5
# xyz : 6
# xyz : 7
# xyz : 8
# xyz : 9
# xyz : 10
# xyz : 11
# xyz : 12
# xyz : 13
# xyz : 14
# xyz : 15
# xyz : 16
# xyz : 17
# xyz : 18
# xyz : 19
# xyz : 20
# xyz : 21
# xyz : 22
# xyz : 23
# xyz : 24
# xyz : 25
# xyz : 26
# xyz : 27
# xyz : 28
# xyz : 29
# xyz : 30
# xyz : 31
# xyz : 32
# xyz : 33
# xyz : 34
# xyz : 35
# xyz : 36
# xyz : 37
# xyz : 38
# xyz : 39
# xyz : 40
# xyz : 41
# xyz : 42
# xyz : 43
# xyz : 44
# xyz : 45
# xyz : 46
# xyz : 47
# xyz : 48
# awid in s mon : f2e1 , awaddr : 510
# INIDE_SLAVE_MON_CTR=57
# arid in s mon : 65117
#                  585wlast : 1
# AFFTER W CHANNEL
# WID: 23496 , AWID : 23496
# m mon rid : 675b
# m mon ar id : fe5d
# UVM_INFO ../env/axi_sb.sv(61) @ 585: uvm_test_top.env_h.sb_h [after event in sb] aaaa
# UVM_INFO ../env/axi_sb.sv(74) @ 585: uvm_test_top.env_h.sb_h [SB MATCH] ARID=26459 RID=26459 MATCH! RDATA=3868371285 1583180520 777838468 2245830580 2728372790 3605727890 3879591614 3730372186 3294763719 970844904 2647980350 2711454479 2266282279 1315922258 2209440955 3001164088 (Passes: 10)
# UVM_INFO ../env/axi_sb.sv(59) @ 585: uvm_test_top.env_h.sb_h [before event in sb] aaaa
# match arid : 0 , rid : 0
# UVM_INFO ../env/s_agent/axi_s_drv.sv(31) @ 585: uvm_test_top.env_h.s_uvc_h.s_agent_h[0].s_drv_h [ID MATCH] aaaaa
# s seqs arid : 58966
# INIDE_SLAVE_SEQ_CTR=15
# match arid : e656 , rid : e656
# UVM_INFO ../env/s_agent/axi_s_drv.sv(31) @ 585: uvm_test_top.env_h.s_uvc_h.s_agent_h[0].s_drv_h [ID MATCH] aaaaa
# s seqs arid : 11568
# INIDE_SLAVE_SEQ_CTR=16
# match arid : 2d30 , rid : 2d30
# UVM_INFO ../env/s_agent/axi_s_drv.sv(31) @ 585: uvm_test_top.env_h.s_uvc_h.s_agent_h[0].s_drv_h [ID MATCH] aaaaa
# s seqs arid : 22723
# INIDE_SLAVE_SEQ_CTR=17
# match arid : 58c3 , rid : 58c3
# UVM_INFO ../env/s_agent/axi_s_drv.sv(31) @ 585: uvm_test_top.env_h.s_uvc_h.s_agent_h[0].s_drv_h [ID MATCH] aaaaa
# rd data in s drv: c4621ac7 , len : 3 , last:0 , valid : 1
# INIDE_SLAVE_MON_CTR=58
# arid in s mon : 21315
# awid in s mon : ac6e , awaddr : 3a0
#                  595wlast : 0
# WID: 23496 , AWID : 23496
# m mon ar id : 5343
# m mon rid : 2c83
# rd data in s drv: 39ddeae8 , len : 3 , last:0 , valid : 1
# awid in s mon : 331 , awaddr : c0
# INIDE_SLAVE_MON_CTR=59
# arid in s mon : 58658
#                  605wlast : 0
# WID: 23496 , AWID : 23496
# m mon rid : 2c83
# m mon ar id : e522
# UVM_INFO ../env/m_agent/axi_base_m_seqs.sv(26) @ 605: uvm_test_top.env_h.m_uvc_h.m_agent_h[0].m_seqr_h@@vseqs_h.m_wseqs_h [IN V SEQS] Got B-channel response from driver
# rd data in s drv: 9dd4f93e , len : 3 , last:0 , valid : 1
# INIDE_SLAVE_MON_CTR=60
# arid in s mon : 55026
# awid in s mon : f611 , awaddr : 590
#                  615wlast : 0
# WID: 23496 , AWID : 23496
# m mon ar id : d6f2
# m mon rid : 2c83
# rd data in s drv: a19d830f , len : 3 , last:1 , valid : 1
# abc : 1
# abc : 2
# abc : 3
# abc : 4
# xyz : 1
# xyz : 2
# xyz : 3
# xyz : 4
# awid in s mon : 1d0c , awaddr : 30
# INIDE_SLAVE_MON_CTR=61
# arid in s mon : 30931
#                  625wlast : 1
# AFFTER W CHANNEL
# WID: 53607 , AWID : 53607
# m mon rid : 2c83
# m mon ar id : 78d3
# UVM_INFO ../env/axi_sb.sv(61) @ 625: uvm_test_top.env_h.sb_h [after event in sb] aaaa
# UVM_INFO ../env/axi_sb.sv(74) @ 625: uvm_test_top.env_h.sb_h [SB MATCH] ARID=11395 RID=11395 MATCH! RDATA=3294763719 970844904 2647980350 2711454479 (Passes: 11)
# UVM_INFO ../env/axi_sb.sv(59) @ 625: uvm_test_top.env_h.sb_h [before event in sb] aaaa
# match arid : 0 , rid : 0
# UVM_INFO ../env/s_agent/axi_s_drv.sv(31) @ 625: uvm_test_top.env_h.s_uvc_h.s_agent_h[0].s_drv_h [ID MATCH] aaaaa
# s seqs arid : 64759
# INIDE_SLAVE_SEQ_CTR=18
# match arid : fcf7 , rid : fcf7
# UVM_INFO ../env/s_agent/axi_s_drv.sv(31) @ 625: uvm_test_top.env_h.s_uvc_h.s_agent_h[0].s_drv_h [ID MATCH] aaaaa
# rd data in s drv: 2b2d318 , len : 1 , last:0 , valid : 1
# INIDE_SLAVE_MON_CTR=62
# arid in s mon : 21841
# awid in s mon : f21b , awaddr : 130
#                  635wlast : 0
# WID: 53607 , AWID : 53607
# m mon ar id : 5551
# m mon rid : 5755
# rd data in s drv: 372f0987 , len : 1 , last:1 , valid : 1
# awid in s mon : 81c9 , awaddr : 2a0
# INIDE_SLAVE_MON_CTR=63
# arid in s mon : 5800
#                  645wlast : 0
# WID: 53607 , AWID : 53607
# m mon rid : 5755
# m mon ar id : 16a8
# UVM_INFO ../env/m_agent/axi_base_m_seqs.sv(26) @ 645: uvm_test_top.env_h.m_uvc_h.m_agent_h[0].m_seqr_h@@vseqs_h.m_wseqs_h [IN V SEQS] Got B-channel response from driver
# UVM_INFO ../env/axi_sb.sv(61) @ 645: uvm_test_top.env_h.sb_h [after event in sb] aaaa
# UVM_INFO ../env/axi_sb.sv(74) @ 645: uvm_test_top.env_h.sb_h [SB MATCH] ARID=22357 RID=22357 MATCH! RDATA=45273880 925829511 (Passes: 12)
# UVM_INFO ../env/axi_sb.sv(59) @ 645: uvm_test_top.env_h.sb_h [before event in sb] aaaa
# rd data in s drv: 2e5cdf84 , len : 1 , last:0 , valid : 1
# INIDE_SLAVE_MON_CTR=64
# arid in s mon : 56378
# awid in s mon : 8a9e , awaddr : 380
#                  655wlast : 0
# WID: 53607 , AWID : 53607
# m mon ar id : dc3a
# m mon rid : 255b
# rd data in s drv: 85dca7b4 , len : 1 , last:1 , valid : 1
# awid in s mon : 1790 , awaddr : 500
# INIDE_SLAVE_MON_CTR=65
# arid in s mon : 43113
# xyz : 1
# xyz : 2
# ** Warning: (vsim-3829) Non-existent associative array entry. Returning default value.
#    Time: 665 ns  Iteration: 2  Process: /axi_s_agent_pkg::axi_s_mon #(32, 32)::monitor/#FORK#35_7fefec44d44 File: ../env/axi_ref_model.sv Line: 89
# xyz : 3
# ** Warning: (vsim-3829) Non-existent associative array entry. Returning default value.
#    Time: 665 ns  Iteration: 2  Process: /axi_s_agent_pkg::axi_s_mon #(32, 32)::monitor/#FORK#35_7fefec44d44 File: ../env/axi_ref_model.sv Line: 89
# xyz : 4
# ** Warning: (vsim-3829) Non-existent associative array entry. Returning default value.
#    Time: 665 ns  Iteration: 2  Process: /axi_s_agent_pkg::axi_s_mon #(32, 32)::monitor/#FORK#35_7fefec44d44 File: ../env/axi_ref_model.sv Line: 89
# xyz : 5
# ** Warning: (vsim-3829) Non-existent associative array entry. Returning default value.
#    Time: 665 ns  Iteration: 2  Process: /axi_s_agent_pkg::axi_s_mon #(32, 32)::monitor/#FORK#35_7fefec44d44 File: ../env/axi_ref_model.sv Line: 89
# xyz : 6
# ** Warning: (vsim-3829) Non-existent associative array entry. Returning default value.
#    Time: 665 ns  Iteration: 2  Process: /axi_s_agent_pkg::axi_s_mon #(32, 32)::monitor/#FORK#35_7fefec44d44 File: ../env/axi_ref_model.sv Line: 89
# xyz : 7
# ** Warning: (vsim-3829) Non-existent associative array entry. Returning default value.
#    Time: 665 ns  Iteration: 2  Process: /axi_s_agent_pkg::axi_s_mon #(32, 32)::monitor/#FORK#35_7fefec44d44 File: ../env/axi_ref_model.sv Line: 89
# xyz : 8
#                  665wlast : 0
# WID: 53607 , AWID : 53607
# m mon rid : 255b
# m mon ar id : a869
# ** Warning: (vsim-3829) Non-existent associative array entry. Returning default value.
#    Time: 665 ns  Iteration: 3  Process: /uvm_pkg::uvm_sequence_base::start/#FORK#294_7fefec44a75 File: ../env/s_agent/axi_base_s_seqs.sv Line: 117
# ** Warning: (vsim-3829) Non-existent associative array entry. Returning default value.
#    Time: 665 ns  Iteration: 3  Process: /uvm_pkg::uvm_sequence_base::start/#FORK#294_7fefec44a75 File: ../env/s_agent/axi_base_s_seqs.sv Line: 117
# ** Warning: (vsim-3829) Non-existent associative array entry. Returning default value.
#    Time: 665 ns  Iteration: 3  Process: /uvm_pkg::uvm_sequence_base::start/#FORK#294_7fefec44a75 File: ../env/s_agent/axi_base_s_seqs.sv Line: 117
# ** Warning: (vsim-3829) Non-existent associative array entry. Returning default value.
#    Time: 665 ns  Iteration: 3  Process: /uvm_pkg::uvm_sequence_base::start/#FORK#294_7fefec44a75 File: ../env/s_agent/axi_base_s_seqs.sv Line: 117
# ** Warning: (vsim-3829) Non-existent associative array entry. Returning default value.
#    Time: 665 ns  Iteration: 3  Process: /uvm_pkg::uvm_sequence_base::start/#FORK#294_7fefec44a75 File: ../env/s_agent/axi_base_s_seqs.sv Line: 117
# ** Warning: (vsim-3829) Non-existent associative array entry. Returning default value.
#    Time: 665 ns  Iteration: 3  Process: /uvm_pkg::uvm_sequence_base::start/#FORK#294_7fefec44a75 File: ../env/s_agent/axi_base_s_seqs.sv Line: 117
# s seqs arid : 43113
# INIDE_SLAVE_SEQ_CTR=19
# UVM_INFO ../env/axi_sb.sv(61) @ 665: uvm_test_top.env_h.sb_h [after event in sb] aaaa
# UVM_INFO ../env/axi_sb.sv(74) @ 665: uvm_test_top.env_h.sb_h [SB MATCH] ARID=9563 RID=9563 MATCH! RDATA=777838468 2245830580 (Passes: 13)
# UVM_INFO ../env/axi_sb.sv(59) @ 665: uvm_test_top.env_h.sb_h [before event in sb] aaaa
# match arid : a869 , rid : a869
# UVM_INFO ../env/s_agent/axi_s_drv.sv(31) @ 665: uvm_test_top.env_h.s_uvc_h.s_agent_h[0].s_drv_h [ID MATCH] aaaaa
# rd data in s drv: 2e5cdf84 , len : 1 , last:0 , valid : 1
# INIDE_SLAVE_MON_CTR=66
# arid in s mon : 31737
# awid in s mon : fc91 , awaddr : 300
#                  675wlast : 0
# WID: 53607 , AWID : 53607
# m mon ar id : 7bf9
# m mon rid : e434
# rd data in s drv: 85dca7b4 , len : 1 , last:1 , valid : 1
# awid in s mon : 103c , awaddr : 150
# INIDE_SLAVE_MON_CTR=67
# arid in s mon : 34398
# xyz : 1
# xyz : 2
# xyz : 3
# xyz : 4
# xyz : 5
# xyz : 6
# xyz : 7
# xyz : 8
#                  685wlast : 0
# WID: 53607 , AWID : 53607
# m mon rid : e434
# m mon ar id : 865e
# s seqs arid : 34398
# INIDE_SLAVE_SEQ_CTR=20
# UVM_INFO ../env/axi_sb.sv(61) @ 685: uvm_test_top.env_h.sb_h [after event in sb] aaaa
# UVM_INFO ../env/axi_sb.sv(74) @ 685: uvm_test_top.env_h.sb_h [SB MATCH] ARID=58420 RID=58420 MATCH! RDATA=777838468 2245830580 (Passes: 14)
# UVM_INFO ../env/axi_sb.sv(59) @ 685: uvm_test_top.env_h.sb_h [before event in sb] aaaa
# match arid : 865e , rid : 865e
# UVM_INFO ../env/s_agent/axi_s_drv.sv(31) @ 685: uvm_test_top.env_h.s_uvc_h.s_agent_h[0].s_drv_h [ID MATCH] aaaaa
# rd data in s drv: d7aab9f7 , len : 15 , last:0 , valid : 1
# INIDE_SLAVE_MON_CTR=68
# arid in s mon : 20639
# xyz : 1
# xyz : 2
# awid in s mon : 492d , awaddr : 280
#                  695wlast : 0
# WID: 53607 , AWID : 53607
# m mon ar id : 509f
# m mon rid : e656
# s seqs arid : 20639
# INIDE_SLAVE_SEQ_CTR=21
# match arid : 509f , rid : 509f
# UVM_INFO ../env/s_agent/axi_s_drv.sv(31) @ 695: uvm_test_top.env_h.s_uvc_h.s_agent_h[0].s_drv_h [ID MATCH] aaaaa
# rd data in s drv: baee7d8 , len : 15 , last:0 , valid : 1
# abc : 1
# abc : 2
# abc : 3
# abc : 4
# abc : 5
# abc : 6
# abc : 7
# abc : 8
# xyz : 1
# xyz : 2
# xyz : 3
# xyz : 4
# xyz : 5
# xyz : 6
# xyz : 7
# xyz : 8
# awid in s mon : 4f82 , awaddr : 6e0
# INIDE_SLAVE_MON_CTR=69
# arid in s mon : 43133
#                  705wlast : 1
# AFFTER W CHANNEL
# WID: 17367 , AWID : 17367
# m mon rid : e656
# m mon ar id : a87d
# match arid : 0 , rid : 0
# UVM_INFO ../env/s_agent/axi_s_drv.sv(31) @ 705: uvm_test_top.env_h.s_uvc_h.s_agent_h[0].s_drv_h [ID MATCH] aaaaa
# s seqs arid : 43156
# INIDE_SLAVE_SEQ_CTR=22
# match arid : a894 , rid : a894
# UVM_INFO ../env/s_agent/axi_s_drv.sv(31) @ 705: uvm_test_top.env_h.s_uvc_h.s_agent_h[0].s_drv_h [ID MATCH] aaaaa
# rd data in s drv: e174315a , len : 15 , last:0 , valid : 1
# INIDE_SLAVE_MON_CTR=70
# arid in s mon : 54666
# awid in s mon : 1682 , awaddr : 700
#                  715wlast : 0
# WID: 17367 , AWID : 17367
# m mon ar id : d58a
# m mon rid : e656
# rd data in s drv: 502c68b6 , len : 15 , last:0 , valid : 1
# awid in s mon : 4b17 , awaddr : 140
# INIDE_SLAVE_MON_CTR=71
# arid in s mon : 2480
# xyz : 1
# xyz : 2
# xyz : 3
# xyz : 4
# xyz : 5
# xyz : 6
# xyz : 7
# xyz : 8
#                  725wlast : 0
# WID: 17367 , AWID : 17367
# m mon rid : e656
# m mon ar id : 9b0
# s seqs arid : 2480
# INIDE_SLAVE_SEQ_CTR=23
# UVM_INFO ../env/m_agent/axi_base_m_seqs.sv(26) @ 725: uvm_test_top.env_h.m_uvc_h.m_agent_h[0].m_seqr_h@@vseqs_h.m_wseqs_h [IN V SEQS] Got B-channel response from driver
# match arid : 9b0 , rid : 9b0
# UVM_INFO ../env/s_agent/axi_s_drv.sv(31) @ 725: uvm_test_top.env_h.s_uvc_h.s_agent_h[0].s_drv_h [ID MATCH] aaaaa
# rd data in s drv: ed58a3a5 , len : 15 , last:0 , valid : 1
# INIDE_SLAVE_MON_CTR=72
# arid in s mon : 58224
# xyz : 1
# xyz : 2
# awid in s mon : 8ca1 , awaddr : 530
#                  735wlast : 0
# WID: 17367 , AWID : 17367
# m mon ar id : e370
# m mon rid : e656
# s seqs arid : 58224
# INIDE_SLAVE_SEQ_CTR=24
# match arid : e370 , rid : e370
# UVM_INFO ../env/s_agent/axi_s_drv.sv(31) @ 735: uvm_test_top.env_h.s_uvc_h.s_agent_h[0].s_drv_h [ID MATCH] aaaaa
# rd data in s drv: 7e7bdfcc , len : 15 , last:0 , valid : 1
# awid in s mon : dcfb , awaddr : 380
# INIDE_SLAVE_MON_CTR=73
# arid in s mon : 18096
#                  745wlast : 0
# WID: 17367 , AWID : 17367
# m mon rid : e656
# m mon ar id : 46b0
# rd data in s drv: 2e9bb6b1 , len : 15 , last:0 , valid : 1
# INIDE_SLAVE_MON_CTR=74
# arid in s mon : 10861
# xyz : 1
# xyz : 2
# ** Warning: (vsim-3829) Non-existent associative array entry. Returning default value.
#    Time: 755 ns  Iteration: 2  Process: /axi_s_agent_pkg::axi_s_mon #(32, 32)::monitor/#FORK#35_7fefec44d44 File: ../env/axi_ref_model.sv Line: 89
# xyz : 3
# ** Warning: (vsim-3829) Non-existent associative array entry. Returning default value.
#    Time: 755 ns  Iteration: 2  Process: /axi_s_agent_pkg::axi_s_mon #(32, 32)::monitor/#FORK#35_7fefec44d44 File: ../env/axi_ref_model.sv Line: 89
# xyz : 4
# ** Warning: (vsim-3829) Non-existent associative array entry. Returning default value.
#    Time: 755 ns  Iteration: 2  Process: /axi_s_agent_pkg::axi_s_mon #(32, 32)::monitor/#FORK#35_7fefec44d44 File: ../env/axi_ref_model.sv Line: 89
# xyz : 5
# ** Warning: (vsim-3829) Non-existent associative array entry. Returning default value.
#    Time: 755 ns  Iteration: 2  Process: /axi_s_agent_pkg::axi_s_mon #(32, 32)::monitor/#FORK#35_7fefec44d44 File: ../env/axi_ref_model.sv Line: 89
# xyz : 6
# ** Warning: (vsim-3829) Non-existent associative array entry. Returning default value.
#    Time: 755 ns  Iteration: 2  Process: /axi_s_agent_pkg::axi_s_mon #(32, 32)::monitor/#FORK#35_7fefec44d44 File: ../env/axi_ref_model.sv Line: 89
# xyz : 7
# ** Warning: (vsim-3829) Non-existent associative array entry. Returning default value.
#    Time: 755 ns  Iteration: 2  Process: /axi_s_agent_pkg::axi_s_mon #(32, 32)::monitor/#FORK#35_7fefec44d44 File: ../env/axi_ref_model.sv Line: 89
# xyz : 8
# ** Warning: (vsim-3829) Non-existent associative array entry. Returning default value.
#    Time: 755 ns  Iteration: 2  Process: /axi_s_agent_pkg::axi_s_mon #(32, 32)::monitor/#FORK#35_7fefec44d44 File: ../env/axi_ref_model.sv Line: 89
# xyz : 9
# ** Warning: (vsim-3829) Non-existent associative array entry. Returning default value.
#    Time: 755 ns  Iteration: 2  Process: /axi_s_agent_pkg::axi_s_mon #(32, 32)::monitor/#FORK#35_7fefec44d44 File: ../env/axi_ref_model.sv Line: 89
# xyz : 10
# ** Warning: (vsim-3829) Non-existent associative array entry. Returning default value.
#    Time: 755 ns  Iteration: 2  Process: /axi_s_agent_pkg::axi_s_mon #(32, 32)::monitor/#FORK#35_7fefec44d44 File: ../env/axi_ref_model.sv Line: 89
# xyz : 11
# ** Warning: (vsim-3829) Non-existent associative array entry. Returning default value.
#    Time: 755 ns  Iteration: 2  Process: /axi_s_agent_pkg::axi_s_mon #(32, 32)::monitor/#FORK#35_7fefec44d44 File: ../env/axi_ref_model.sv Line: 89
# xyz : 12
# ** Warning: (vsim-3829) Non-existent associative array entry. Returning default value.
#    Time: 755 ns  Iteration: 2  Process: /axi_s_agent_pkg::axi_s_mon #(32, 32)::monitor/#FORK#35_7fefec44d44 File: ../env/axi_ref_model.sv Line: 89
# xyz : 13
# ** Warning: (vsim-3829) Non-existent associative array entry. Returning default value.
#    Time: 755 ns  Iteration: 2  Process: /axi_s_agent_pkg::axi_s_mon #(32, 32)::monitor/#FORK#35_7fefec44d44 File: ../env/axi_ref_model.sv Line: 89
# xyz : 14
# ** Warning: (vsim-3829) Non-existent associative array entry. Returning default value.
#    Time: 755 ns  Iteration: 2  Process: /axi_s_agent_pkg::axi_s_mon #(32, 32)::monitor/#FORK#35_7fefec44d44 File: ../env/axi_ref_model.sv Line: 89
# xyz : 15
# ** Warning: (vsim-3829) Non-existent associative array entry. Returning default value.
#    Time: 755 ns  Iteration: 2  Process: /axi_s_agent_pkg::axi_s_mon #(32, 32)::monitor/#FORK#35_7fefec44d44 File: ../env/axi_ref_model.sv Line: 89
# xyz : 16
# awid in s mon : e6d0 , awaddr : c0
#                  755wlast : 0
# WID: 17367 , AWID : 17367
# m mon ar id : 2a6d
# m mon rid : e656
# ** Warning: (vsim-3829) Non-existent associative array entry. Returning default value.
#    Time: 755 ns  Iteration: 3  Process: /uvm_pkg::uvm_sequence_base::start/#FORK#294_7fefec44a75 File: ../env/s_agent/axi_base_s_seqs.sv Line: 117
# ** Warning: (vsim-3829) Non-existent associative array entry. Returning default value.
#    Time: 755 ns  Iteration: 3  Process: /uvm_pkg::uvm_sequence_base::start/#FORK#294_7fefec44a75 File: ../env/s_agent/axi_base_s_seqs.sv Line: 117
# ** Warning: (vsim-3829) Non-existent associative array entry. Returning default value.
#    Time: 755 ns  Iteration: 3  Process: /uvm_pkg::uvm_sequence_base::start/#FORK#294_7fefec44a75 File: ../env/s_agent/axi_base_s_seqs.sv Line: 117
# ** Warning: (vsim-3829) Non-existent associative array entry. Returning default value.
#    Time: 755 ns  Iteration: 3  Process: /uvm_pkg::uvm_sequence_base::start/#FORK#294_7fefec44a75 File: ../env/s_agent/axi_base_s_seqs.sv Line: 117
# ** Warning: (vsim-3829) Non-existent associative array entry. Returning default value.
#    Time: 755 ns  Iteration: 3  Process: /uvm_pkg::uvm_sequence_base::start/#FORK#294_7fefec44a75 File: ../env/s_agent/axi_base_s_seqs.sv Line: 117
# ** Warning: (vsim-3829) Non-existent associative array entry. Returning default value.
#    Time: 755 ns  Iteration: 3  Process: /uvm_pkg::uvm_sequence_base::start/#FORK#294_7fefec44a75 File: ../env/s_agent/axi_base_s_seqs.sv Line: 117
# ** Warning: (vsim-3829) Non-existent associative array entry. Returning default value.
#    Time: 755 ns  Iteration: 3  Process: /uvm_pkg::uvm_sequence_base::start/#FORK#294_7fefec44a75 File: ../env/s_agent/axi_base_s_seqs.sv Line: 117
# ** Warning: (vsim-3829) Non-existent associative array entry. Returning default value.
#    Time: 755 ns  Iteration: 3  Process: /uvm_pkg::uvm_sequence_base::start/#FORK#294_7fefec44a75 File: ../env/s_agent/axi_base_s_seqs.sv Line: 117
# ** Warning: (vsim-3829) Non-existent associative array entry. Returning default value.
#    Time: 755 ns  Iteration: 3  Process: /uvm_pkg::uvm_sequence_base::start/#FORK#294_7fefec44a75 File: ../env/s_agent/axi_base_s_seqs.sv Line: 117
# ** Warning: (vsim-3829) Non-existent associative array entry. Returning default value.
#    Time: 755 ns  Iteration: 3  Process: /uvm_pkg::uvm_sequence_base::start/#FORK#294_7fefec44a75 File: ../env/s_agent/axi_base_s_seqs.sv Line: 117
# ** Warning: (vsim-3829) Non-existent associative array entry. Returning default value.
#    Time: 755 ns  Iteration: 3  Process: /uvm_pkg::uvm_sequence_base::start/#FORK#294_7fefec44a75 File: ../env/s_agent/axi_base_s_seqs.sv Line: 117
# ** Warning: (vsim-3829) Non-existent associative array entry. Returning default value.
#    Time: 755 ns  Iteration: 3  Process: /uvm_pkg::uvm_sequence_base::start/#FORK#294_7fefec44a75 File: ../env/s_agent/axi_base_s_seqs.sv Line: 117
# ** Warning: (vsim-3829) Non-existent associative array entry. Returning default value.
#    Time: 755 ns  Iteration: 3  Process: /uvm_pkg::uvm_sequence_base::start/#FORK#294_7fefec44a75 File: ../env/s_agent/axi_base_s_seqs.sv Line: 117
# ** Warning: (vsim-3829) Non-existent associative array entry. Returning default value.
#    Time: 755 ns  Iteration: 3  Process: /uvm_pkg::uvm_sequence_base::start/#FORK#294_7fefec44a75 File: ../env/s_agent/axi_base_s_seqs.sv Line: 117
# s seqs arid : 10861
# INIDE_SLAVE_SEQ_CTR=25
# match arid : 2a6d , rid : 2a6d
# UVM_INFO ../env/s_agent/axi_s_drv.sv(31) @ 755: uvm_test_top.env_h.s_uvc_h.s_agent_h[0].s_drv_h [ID MATCH] aaaaa
# rd data in s drv: 835229c2 , len : 15 , last:0 , valid : 1
# awid in s mon : 9071 , awaddr : 280
# INIDE_SLAVE_MON_CTR=75
# arid in s mon : 29068
#                  765wlast : 0
# WID: 17367 , AWID : 17367
# m mon rid : e656
# m mon ar id : 718c
# rd data in s drv: dd947ef8 , len : 15 , last:0 , valid : 1
# INIDE_SLAVE_MON_CTR=76
# arid in s mon : 45337
# awid in s mon : 2634 , awaddr : 140
#                  775wlast : 0
# WID: 17367 , AWID : 17367
# m mon ar id : b119
# m mon rid : e656
# rd data in s drv: 61b0b002 , len : 15 , last:0 , valid : 1
# awid in s mon : 4af5 , awaddr : 150
# INIDE_SLAVE_MON_CTR=77
# arid in s mon : 24484
# xyz : 1
# xyz : 2
# xyz : 3
# xyz : 4
#                  785wlast : 0
# WID: 17367 , AWID : 17367
# m mon rid : e656
# m mon ar id : 5fa4
# s seqs arid : 24484
# INIDE_SLAVE_SEQ_CTR=26
# match arid : 5fa4 , rid : 5fa4
# UVM_INFO ../env/s_agent/axi_s_drv.sv(31) @ 785: uvm_test_top.env_h.s_uvc_h.s_agent_h[0].s_drv_h [ID MATCH] aaaaa
# rd data in s drv: 1c85404 , len : 15 , last:0 , valid : 1
# INIDE_SLAVE_MON_CTR=78
# arid in s mon : 27438
# xyz : 1
# xyz : 2
# awid in s mon : c008 , awaddr : 380
#                  795wlast : 0
# WID: 17367 , AWID : 17367
# m mon ar id : 6b2e
# m mon rid : e656
# s seqs arid : 27438
# INIDE_SLAVE_SEQ_CTR=27
# match arid : 6b2e , rid : 6b2e
# UVM_INFO ../env/s_agent/axi_s_drv.sv(31) @ 795: uvm_test_top.env_h.s_uvc_h.s_agent_h[0].s_drv_h [ID MATCH] aaaaa
# rd data in s drv: 98d23d04 , len : 15 , last:0 , valid : 1
# awid in s mon : d76c , awaddr : 180
# INIDE_SLAVE_MON_CTR=79
# arid in s mon : 9050
# xyz : 1
# xyz : 2
#                  805wlast : 0
# WID: 17367 , AWID : 17367
# m mon rid : e656
# m mon ar id : 235a
# s seqs arid : 9050
# INIDE_SLAVE_SEQ_CTR=28
# match arid : 235a , rid : 235a
# UVM_INFO ../env/s_agent/axi_s_drv.sv(31) @ 805: uvm_test_top.env_h.s_uvc_h.s_agent_h[0].s_drv_h [ID MATCH] aaaaa
# rd data in s drv: 878b1739 , len : 15 , last:0 , valid : 1
# INIDE_SLAVE_MON_CTR=80
# arid in s mon : 59726
# awid in s mon : 3005 , awaddr : 60
#                  815wlast : 0
# WID: 17367 , AWID : 17367
# m mon ar id : e94e
# m mon rid : e656
# rd data in s drv: 73c26990 , len : 15 , last:0 , valid : 1
# awid in s mon : 77ec , awaddr : 170
# INIDE_SLAVE_MON_CTR=81
# arid in s mon : 3496
#                  825wlast : 0
# WID: 17367 , AWID : 17367
# m mon rid : e656
# m mon ar id : da8
# rd data in s drv: dd8e62b8 , len : 15 , last:0 , valid : 1
# INIDE_SLAVE_MON_CTR=82
# arid in s mon : 23075
# awid in s mon : 9a08 , awaddr : 3c0
#                  835wlast : 0
# WID: 17367 , AWID : 17367
# m mon ar id : 5a23
# m mon rid : e656
# rd data in s drv: 70590f2 , len : 15 , last:1 , valid : 1
# awid in s mon : 4b22 , awaddr : 680
# INIDE_SLAVE_MON_CTR=83
# arid in s mon : 53893
#                  845wlast : 0
# WID: 17367 , AWID : 17367
# m mon rid : e656
# m mon ar id : d285
# UVM_INFO ../env/axi_sb.sv(61) @ 845: uvm_test_top.env_h.sb_h [after event in sb] aaaa
# UVM_INFO ../env/axi_sb.sv(74) @ 845: uvm_test_top.env_h.sb_h [SB MATCH] ARID=58966 RID=58966 MATCH! RDATA=3618290167 196011992 3782488410 1345087670 3982009253 2122047436 781956785 2203199938 3717496568 1638969346 29905924 2563915012 2274039609 1942120848 3717096120 117805298 (Passes: 15)
# UVM_INFO ../env/axi_sb.sv(59) @ 845: uvm_test_top.env_h.sb_h [before event in sb] aaaa
# rd data in s drv: d7aab9f7 , len : 15 , last:0 , valid : 1
# INIDE_SLAVE_MON_CTR=84
# arid in s mon : 57238
# xyz : 1
# xyz : 2
# xyz : 3
# xyz : 4
# xyz : 5
# xyz : 6
# xyz : 7
# xyz : 8
# ** Warning: (vsim-3829) Non-existent associative array entry. Returning default value.
#    Time: 855 ns  Iteration: 2  Process: /axi_s_agent_pkg::axi_s_mon #(32, 32)::monitor/#FORK#35_7fefec44d44 File: ../env/axi_ref_model.sv Line: 89
# xyz : 9
# ** Warning: (vsim-3829) Non-existent associative array entry. Returning default value.
#    Time: 855 ns  Iteration: 2  Process: /axi_s_agent_pkg::axi_s_mon #(32, 32)::monitor/#FORK#35_7fefec44d44 File: ../env/axi_ref_model.sv Line: 89
# xyz : 10
# ** Warning: (vsim-3829) Non-existent associative array entry. Returning default value.
#    Time: 855 ns  Iteration: 2  Process: /axi_s_agent_pkg::axi_s_mon #(32, 32)::monitor/#FORK#35_7fefec44d44 File: ../env/axi_ref_model.sv Line: 89
# xyz : 11
# ** Warning: (vsim-3829) Non-existent associative array entry. Returning default value.
#    Time: 855 ns  Iteration: 2  Process: /axi_s_agent_pkg::axi_s_mon #(32, 32)::monitor/#FORK#35_7fefec44d44 File: ../env/axi_ref_model.sv Line: 89
# xyz : 12
# ** Warning: (vsim-3829) Non-existent associative array entry. Returning default value.
#    Time: 855 ns  Iteration: 2  Process: /axi_s_agent_pkg::axi_s_mon #(32, 32)::monitor/#FORK#35_7fefec44d44 File: ../env/axi_ref_model.sv Line: 89
# xyz : 13
# ** Warning: (vsim-3829) Non-existent associative array entry. Returning default value.
#    Time: 855 ns  Iteration: 2  Process: /axi_s_agent_pkg::axi_s_mon #(32, 32)::monitor/#FORK#35_7fefec44d44 File: ../env/axi_ref_model.sv Line: 89
# xyz : 14
# ** Warning: (vsim-3829) Non-existent associative array entry. Returning default value.
#    Time: 855 ns  Iteration: 2  Process: /axi_s_agent_pkg::axi_s_mon #(32, 32)::monitor/#FORK#35_7fefec44d44 File: ../env/axi_ref_model.sv Line: 89
# xyz : 15
# ** Warning: (vsim-3829) Non-existent associative array entry. Returning default value.
#    Time: 855 ns  Iteration: 2  Process: /axi_s_agent_pkg::axi_s_mon #(32, 32)::monitor/#FORK#35_7fefec44d44 File: ../env/axi_ref_model.sv Line: 89
# xyz : 16
# awid in s mon : 778b , awaddr : 6c0
#                  855wlast : 0
# WID: 17367 , AWID : 17367
# m mon ar id : df96
# m mon rid : 2d30
# ** Warning: (vsim-3829) Non-existent associative array entry. Returning default value.
#    Time: 855 ns  Iteration: 3  Process: /uvm_pkg::uvm_sequence_base::start/#FORK#294_7fefec44a75 File: ../env/s_agent/axi_base_s_seqs.sv Line: 117
# ** Warning: (vsim-3829) Non-existent associative array entry. Returning default value.
#    Time: 855 ns  Iteration: 3  Process: /uvm_pkg::uvm_sequence_base::start/#FORK#294_7fefec44a75 File: ../env/s_agent/axi_base_s_seqs.sv Line: 117
# ** Warning: (vsim-3829) Non-existent associative array entry. Returning default value.
#    Time: 855 ns  Iteration: 3  Process: /uvm_pkg::uvm_sequence_base::start/#FORK#294_7fefec44a75 File: ../env/s_agent/axi_base_s_seqs.sv Line: 117
# ** Warning: (vsim-3829) Non-existent associative array entry. Returning default value.
#    Time: 855 ns  Iteration: 3  Process: /uvm_pkg::uvm_sequence_base::start/#FORK#294_7fefec44a75 File: ../env/s_agent/axi_base_s_seqs.sv Line: 117
# ** Warning: (vsim-3829) Non-existent associative array entry. Returning default value.
#    Time: 855 ns  Iteration: 3  Process: /uvm_pkg::uvm_sequence_base::start/#FORK#294_7fefec44a75 File: ../env/s_agent/axi_base_s_seqs.sv Line: 117
# ** Warning: (vsim-3829) Non-existent associative array entry. Returning default value.
#    Time: 855 ns  Iteration: 3  Process: /uvm_pkg::uvm_sequence_base::start/#FORK#294_7fefec44a75 File: ../env/s_agent/axi_base_s_seqs.sv Line: 117
# ** Warning: (vsim-3829) Non-existent associative array entry. Returning default value.
#    Time: 855 ns  Iteration: 3  Process: /uvm_pkg::uvm_sequence_base::start/#FORK#294_7fefec44a75 File: ../env/s_agent/axi_base_s_seqs.sv Line: 117
# ** Warning: (vsim-3829) Non-existent associative array entry. Returning default value.
#    Time: 855 ns  Iteration: 3  Process: /uvm_pkg::uvm_sequence_base::start/#FORK#294_7fefec44a75 File: ../env/s_agent/axi_base_s_seqs.sv Line: 117
# s seqs arid : 57238
# INIDE_SLAVE_SEQ_CTR=29
# match arid : df96 , rid : df96
# UVM_INFO ../env/s_agent/axi_s_drv.sv(31) @ 855: uvm_test_top.env_h.s_uvc_h.s_agent_h[0].s_drv_h [ID MATCH] aaaaa
# rd data in s drv: baee7d8 , len : 15 , last:0 , valid : 1
# abc : 1
# abc : 2
# abc : 3
# abc : 4
# abc : 5
# abc : 6
# abc : 7
# abc : 8
# abc : 9
# abc : 10
# abc : 11
# abc : 12
# abc : 13
# abc : 14
# abc : 15
# abc : 16
# xyz : 1
# xyz : 2
# xyz : 3
# xyz : 4
# xyz : 5
# xyz : 6
# xyz : 7
# xyz : 8
# xyz : 9
# xyz : 10
# xyz : 11
# xyz : 12
# xyz : 13
# xyz : 14
# xyz : 15
# xyz : 16
# xyz : 17
# xyz : 18
# xyz : 19
# xyz : 20
# xyz : 21
# xyz : 22
# xyz : 23
# xyz : 24
# xyz : 25
# xyz : 26
# xyz : 27
# xyz : 28
# xyz : 29
# xyz : 30
# xyz : 31
# xyz : 32
# xyz : 33
# xyz : 34
# xyz : 35
# xyz : 36
# xyz : 37
# xyz : 38
# xyz : 39
# xyz : 40
# xyz : 41
# xyz : 42
# xyz : 43
# xyz : 44
# xyz : 45
# xyz : 46
# awid in s mon : 4b82 , awaddr : 350
# INIDE_SLAVE_MON_CTR=85
# arid in s mon : 61303
#                  865wlast : 1
# AFFTER W CHANNEL
# WID: 23008 , AWID : 23008
# m mon rid : 2d30
# m mon ar id : ef77
# match arid : 0 , rid : 0
# UVM_INFO ../env/s_agent/axi_s_drv.sv(31) @ 865: uvm_test_top.env_h.s_uvc_h.s_agent_h[0].s_drv_h [ID MATCH] aaaaa
# s seqs arid : 52439
# INIDE_SLAVE_SEQ_CTR=30
# match arid : ccd7 , rid : ccd7
# UVM_INFO ../env/s_agent/axi_s_drv.sv(31) @ 865: uvm_test_top.env_h.s_uvc_h.s_agent_h[0].s_drv_h [ID MATCH] aaaaa
# s seqs arid : 35577
# INIDE_SLAVE_SEQ_CTR=31
# match arid : 8af9 , rid : 8af9
# UVM_INFO ../env/s_agent/axi_s_drv.sv(31) @ 865: uvm_test_top.env_h.s_uvc_h.s_agent_h[0].s_drv_h [ID MATCH] aaaaa
# s seqs arid : 40878
# INIDE_SLAVE_SEQ_CTR=32
# match arid : 9fae , rid : 9fae
# UVM_INFO ../env/s_agent/axi_s_drv.sv(31) @ 865: uvm_test_top.env_h.s_uvc_h.s_agent_h[0].s_drv_h [ID MATCH] aaaaa
# s seqs arid : 11187
# INIDE_SLAVE_SEQ_CTR=33
# match arid : 2bb3 , rid : 2bb3
# UVM_INFO ../env/s_agent/axi_s_drv.sv(31) @ 865: uvm_test_top.env_h.s_uvc_h.s_agent_h[0].s_drv_h [ID MATCH] aaaaa
# s seqs arid : 21916
# INIDE_SLAVE_SEQ_CTR=34
# match arid : 559c , rid : 559c
# UVM_INFO ../env/s_agent/axi_s_drv.sv(31) @ 865: uvm_test_top.env_h.s_uvc_h.s_agent_h[0].s_drv_h [ID MATCH] aaaaa
# s seqs arid : 65117
# INIDE_SLAVE_SEQ_CTR=35
# match arid : fe5d , rid : fe5d
# UVM_INFO ../env/s_agent/axi_s_drv.sv(31) @ 865: uvm_test_top.env_h.s_uvc_h.s_agent_h[0].s_drv_h [ID MATCH] aaaaa
# rd data in s drv: e174315a , len : 15 , last:0 , valid : 1
# INIDE_SLAVE_MON_CTR=86
# arid in s mon : 23900
# xyz : 1
# xyz : 2
# awid in s mon : dd3b , awaddr : 1a0
#                  875wlast : 0
# WID: 23008 , AWID : 23008
# m mon ar id : 5d5c
# m mon rid : 2d30
# s seqs arid : 23900
# INIDE_SLAVE_SEQ_CTR=36
# match arid : 5d5c , rid : 5d5c
# UVM_INFO ../env/s_agent/axi_s_drv.sv(31) @ 875: uvm_test_top.env_h.s_uvc_h.s_agent_h[0].s_drv_h [ID MATCH] aaaaa
# rd data in s drv: 502c68b6 , len : 15 , last:0 , valid : 1
# awid in s mon : 3a8a , awaddr : 360
# INIDE_SLAVE_MON_CTR=87
# arid in s mon : 61299
#                  885wlast : 0
# WID: 23008 , AWID : 23008
# m mon rid : 2d30
# m mon ar id : ef73
# UVM_INFO ../env/m_agent/axi_base_m_seqs.sv(26) @ 885: uvm_test_top.env_h.m_uvc_h.m_agent_h[0].m_seqr_h@@vseqs_h.m_wseqs_h [IN V SEQS] Got B-channel response from driver
# rd data in s drv: ed58a3a5 , len : 15 , last:0 , valid : 1
# INIDE_SLAVE_MON_CTR=88
# arid in s mon : 13152
# xyz : 1
# xyz : 2
# awid in s mon : a371 , awaddr : 510
#                  895wlast : 0
# WID: 23008 , AWID : 23008
# m mon ar id : 3360
# m mon rid : 2d30
# s seqs arid : 13152
# INIDE_SLAVE_SEQ_CTR=37
# match arid : 3360 , rid : 3360
# UVM_INFO ../env/s_agent/axi_s_drv.sv(31) @ 895: uvm_test_top.env_h.s_uvc_h.s_agent_h[0].s_drv_h [ID MATCH] aaaaa
# rd data in s drv: 7e7bdfcc , len : 15 , last:0 , valid : 1
# abc : 1
# abc : 2
# abc : 3
# abc : 4
# xyz : 1
# xyz : 2
# xyz : 3
# xyz : 4
# xyz : 5
# xyz : 6
# awid in s mon : b271 , awaddr : 750
# INIDE_SLAVE_MON_CTR=89
# arid in s mon : 60289
#                  905wlast : 1
# AFFTER W CHANNEL
# WID: 32031 , AWID : 32031
# m mon rid : 2d30
# m mon ar id : eb81
# match arid : 0 , rid : 0
# UVM_INFO ../env/s_agent/axi_s_drv.sv(31) @ 905: uvm_test_top.env_h.s_uvc_h.s_agent_h[0].s_drv_h [ID MATCH] aaaaa
# s seqs arid : 4905
# INIDE_SLAVE_SEQ_CTR=38
# match arid : 1329 , rid : 1329
# UVM_INFO ../env/s_agent/axi_s_drv.sv(31) @ 905: uvm_test_top.env_h.s_uvc_h.s_agent_h[0].s_drv_h [ID MATCH] aaaaa
# s seqs arid : 18096
# INIDE_SLAVE_SEQ_CTR=39
# match arid : 46b0 , rid : 46b0
# UVM_INFO ../env/s_agent/axi_s_drv.sv(31) @ 905: uvm_test_top.env_h.s_uvc_h.s_agent_h[0].s_drv_h [ID MATCH] aaaaa
# rd data in s drv: 2e9bb6b1 , len : 15 , last:0 , valid : 1
# INIDE_SLAVE_MON_CTR=90
# arid in s mon : 46097
# awid in s mon : 75fe , awaddr : 520
#                  915wlast : 0
# WID: 32031 , AWID : 32031
# m mon ar id : b411
# m mon rid : 2d30
# rd data in s drv: 835229c2 , len : 15 , last:0 , valid : 1
# awid in s mon : 891 , awaddr : 50
# INIDE_SLAVE_MON_CTR=91
# arid in s mon : 13132
# xyz : 1
# xyz : 2
# xyz : 3
# xyz : 4
#                  925wlast : 0
# WID: 32031 , AWID : 32031
# m mon rid : 2d30
# m mon ar id : 334c
# s seqs arid : 13132
# INIDE_SLAVE_SEQ_CTR=40
# UVM_INFO ../env/m_agent/axi_base_m_seqs.sv(26) @ 925: uvm_test_top.env_h.m_uvc_h.m_agent_h[0].m_seqr_h@@vseqs_h.m_wseqs_h [IN V SEQS] Got B-channel response from driver
# match arid : 334c , rid : 334c
# UVM_INFO ../env/s_agent/axi_s_drv.sv(31) @ 925: uvm_test_top.env_h.s_uvc_h.s_agent_h[0].s_drv_h [ID MATCH] aaaaa
# rd data in s drv: dd947ef8 , len : 15 , last:0 , valid : 1
# INIDE_SLAVE_MON_CTR=92
# arid in s mon : 26239
# awid in s mon : 9526 , awaddr : 7a0
#                  935wlast : 0
# WID: 32031 , AWID : 32031
# m mon ar id : 667f
# m mon rid : 2d30
# rd data in s drv: 61b0b002 , len : 15 , last:0 , valid : 1
# awid in s mon : 7593 , awaddr : 140
# INIDE_SLAVE_MON_CTR=93
# arid in s mon : 50062
#                  945wlast : 0
# WID: 32031 , AWID : 32031
# m mon rid : 2d30
# m mon ar id : c38e
# rd data in s drv: 1c85404 , len : 15 , last:0 , valid : 1
# INIDE_SLAVE_MON_CTR=94
# arid in s mon : 57647
# xyz : 1
# xyz : 2
# xyz : 3
# xyz : 4
# awid in s mon : 8fb3 , awaddr : f0
#                  955wlast : 0
# WID: 32031 , AWID : 32031
# m mon ar id : e12f
# m mon rid : 2d30
# s seqs arid : 57647
# INIDE_SLAVE_SEQ_CTR=41
# match arid : e12f , rid : e12f
# UVM_INFO ../env/s_agent/axi_s_drv.sv(31) @ 955: uvm_test_top.env_h.s_uvc_h.s_agent_h[0].s_drv_h [ID MATCH] aaaaa
# rd data in s drv: 98d23d04 , len : 15 , last:0 , valid : 1
# awid in s mon : 18fa , awaddr : 480
# INIDE_SLAVE_MON_CTR=95
# arid in s mon : 23728
#                  965wlast : 0
# WID: 32031 , AWID : 32031
# m mon rid : 2d30
# m mon ar id : 5cb0
# rd data in s drv: 878b1739 , len : 15 , last:0 , valid : 1
# INIDE_SLAVE_MON_CTR=96
# arid in s mon : 33600
# xyz : 1
# xyz : 2
# xyz : 3
# xyz : 4
# xyz : 5
# xyz : 6
# xyz : 7
# xyz : 8
# xyz : 9
# xyz : 10
# xyz : 11
# xyz : 12
# xyz : 13
# xyz : 14
# xyz : 15
# xyz : 16
# awid in s mon : 50ca , awaddr : 1a0
#                  975wlast : 0
# WID: 32031 , AWID : 32031
# m mon ar id : 8340
# m mon rid : 2d30
# s seqs arid : 33600
# INIDE_SLAVE_SEQ_CTR=42
# match arid : 8340 , rid : 8340
# UVM_INFO ../env/s_agent/axi_s_drv.sv(31) @ 975: uvm_test_top.env_h.s_uvc_h.s_agent_h[0].s_drv_h [ID MATCH] aaaaa
# rd data in s drv: 73c26990 , len : 15 , last:0 , valid : 1
# abc : 1
# abc : 2
# abc : 3
# abc : 4
# abc : 5
# abc : 6
# abc : 7
# abc : 8
# awid in s mon : 7d41 , awaddr : 460
# INIDE_SLAVE_MON_CTR=97
# arid in s mon : 59131
#                  985wlast : 1
# AFFTER W CHANNEL
# WID: 12673 , AWID : 12673
# m mon rid : 2d30
# m mon ar id : e6fb
# match arid : 0 , rid : 0
# UVM_INFO ../env/s_agent/axi_s_drv.sv(31) @ 985: uvm_test_top.env_h.s_uvc_h.s_agent_h[0].s_drv_h [ID MATCH] aaaaa
# rd data in s drv: dd8e62b8 , len : 15 , last:0 , valid : 1
# INIDE_SLAVE_MON_CTR=98
# arid in s mon : 11031
# awid in s mon : 57bf , awaddr : 780
#                  995wlast : 0
# WID: 12673 , AWID : 12673
# m mon ar id : 2b17
# m mon rid : 2d30
# rd data in s drv: 70590f2 , len : 15 , last:1 , valid : 1
# awid in s mon : 1ca , awaddr : 1c0
# INIDE_SLAVE_MON_CTR=99
# arid in s mon : 46713
#                 1005wlast : 0
# WID: 12673 , AWID : 12673
# m mon rid : 2d30
# m mon ar id : b679
# UVM_INFO ../env/m_agent/axi_base_m_seqs.sv(26) @ 1005: uvm_test_top.env_h.m_uvc_h.m_agent_h[0].m_seqr_h@@vseqs_h.m_wseqs_h [IN V SEQS] Got B-channel response from driver
# UVM_INFO ../env/axi_sb.sv(61) @ 1005: uvm_test_top.env_h.sb_h [after event in sb] aaaa
# UVM_INFO ../env/axi_sb.sv(74) @ 1005: uvm_test_top.env_h.sb_h [SB MATCH] ARID=11568 RID=11568 MATCH! RDATA=3618290167 196011992 3782488410 1345087670 3982009253 2122047436 781956785 2203199938 3717496568 1638969346 29905924 2563915012 2274039609 1942120848 3717096120 117805298 (Passes: 16)
# UVM_INFO ../env/axi_sb.sv(59) @ 1005: uvm_test_top.env_h.sb_h [before event in sb] aaaa
# rd data in s drv: d7aab9f7 , len : 15 , last:0 , valid : 1
# INIDE_SLAVE_MON_CTR=100
# arid in s mon : 44059
#                 1015wlast : 0
# WID: 12673 , AWID : 12673
# m mon ar id : ac1b
# m mon rid : 58c3
# rd data in s drv: baee7d8 , len : 15 , last:0 , valid : 1
#                 1025wlast : 0
# WID: 12673 , AWID : 12673
# m mon rid : 58c3
# rd data in s drv: e174315a , len : 15 , last:0 , valid : 1
#                 1035wlast : 0
# WID: 12673 , AWID : 12673
# m mon rid : 58c3
# rd data in s drv: 502c68b6 , len : 15 , last:0 , valid : 1
#                 1045wlast : 0
# WID: 12673 , AWID : 12673
# m mon rid : 58c3
# rd data in s drv: ed58a3a5 , len : 15 , last:0 , valid : 1
#                 1055wlast : 0
# WID: 12673 , AWID : 12673
# m mon rid : 58c3
# rd data in s drv: 7e7bdfcc , len : 15 , last:0 , valid : 1
#                 1065wlast : 0
# WID: 12673 , AWID : 12673
# m mon rid : 58c3
# rd data in s drv: 2e9bb6b1 , len : 15 , last:0 , valid : 1
#                 1075wlast : 0
# WID: 12673 , AWID : 12673
# m mon rid : 58c3
# rd data in s drv: 835229c2 , len : 15 , last:0 , valid : 1
#                 1085wlast : 0
# WID: 12673 , AWID : 12673
# m mon rid : 58c3
# rd data in s drv: dd947ef8 , len : 15 , last:0 , valid : 1
#                 1095wlast : 0
# WID: 12673 , AWID : 12673
# m mon rid : 58c3
# rd data in s drv: 61b0b002 , len : 15 , last:0 , valid : 1
#                 1105wlast : 0
# WID: 12673 , AWID : 12673
# m mon rid : 58c3
# rd data in s drv: 1c85404 , len : 15 , last:0 , valid : 1
#                 1115wlast : 0
# WID: 12673 , AWID : 12673
# m mon rid : 58c3
# rd data in s drv: 98d23d04 , len : 15 , last:0 , valid : 1
#                 1125wlast : 0
# WID: 12673 , AWID : 12673
# m mon rid : 58c3
# rd data in s drv: 878b1739 , len : 15 , last:0 , valid : 1
#                 1135wlast : 0
# WID: 12673 , AWID : 12673
# m mon rid : 58c3
# rd data in s drv: 73c26990 , len : 15 , last:0 , valid : 1
# abc : 1
# abc : 2
# abc : 3
# abc : 4
# abc : 5
# abc : 6
# abc : 7
# abc : 8
# abc : 9
# abc : 10
# abc : 11
# abc : 12
# abc : 13
# abc : 14
# abc : 15
# abc : 16
# xyz : 1
# xyz : 2
# xyz : 3
# xyz : 4
# xyz : 5
# xyz : 6
# xyz : 7
# xyz : 8
# xyz : 9
# xyz : 10
# xyz : 11
# xyz : 12
# xyz : 13
# xyz : 14
# xyz : 15
# xyz : 16
# xyz : 17
# xyz : 18
# xyz : 19
# xyz : 20
# xyz : 21
# xyz : 22
# xyz : 23
# xyz : 24
# xyz : 25
# xyz : 26
# xyz : 27
# xyz : 28
# xyz : 29
# xyz : 30
# xyz : 31
# xyz : 32
# xyz : 33
# xyz : 34
# xyz : 35
# xyz : 36
# xyz : 37
# xyz : 38
# xyz : 39
# xyz : 40
# xyz : 41
# xyz : 42
# xyz : 43
# xyz : 44
#                 1145wlast : 1
# AFFTER W CHANNEL
# WID: 40425 , AWID : 40425
# m mon rid : 58c3
# match arid : 0 , rid : 0
# UVM_INFO ../env/s_agent/axi_s_drv.sv(31) @ 1145: uvm_test_top.env_h.s_uvc_h.s_agent_h[0].s_drv_h [ID MATCH] aaaaa
# s seqs arid : 25219
# INIDE_SLAVE_SEQ_CTR=43
# match arid : 6283 , rid : 6283
# UVM_INFO ../env/s_agent/axi_s_drv.sv(31) @ 1145: uvm_test_top.env_h.s_uvc_h.s_agent_h[0].s_drv_h [ID MATCH] aaaaa
# s seqs arid : 33047
# INIDE_SLAVE_SEQ_CTR=44
# match arid : 8117 , rid : 8117
# UVM_INFO ../env/s_agent/axi_s_drv.sv(31) @ 1145: uvm_test_top.env_h.s_uvc_h.s_agent_h[0].s_drv_h [ID MATCH] aaaaa
# s seqs arid : 16179
# INIDE_SLAVE_SEQ_CTR=45
# match arid : 3f33 , rid : 3f33
# UVM_INFO ../env/s_agent/axi_s_drv.sv(31) @ 1145: uvm_test_top.env_h.s_uvc_h.s_agent_h[0].s_drv_h [ID MATCH] aaaaa
# s seqs arid : 55026
# INIDE_SLAVE_SEQ_CTR=46
# match arid : d6f2 , rid : d6f2
# UVM_INFO ../env/s_agent/axi_s_drv.sv(31) @ 1145: uvm_test_top.env_h.s_uvc_h.s_agent_h[0].s_drv_h [ID MATCH] aaaaa
# s seqs arid : 29068
# INIDE_SLAVE_SEQ_CTR=47
# match arid : 718c , rid : 718c
# UVM_INFO ../env/s_agent/axi_s_drv.sv(31) @ 1145: uvm_test_top.env_h.s_uvc_h.s_agent_h[0].s_drv_h [ID MATCH] aaaaa
# s seqs arid : 23728
# INIDE_SLAVE_SEQ_CTR=48
# match arid : 5cb0 , rid : 5cb0
# UVM_INFO ../env/s_agent/axi_s_drv.sv(31) @ 1145: uvm_test_top.env_h.s_uvc_h.s_agent_h[0].s_drv_h [ID MATCH] aaaaa
# rd data in s drv: dd8e62b8 , len : 15 , last:0 , valid : 1
#                 1155wlast : 0
# WID: 40425 , AWID : 40425
# m mon rid : 58c3
# rd data in s drv: 70590f2 , len : 15 , last:1 , valid : 1
# abc : 1
# abc : 2
# xyz : 1
# xyz : 2
# xyz : 3
# xyz : 4
#                 1165wlast : 1
# AFFTER W CHANNEL
# WID: 34571 , AWID : 34571
# m mon rid : 58c3
# UVM_INFO ../env/m_agent/axi_base_m_seqs.sv(26) @ 1165: uvm_test_top.env_h.m_uvc_h.m_agent_h[0].m_seqr_h@@vseqs_h.m_wseqs_h [IN V SEQS] Got B-channel response from driver
# UVM_INFO ../env/axi_sb.sv(61) @ 1165: uvm_test_top.env_h.sb_h [after event in sb] aaaa
# UVM_INFO ../env/axi_sb.sv(74) @ 1165: uvm_test_top.env_h.sb_h [SB MATCH] ARID=22723 RID=22723 MATCH! RDATA=3618290167 196011992 3782488410 1345087670 3982009253 2122047436 781956785 2203199938 3717496568 1638969346 29905924 2563915012 2274039609 1942120848 3717096120 117805298 (Passes: 17)
# UVM_INFO ../env/axi_sb.sv(59) @ 1165: uvm_test_top.env_h.sb_h [before event in sb] aaaa
# match arid : 0 , rid : 0
# UVM_INFO ../env/s_agent/axi_s_drv.sv(31) @ 1165: uvm_test_top.env_h.s_uvc_h.s_agent_h[0].s_drv_h [ID MATCH] aaaaa
# s seqs arid : 47995
# INIDE_SLAVE_SEQ_CTR=49
# match arid : bb7b , rid : bb7b
# UVM_INFO ../env/s_agent/axi_s_drv.sv(31) @ 1165: uvm_test_top.env_h.s_uvc_h.s_agent_h[0].s_drv_h [ID MATCH] aaaaa
# s seqs arid : 12915
# INIDE_SLAVE_SEQ_CTR=50
# match arid : 3273 , rid : 3273
# UVM_INFO ../env/s_agent/axi_s_drv.sv(31) @ 1165: uvm_test_top.env_h.s_uvc_h.s_agent_h[0].s_drv_h [ID MATCH] aaaaa
# rd data in s drv: 8ab6c3a2 , len : 3 , last:0 , valid : 1
#                 1175wlast : 0
# WID: 34571 , AWID : 34571
# m mon rid : fcf7
# rd data in s drv: 316470ff , len : 3 , last:0 , valid : 1
#                 1185wlast : 0
# WID: 34571 , AWID : 34571
# m mon rid : fcf7
# UVM_INFO ../env/m_agent/axi_base_m_seqs.sv(26) @ 1185: uvm_test_top.env_h.m_uvc_h.m_agent_h[0].m_seqr_h@@vseqs_h.m_wseqs_h [IN V SEQS] Got B-channel response from driver
# rd data in s drv: 28dd5745 , len : 3 , last:0 , valid : 1
#                 1195wlast : 0
# WID: 34571 , AWID : 34571
# m mon rid : fcf7
# rd data in s drv: 8092a68c , len : 3 , last:1 , valid : 1
#                 1205wlast : 0
# WID: 34571 , AWID : 34571
# m mon rid : fcf7
# UVM_INFO ../env/axi_sb.sv(61) @ 1205: uvm_test_top.env_h.sb_h [after event in sb] aaaa
# UVM_INFO ../env/axi_sb.sv(74) @ 1205: uvm_test_top.env_h.sb_h [SB MATCH] ARID=64759 RID=64759 MATCH! RDATA=2327233442 828666111 685594437 2157094540 (Passes: 18)
# UVM_INFO ../env/axi_sb.sv(59) @ 1205: uvm_test_top.env_h.sb_h [before event in sb] aaaa
# rd data in s drv: 4542837f , len : 7 , last:0 , valid : 1
#                 1215wlast : 0
# WID: 34571 , AWID : 34571
# m mon rid : a869
# rd data in s drv: 3b27ee47 , len : 7 , last:0 , valid : 1
#                 1225wlast : 0
# WID: 34571 , AWID : 34571
# m mon rid : a869
# rd data in s drv: 0 , len : 7 , last:0 , valid : 1
#                 1235wlast : 0
# WID: 34571 , AWID : 34571
# m mon rid : a869
# rd data in s drv: 0 , len : 7 , last:0 , valid : 1
#                 1245wlast : 0
# WID: 34571 , AWID : 34571
# m mon rid : a869
# rd data in s drv: 0 , len : 7 , last:0 , valid : 1
#                 1255wlast : 0
# WID: 34571 , AWID : 34571
# m mon rid : a869
# rd data in s drv: 0 , len : 7 , last:0 , valid : 1
#                 1265wlast : 0
# WID: 34571 , AWID : 34571
# m mon rid : a869
# rd data in s drv: 0 , len : 7 , last:0 , valid : 1
#                 1275wlast : 0
# WID: 34571 , AWID : 34571
# m mon rid : a869
# rd data in s drv: 0 , len : 7 , last:1 , valid : 1
#                 1285wlast : 0
# WID: 34571 , AWID : 34571
# m mon rid : a869
# UVM_INFO ../env/axi_sb.sv(61) @ 1285: uvm_test_top.env_h.sb_h [after event in sb] aaaa
# UVM_INFO ../env/axi_sb.sv(74) @ 1285: uvm_test_top.env_h.sb_h [SB MATCH] ARID=43113 RID=43113 MATCH! RDATA=1161986943 992472647 0 0 0 0 0 0 (Passes: 19)
# UVM_INFO ../env/axi_sb.sv(59) @ 1285: uvm_test_top.env_h.sb_h [before event in sb] aaaa
# rd data in s drv: d7aab9f7 , len : 7 , last:0 , valid : 1
#                 1295wlast : 0
# WID: 34571 , AWID : 34571
# m mon rid : 865e
# rd data in s drv: baee7d8 , len : 7 , last:0 , valid : 1
