# vsim -coverage -voptargs="+acc" axi_tb_top -c -do "coverage save -onexit -directive -cvg -codeall axi_wrap_test.ucdb; run -all; exit" "+UVM_TESTNAME=axi_wrap_test" -l axi_wrap_test.log 
# Start time: 14:54:15 on May 11,2026
# ** Note: (vsim-3813) Design is being optimized due to module recompilation...
# ** Warning: (vopt-10587) Some optimizations are turned off because the +acc switch is in effect. This will cause your simulation to run slowly. Please use -access/-debug to maintain needed visibility.
# ** Warning: (vopt-13408) Code coverage will be disabled for some DUs/packages/classes and source files.
# ** Note: (vsim-12126) Error and warning message counts have been restored: Errors=0, Warnings=2.
# //  Questa Sim-64
# //  Version 2023.4 linux_x86_64 Oct  9 2023
# //
# //  Copyright 1991-2023 Mentor Graphics Corporation
# //  All Rights Reserved.
# //
# //  QuestaSim and its associated documentation contain trade
# //  secrets and commercial or financial information that are the property of
# //  Mentor Graphics Corporation and are privileged, confidential,
# //  and exempt from disclosure under the Freedom of Information Act,
# //  5 U.S.C. Section 552. Furthermore, this information
# //  is prohibited from disclosure under the Trade Secrets Act,
# //  18 U.S.C. Section 1905.
# //
# Loading sv_std.std
# Loading work.axi_s_inf(fast)
# Loading work.axi_m_inf(fast)
# Loading mtiUvm.uvm_pkg(fast)
# Loading work.axi_s_agent_pkg(fast)
# Loading work.axi_m_agent_pkg(fast)
# Loading work.axi_env_pkg(fast)
# Loading work.axi_test_pkg(fast)
# Loading mtiUvm.questa_uvm_pkg(fast)
# Loading work.axi_tb_top(fast)
# Loading work.axi_m_inf(fast__2)
# Loading work.axi_s_inf(fast__2)
# ** Warning: (vsim-8441) Clocking block output s_vif.s_drv_cb.RDATA is not legal in this
# or another expression.
#    Time: 0 ns  Iteration: 0  Region: /axi_s_agent_pkg::axi_s_drv #(32, 32) File: ../env/s_agent/axi_s_drv.sv Line: 113
# ** Warning: (vsim-8441) Clocking block output s_vif.s_drv_cb.RVALID is not legal in this
# or another expression.
#    Time: 0 ns  Iteration: 0  Region: /axi_s_agent_pkg::axi_s_drv #(32, 32) File: ../env/s_agent/axi_s_drv.sv Line: 115
# ** Warning: (vsim-8441) Clocking block output s_vif.s_drv_cb.RLAST is not legal in this
# or another expression.
#    Time: 0 ns  Iteration: 0  Region: /axi_s_agent_pkg::axi_s_drv #(32, 32) File: ../env/s_agent/axi_s_drv.sv Line: 116
# ** Warning: (vsim-8441) Clocking block output s_vif.s_drv_cb.RDATA is not legal in this
# or another expression.
#    Time: 0 ns  Iteration: 0  Region: /axi_s_agent_pkg::axi_s_drv #(32, 32) File: ../env/s_agent/axi_s_drv.sv Line: 113
# ** Warning: (vsim-8441) Clocking block output s_vif.s_drv_cb.RLAST is not legal in this
# or another expression.
#    Time: 0 ns  Iteration: 0  Region: /axi_s_agent_pkg::axi_s_drv #(32, 32) File: ../env/s_agent/axi_s_drv.sv Line: 116
# ** Warning: (vsim-8441) Clocking block output s_vif.s_drv_cb.RVALID is not legal in this
# or another expression.
#    Time: 0 ns  Iteration: 0  Region: /axi_s_agent_pkg::axi_s_drv #(32, 32) File: ../env/s_agent/axi_s_drv.sv Line: 115
# ** Warning: (vsim-8441) Clocking block output s_vif.s_drv_cb.RVALID is not legal in this
# or another expression.
#    Time: 0 ns  Iteration: 0  Region: /axi_s_agent_pkg::axi_s_drv #(32, 32) File: ../env/s_agent/axi_s_drv.sv Line: 115
# ** Warning: (vsim-8441) Clocking block output s_vif.s_drv_cb.RLAST is not legal in this
# or another expression.
#    Time: 0 ns  Iteration: 0  Region: /axi_s_agent_pkg::axi_s_drv #(32, 32) File: ../env/s_agent/axi_s_drv.sv Line: 116
# Loading /tools/mentor/questa/2023.4/questasim/uvm-1.1d/linux_x86_64/uvm_dpi.so
# coverage save -onexit -directive -cvg -codeall axi_wrap_test.ucdb
#  run -all
# ----------------------------------------------------------------
# UVM-1.1d
# (C) 2007-2013 Mentor Graphics Corporation
# (C) 2007-2013 Cadence Design Systems, Inc.
# (C) 2006-2013 Synopsys, Inc.
# (C) 2011-2013 Cypress Semiconductor Corp.
# ----------------------------------------------------------------
# 
#   ***********       IMPORTANT RELEASE NOTES         ************
# 
#   You are using a version of the UVM library that has been compiled
#   with `UVM_NO_DEPRECATED undefined.
#   See http://www.eda.org/svdb/view.php?id=3313 for more details.
# 
#   You are using a version of the UVM library that has been compiled
#   with `UVM_OBJECT_MUST_HAVE_CONSTRUCTOR undefined.
#   See http://www.eda.org/svdb/view.php?id=3770 for more details.
# 
#       (Specify +UVM_NO_RELNOTES to turn off this notice)
# 
# UVM_INFO verilog_src/questa_uvm_pkg-1.2/src/questa_uvm_pkg.sv(277) @ 0: reporter [Questa UVM] QUESTA_UVM-1.2.3
# UVM_INFO verilog_src/questa_uvm_pkg-1.2/src/questa_uvm_pkg.sv(278) @ 0: reporter [Questa UVM]  questa_uvm::init(+struct)
# UVM_INFO @ 0: reporter [RNTST] Running test axi_wrap_test...
# ** Warning: (vsim-8474) A higher value '4294967295' is found in bin 'all_ones' of Coverpoint 'cp_wdata'. It is invalid and will be ignored.
#    Time: 0 ns  Iteration: 7  Process: /uvm_pkg::uvm_phase::m_run_phases/#FORK#1847_7fefec4648d File: ../env/axi_coverage.sv Line: 49
# ** Warning: (vsim-8549) After dropping the illegal, ignore or invalid values, the values list associated with scalar bin 'all_ones' in Coverpoint 'cp_wdata' of Covergroup instance '\/axi_env_pkg::axi_coverage::write_cov ' has converged to empty list. The bin will be taken out of coverage calculation.
#    Time: 0 ns  Iteration: 7  Region: /uvm_pkg::uvm_phase::m_run_phases
# ** Warning: (vsim-8474) A higher value '1431655765' is found in bin 'toggle_01' of Coverpoint 'cp_wdata'. It is invalid and will be ignored.
#    Time: 0 ns  Iteration: 7  Process: /uvm_pkg::uvm_phase::m_run_phases/#FORK#1847_7fefec4648d File: ../env/axi_coverage.sv Line: 50
# ** Warning: (vsim-8474) A higher value '2863311530' is found in bin 'toggle_01' of Coverpoint 'cp_wdata'. It is invalid and will be ignored.
#    Time: 0 ns  Iteration: 7  Process: /uvm_pkg::uvm_phase::m_run_phases/#FORK#1847_7fefec4648d File: ../env/axi_coverage.sv Line: 50
# ** Warning: (vsim-8549) After dropping the illegal, ignore or invalid values, the values list associated with scalar bin 'toggle_01' in Coverpoint 'cp_wdata' of Covergroup instance '\/axi_env_pkg::axi_coverage::write_cov ' has converged to empty list. The bin will be taken out of coverage calculation.
#    Time: 0 ns  Iteration: 7  Region: /uvm_pkg::uvm_phase::m_run_phases
# ** Warning: (vsim-3881) ../env/axi_coverage.sv(51): Width conversion applied in bin 'other_data' for Coverpoint 'cp_wdata'. Value '1' changed to ' (maximum)' value.
#    Time: 0 ns  Iteration: 7  Region: /uvm_pkg::uvm_phase::m_run_phases
# ** Warning: (vsim-3881) ../env/axi_coverage.sv(51): Width conversion applied in bin 'other_data' for Coverpoint 'cp_wdata'. Value '4294901759' changed to ' (maximum)' value.
#    Time: 0 ns  Iteration: 7  Region: /uvm_pkg::uvm_phase::m_run_phases
# ** Warning: (vsim-8475) The invalid value range [1 : 4294901759] is found in bin 'other_data' of Coverpoint 'cp_wdata'. It will be ignored.
#    Time: 0 ns  Iteration: 7  Process: /uvm_pkg::uvm_phase::m_run_phases/#FORK#1847_7fefec4648d File: ../env/axi_coverage.sv Line: 51
# ** Warning: (vsim-8549) After dropping the illegal, ignore or invalid values, the values list associated with array bin 'other_data' in Coverpoint 'cp_wdata' of Covergroup instance '\/axi_env_pkg::axi_coverage::write_cov ' has converged to empty list. The bin will be taken out of coverage calculation.
#    Time: 0 ns  Iteration: 7  Region: /uvm_pkg::uvm_phase::m_run_phases
# ** Warning: (vsim-8474) A higher value '8' is found in bin 'single_byte' of Coverpoint 'cp_wstrb'. It is invalid and will be ignored.
#    Time: 0 ns  Iteration: 7  Process: /uvm_pkg::uvm_phase::m_run_phases/#FORK#1847_7fefec4648d File: ../env/axi_coverage.sv Line: 72
# ** Warning: (vsim-8474) A higher value '12' is found in bin 'single_byte' of Coverpoint 'cp_wstrb'. It is invalid and will be ignored.
#    Time: 0 ns  Iteration: 7  Process: /uvm_pkg::uvm_phase::m_run_phases/#FORK#1847_7fefec4648d File: ../env/axi_coverage.sv Line: 72
# ** Warning: (vsim-8474) A higher value '14' is found in bin 'single_byte' of Coverpoint 'cp_wstrb'. It is invalid and will be ignored.
#    Time: 0 ns  Iteration: 7  Process: /uvm_pkg::uvm_phase::m_run_phases/#FORK#1847_7fefec4648d File: ../env/axi_coverage.sv Line: 72
# ** Warning: (vsim-8549) After dropping the illegal, ignore or invalid values, the values list associated with scalar bin 'single_byte' in Coverpoint 'cp_wstrb' of Covergroup instance '\/axi_env_pkg::axi_coverage::write_cov ' has converged to empty list. The bin will be taken out of coverage calculation.
#    Time: 0 ns  Iteration: 7  Region: /uvm_pkg::uvm_phase::m_run_phases
# ** Warning: (vsim-8474) A higher value '15' is found in bin 'all_bytes' of Coverpoint 'cp_wstrb'. It is invalid and will be ignored.
#    Time: 0 ns  Iteration: 7  Process: /uvm_pkg::uvm_phase::m_run_phases/#FORK#1847_7fefec4648d File: ../env/axi_coverage.sv Line: 73
# ** Warning: (vsim-8549) After dropping the illegal, ignore or invalid values, the values list associated with scalar bin 'all_bytes' in Coverpoint 'cp_wstrb' of Covergroup instance '\/axi_env_pkg::axi_coverage::write_cov ' has converged to empty list. The bin will be taken out of coverage calculation.
#    Time: 0 ns  Iteration: 7  Region: /uvm_pkg::uvm_phase::m_run_phases
# ** Warning: (vsim-8554) The expression 'binsof(cp_wstrb.single_byte)' inside the select expression of Bin 'invalid_wrap' of Cross 'STRB_CP' in Covergroup instance '\/axi_env_pkg::axi_coverage::write_cov ' is an empty user bin. The binsof expression will result in an empty set.
#    Time: 0 ns  Iteration: 7  Region: /uvm_pkg::uvm_phase::m_run_phases
# UVM_INFO ../env/s_agent/axi_s_seqr.sv(25) @ 0: uvm_test_top.env_h.s_uvc_h.s_agent_h[0].s_seqr_h [Data in s seqr] Data got in slave seqr
# UVM_INFO @ 0: reporter [UVMTOP] UVM testbench topology:
# --------------------------------------------------------------------------------
# Name                             Type                                Size  Value
# --------------------------------------------------------------------------------
# uvm_test_top                     axi_wrap_test                       -     @479 
#   env_h                          axi_env                             -     @491 
#     m_uvc_h                      uvm_agent                           -     @513 
#       m_agent_h[0]               uvm_agent                           -     @693 
#         m_drv_h                  uvm_driver #(REQ,RSP)               -     @814 
#           rsp_port               uvm_analysis_port                   -     @829 
#           seq_item_port          uvm_seq_item_pull_port              -     @821 
#         m_mon_h                  axi_m_mon#(ADDR_WIDTH, DATA_WIDTH)  -     @837 
#           s_port                 uvm_analysis_port                   -     @844 
#         m_seqr_h                 uvm_sequencer                       -     @705 
#           rsp_export             uvm_analysis_export                 -     @712 
#           seq_item_export        uvm_seq_item_pull_imp               -     @806 
#           arbitration_queue      array                               0     -    
#           lock_queue             array                               0     -    
#           num_last_reqs          integral                            32    'd1  
#           num_last_rsps          integral                            32    'd1  
#     ref_model_h                  axi_ref_model                       -     @558 
#       mon_imp                    uvm_analysis_imp                    -     @565 
#       sb_imp                     uvm_analysis_port                   -     @573 
#     s_uvc_h                      uvm_agent                           -     @520 
#       s_agent_h[0]               uvm_agent                           -     @860 
#         s_drv_h                  uvm_driver #(REQ,RSP)               -     @1036
#           rsp_port               uvm_analysis_port                   -     @1051
#           seq_item_port          uvm_seq_item_pull_port              -     @1043
#         s_mon_h                  axi_s_mon#(ADDR_WIDTH, DATA_WIDTH)  -     @1059
#           s_port                 uvm_analysis_port                   -     @1066
#         s_seqr_h                 uvm_sequencer                       -     @872 
#           item_collected_export  uvm_analysis_export                 -     @981 
#           item_req_fifo          uvm_tlm_analysis_fifo #(T)          -     @989 
#             analysis_export      uvm_analysis_imp                    -     @1028
#             get_ap               uvm_analysis_port                   -     @1020
#             get_peek_export      uvm_get_peek_imp                    -     @1004
#             put_ap               uvm_analysis_port                   -     @1012
#             put_export           uvm_put_imp                         -     @996 
#           rsp_export             uvm_analysis_export                 -     @879 
#           seq_item_export        uvm_seq_item_pull_imp               -     @973 
#           arbitration_queue      array                               0     -    
#           lock_queue             array                               0     -    
#           num_last_reqs          integral                            32    'd1  
#           num_last_rsps          integral                            32    'd1  
#     sb_h                         axi_sb                              -     @527 
#       anl_imp_m                  uvm_analysis_imp_m                  -     @534 
#       anl_imp_ref                uvm_analysis_imp_ref                -     @542 
#     vseqr_h                      axi_virtual_seqr                    -     @581 
#       rsp_export                 uvm_analysis_export                 -     @588 
#       seq_item_export            uvm_seq_item_pull_imp               -     @682 
#       arbitration_queue          array                               0     -    
#       lock_queue                 array                               0     -    
#       num_last_reqs              integral                            32    'd1  
#       num_last_rsps              integral                            32    'd1  
# --------------------------------------------------------------------------------
# 
# UVM_INFO ../env/axi_sb.sv(80) @ 0: uvm_test_top.env_h.sb_h [before event in sb] aaaa
# UVM_INFO ../env/m_agent/axi_m_mon.sv(28) @ 0: uvm_test_top.env_h.m_uvc_h.m_agent_h[0].m_mon_h [M MON RUN PHASE before] Inside master mon run phase
# UVM_INFO ../env/m_agent/axi_m_mon.sv(36) @ 0: uvm_test_top.env_h.m_uvc_h.m_agent_h[0].m_mon_h [M MON run PHASE after] Inside master mon
# UVM_INFO ../env/m_agent/axi_m_mon.sv(41) @ 0: uvm_test_top.env_h.m_uvc_h.m_agent_h[0].m_mon_h [M MON write addr PHASE before] Inside master mon
# UVM_INFO ../env/m_agent/axi_m_mon.sv(60) @ 0: uvm_test_top.env_h.m_uvc_h.m_agent_h[0].m_mon_h [M MON write data PHASE before] Inside master mon
# UVM_INFO ../env/m_agent/axi_m_mon.sv(99) @ 0: uvm_test_top.env_h.m_uvc_h.m_agent_h[0].m_mon_h [M MON read addr PHASE before] Inside master mon
# UVM_INFO ../env/m_agent/axi_m_mon.sv(118) @ 0: uvm_test_top.env_h.m_uvc_h.m_agent_h[0].m_mon_h [M MON read data PHASE before] Inside master mon
# Before AW CHANNEL
# Before W CHANNEL
# Before AR CHANNEL
# Before R CHANNEL
# AWLEN IN M DRV:3
# cnt : 1
# AWLEN IN M DRV:3
# cnt : 2
# AWLEN IN M DRV:3
# cnt : 3
# AWLEN IN M DRV:1
# cnt : 4
# AWLEN IN M DRV:1
# cnt : 5
# AWLEN IN M DRV:1
# cnt : 6
# AWLEN IN M DRV:1
# cnt : 7
# AWLEN IN M DRV:3
# cnt : 8
# AWLEN IN M DRV:7
# cnt : 9
# AWLEN IN M DRV:1
# cnt : 10
# AWLEN IN M DRV:15
# cnt : 11
# AWLEN IN M DRV:1
# cnt : 12
# AWLEN IN M DRV:1
# cnt : 13
# AWLEN IN M DRV:3
# cnt : 14
# AWLEN IN M DRV:15
# cnt : 15
# AWLEN IN M DRV:1
# cnt : 16
# AWLEN IN M DRV:1
# cnt : 17
# AWLEN IN M DRV:3
# cnt : 18
# AWLEN IN M DRV:7
# cnt : 19
# AWLEN IN M DRV:1
# cnt : 20
# AWLEN IN M DRV:15
# cnt : 21
# AWLEN IN M DRV:1
# cnt : 22
# AWLEN IN M DRV:3
# cnt : 23
# AWLEN IN M DRV:1
# cnt : 24
# AWLEN IN M DRV:7
# cnt : 25
# AWLEN IN M DRV:1
# cnt : 26
# AWLEN IN M DRV:15
# cnt : 27
# AWLEN IN M DRV:1
# cnt : 28
# AWLEN IN M DRV:1
# cnt : 29
# AWLEN IN M DRV:1
# cnt : 30
# AWLEN IN M DRV:15
# cnt : 31
# AWLEN IN M DRV:3
# cnt : 32
# AWLEN IN M DRV:1
# cnt : 33
# AWLEN IN M DRV:15
# cnt : 34
# AWLEN IN M DRV:3
# cnt : 35
# AWLEN IN M DRV:15
# cnt : 36
# AWLEN IN M DRV:3
# cnt : 37
# AWLEN IN M DRV:3
# cnt : 38
# AWLEN IN M DRV:1
# cnt : 39
# AWLEN IN M DRV:3
# cnt : 40
# AWLEN IN M DRV:1
# cnt : 41
# AWLEN IN M DRV:1
# cnt : 42
# AWLEN IN M DRV:1
# cnt : 43
# AWLEN IN M DRV:3
# cnt : 44
# AWLEN IN M DRV:1
# cnt : 45
# AWLEN IN M DRV:1
# cnt : 46
# AWLEN IN M DRV:3
# cnt : 47
# AWLEN IN M DRV:3
# cnt : 48
# AWLEN IN M DRV:1
# cnt : 49
# AWLEN IN M DRV:15
# cnt : 50
# AWLEN IN M DRV:1
# cnt : 51
# AWLEN IN M DRV:7
# cnt : 52
# AWLEN IN M DRV:3
# cnt : 53
# AWLEN IN M DRV:3
# cnt : 54
# AWLEN IN M DRV:15
# cnt : 55
# AWLEN IN M DRV:7
# cnt : 56
# AWLEN IN M DRV:3
# cnt : 57
# AWLEN IN M DRV:15
# cnt : 58
# AWLEN IN M DRV:15
# cnt : 59
# AWLEN IN M DRV:3
# cnt : 60
# AWLEN IN M DRV:1
# cnt : 61
# AWLEN IN M DRV:7
# cnt : 62
# AWLEN IN M DRV:1
# cnt : 63
# AWLEN IN M DRV:3
# cnt : 64
# AWLEN IN M DRV:1
# cnt : 65
# AWLEN IN M DRV:1
# cnt : 66
# AWLEN IN M DRV:7
# cnt : 67
# AWLEN IN M DRV:1
# cnt : 68
# AWLEN IN M DRV:7
# cnt : 69
# AWLEN IN M DRV:3
# cnt : 70
# AWLEN IN M DRV:3
# cnt : 71
# AWLEN IN M DRV:1
# cnt : 72
# AWLEN IN M DRV:1
# cnt : 73
# AWLEN IN M DRV:1
# cnt : 74
# AWLEN IN M DRV:1
# cnt : 75
# AWLEN IN M DRV:1
# cnt : 76
# AWLEN IN M DRV:3
# cnt : 77
# AWLEN IN M DRV:1
# cnt : 78
# AWLEN IN M DRV:15
# cnt : 79
# AWLEN IN M DRV:1
# cnt : 80
# AWLEN IN M DRV:1
# cnt : 81
# AWLEN IN M DRV:1
# cnt : 82
# AWLEN IN M DRV:1
# cnt : 83
# AWLEN IN M DRV:3
# cnt : 84
# AWLEN IN M DRV:1
# cnt : 85
# AWLEN IN M DRV:1
# cnt : 86
# AWLEN IN M DRV:1
# cnt : 87
# AWLEN IN M DRV:1
# cnt : 88
# AWLEN IN M DRV:1
# cnt : 89
# AWLEN IN M DRV:1
# cnt : 90
# AWLEN IN M DRV:1
# cnt : 91
# AWLEN IN M DRV:3
# cnt : 92
# AWLEN IN M DRV:15
# cnt : 93
# AWLEN IN M DRV:3
# cnt : 94
# AWLEN IN M DRV:3
# cnt : 95
# AWLEN IN M DRV:15
# cnt : 96
# AWLEN IN M DRV:1
# cnt : 97
# AWLEN IN M DRV:1
# cnt : 98
# AWLEN IN M DRV:3
# cnt : 99
# AWLEN IN M DRV:15
# cnt : 100
# AWLEN IN M DRV:1
# cnt : 101
# AWLEN IN M DRV:15
# cnt : 102
# AWLEN IN M DRV:1
# cnt : 103
# AWLEN IN M DRV:15
# cnt : 104
# AWLEN IN M DRV:1
# cnt : 105
# AWLEN IN M DRV:7
# cnt : 106
# AWLEN IN M DRV:1
# cnt : 107
# AWLEN IN M DRV:1
# cnt : 108
# AWLEN IN M DRV:15
# cnt : 109
# AWLEN IN M DRV:3
# cnt : 110
# AWLEN IN M DRV:15
# cnt : 111
# AWLEN IN M DRV:1
# cnt : 112
# AWLEN IN M DRV:15
# cnt : 113
# AWLEN IN M DRV:1
# cnt : 114
# AWLEN IN M DRV:3
# cnt : 115
# AWLEN IN M DRV:1
# cnt : 116
# AWLEN IN M DRV:1
# cnt : 117
# AWLEN IN M DRV:7
# cnt : 118
# AWLEN IN M DRV:15
# cnt : 119
# AWLEN IN M DRV:1
# cnt : 120
# AWLEN IN M DRV:1
# cnt : 121
# AWLEN IN M DRV:15
# cnt : 122
# AWLEN IN M DRV:1
# cnt : 123
# AWLEN IN M DRV:3
# cnt : 124
# AWLEN IN M DRV:1
# cnt : 125
# AWLEN IN M DRV:7
# cnt : 126
# AWLEN IN M DRV:1
# cnt : 127
# AWLEN IN M DRV:1
# cnt : 128
# AWLEN IN M DRV:7
# cnt : 129
# AWLEN IN M DRV:15
# cnt : 130
# AWLEN IN M DRV:1
# cnt : 131
# AWLEN IN M DRV:3
# cnt : 132
# AWLEN IN M DRV:7
# cnt : 133
# AWLEN IN M DRV:1
# cnt : 134
# AWLEN IN M DRV:3
# cnt : 135
# AWLEN IN M DRV:1
# cnt : 136
# AWLEN IN M DRV:7
# cnt : 137
# AWLEN IN M DRV:3
# cnt : 138
# AWLEN IN M DRV:1
# cnt : 139
# AWLEN IN M DRV:1
# cnt : 140
# AWLEN IN M DRV:7
# cnt : 141
# AWLEN IN M DRV:3
# cnt : 142
# AWLEN IN M DRV:1
# cnt : 143
# AWLEN IN M DRV:3
# cnt : 144
# AWLEN IN M DRV:7
# cnt : 145
# AWLEN IN M DRV:1
# cnt : 146
# AWLEN IN M DRV:15
# cnt : 147
# AWLEN IN M DRV:7
# cnt : 148
# AWLEN IN M DRV:7
# cnt : 149
# AWLEN IN M DRV:1
# cnt : 150
# AWLEN IN M DRV:15
# cnt : 151
# AWLEN IN M DRV:1
# cnt : 152
# AWLEN IN M DRV:3
# cnt : 153
# AWLEN IN M DRV:3
# cnt : 154
# AWLEN IN M DRV:1
# cnt : 155
# AWLEN IN M DRV:1
# cnt : 156
# AWLEN IN M DRV:1
# cnt : 157
# AWLEN IN M DRV:1
# cnt : 158
# AWLEN IN M DRV:15
# cnt : 159
# AWLEN IN M DRV:1
# cnt : 160
# AWLEN IN M DRV:3
# cnt : 161
# AWLEN IN M DRV:15
# cnt : 162
# AWLEN IN M DRV:1
# cnt : 163
# AWLEN IN M DRV:1
# cnt : 164
# AWLEN IN M DRV:3
# cnt : 165
# AWLEN IN M DRV:7
# cnt : 166
# AWLEN IN M DRV:1
# cnt : 167
# AWLEN IN M DRV:1
# cnt : 168
# AWLEN IN M DRV:3
# cnt : 169
# AWLEN IN M DRV:15
# cnt : 170
# AWLEN IN M DRV:1
# cnt : 171
# AWLEN IN M DRV:1
# cnt : 172
# AWLEN IN M DRV:3
# cnt : 173
# AWLEN IN M DRV:7
# cnt : 174
# AWLEN IN M DRV:1
# cnt : 175
# AWLEN IN M DRV:3
# cnt : 176
# AWLEN IN M DRV:15
# cnt : 177
# AWLEN IN M DRV:1
# cnt : 178
# AWLEN IN M DRV:3
# cnt : 179
# AWLEN IN M DRV:1
# cnt : 180
# AWLEN IN M DRV:3
# cnt : 181
# AWLEN IN M DRV:1
# cnt : 182
# AWLEN IN M DRV:3
# cnt : 183
# AWLEN IN M DRV:3
# cnt : 184
# AWLEN IN M DRV:3
# cnt : 185
# AWLEN IN M DRV:1
# cnt : 186
# AWLEN IN M DRV:1
# cnt : 187
# AWLEN IN M DRV:7
# cnt : 188
# AWLEN IN M DRV:1
# cnt : 189
# AWLEN IN M DRV:1
# cnt : 190
# AWLEN IN M DRV:15
# cnt : 191
# AWLEN IN M DRV:1
# cnt : 192
# AWLEN IN M DRV:7
# cnt : 193
# AWLEN IN M DRV:1
# cnt : 194
# AWLEN IN M DRV:3
# cnt : 195
# AWLEN IN M DRV:3
# cnt : 196
# AWLEN IN M DRV:1
# cnt : 197
# AWLEN IN M DRV:7
# cnt : 198
# AWLEN IN M DRV:7
# cnt : 199
# AWLEN IN M DRV:15
# cnt : 200
# INIDE_SLAVE_MON_CTR=1
# arid in s mon : 60203
# m mon ar id : eb2b
# INIDE_SLAVE_MON_CTR=2
# arid in s mon : 59707
# m mon ar id : e93b
# abc : 1
# ref model mem : 2038146880
# abc : 2
# ref model mem : 2038146888
# abc : 3
# ref model mem : 2038146896
# abc : 4
# ref model mem : 2038146904
# xyz : 1
# xyz : 2
# xyz : 3
# xyz : 4
# AR ADDR IN SB : 797ba740
# INIDE_SLAVE_MON_CTR=3
# arid in s mon : 59859
# AFFTER W CHANNEL
# m mon ar id : e9d3
# match arid : 0 , rid : 0
# UVM_INFO ../env/s_agent/axi_s_drv.sv(31) @ 45: uvm_test_top.env_h.s_uvc_h.s_agent_h[0].s_drv_h [ID MATCH] aaaaa
# s seqs arid : 60203
# INIDE_SLAVE_SEQ_CTR=1
# match arid : eb2b , rid : eb2b
# UVM_INFO ../env/s_agent/axi_s_drv.sv(31) @ 45: uvm_test_top.env_h.s_uvc_h.s_agent_h[0].s_drv_h [ID MATCH] aaaaa
# rd data in s drv: e179b080 , len : 3 , last:0 , valid : 1
# INIDE_SLAVE_MON_CTR=4
# arid in s mon : 10426
# m mon ar id : 28ba
# m mon rid : eb2b
# rd data in s drv: 5ade4b3 , len : 3 , last:0 , valid : 1
# INIDE_SLAVE_MON_CTR=5
# arid in s mon : 61524
# m mon rid : eb2b
# m mon ar id : f054
# req wid : 48469 , bid:48469
# UVM_INFO ../env/m_agent/axi_base_m_seqs.sv(26) @ 65: uvm_test_top.env_h.m_uvc_h.m_agent_h[0].m_seqr_h@@vseqs_h.m_wseqs_h [IN V SEQS] Got B-channel response from driver
# rd data in s drv: 55d992b7 , len : 3 , last:0 , valid : 1
# INIDE_SLAVE_MON_CTR=6
# arid in s mon : 26459
# m mon ar id : 675b
# m mon rid : eb2b
# rd data in s drv: edb2c52b , len : 3 , last:1 , valid : 1
# abc : 1
# ref model mem : 2477720896
# abc : 2
# ref model mem : 2477720904
# abc : 3
# ref model mem : 2477720912
# abc : 4
# ref model mem : 2477720920
# xyz : 1
# xyz : 2
# xyz : 3
# xyz : 4
# AR ADDR IN SB : 93af0540
# INIDE_SLAVE_MON_CTR=7
# arid in s mon : 22357
# AFFTER W CHANNEL
# req kind : READ
# INSIDE BEORE SAMPLE
# ---------------------------------------------------
# Name            Type               Size  Value     
# ---------------------------------------------------
# axi_m_seq_item  uvm_sequence_item  -     @1998     
#   AWID          integral           16    'h0       
#   AWADDR        integral           32    'h0       
#   AWLEN         integral           8     'd0       
#   AWSIZE        integral           3     'd0       
#   AWBURST       integral           2     'd0       
#   WID           integral           16    'h0       
#   WDATA         da(integral)       0     -         
#   WSTRB         da(integral)       0     -         
#   WLAST         integral           1     'd0       
#   BID           integral           16    'h0       
#   BRESP         integral           2     'd0       
#   ARID          integral           16    'heb2b    
#   ARADDR        integral           32    'h797ba740
#   ARLEN         integral           8     'd3       
#   ARSIZE        integral           3     'd3       
#   ARBURST       integral           2     2         
#   RID           integral           16    'heb2b    
#   RDATA         da(integral)       4     -         
#     [0]         integral           32    'he179b080
#     [1]         integral           32    'h5ade4b3 
#     [2]         integral           32    'h55d992b7
#     [3]         integral           32    'hedb2c52b
#   RRESP         integral           2     'd0       
#   RLAST         integral           1     'd0       
#   burst_kind_e  burst_kind         2     FIXED     
#   kind_e        trans_kind         2     READ      
# ---------------------------------------------------
# RDATa IN SB : 3782848640 95282355 1440322231 3987916075
# m mon rid : eb2b
# m mon ar id : 5755
# UVM_INFO ../env/axi_sb.sv(82) @ 85: uvm_test_top.env_h.sb_h [after event in sb] aaaa
# UVM_INFO ../env/axi_sb.sv(80) @ 85: uvm_test_top.env_h.sb_h [before event in sb] aaaa
# match arid : 0 , rid : 0
# UVM_INFO ../env/s_agent/axi_s_drv.sv(31) @ 85: uvm_test_top.env_h.s_uvc_h.s_agent_h[0].s_drv_h [ID MATCH] aaaaa
# s seqs arid : 59707
# INIDE_SLAVE_SEQ_CTR=2
# match arid : e93b , rid : e93b
# UVM_INFO ../env/s_agent/axi_s_drv.sv(31) @ 85: uvm_test_top.env_h.s_uvc_h.s_agent_h[0].s_drv_h [ID MATCH] aaaaa
# rd data in s drv: 766d2096 , len : 3 , last:0 , valid : 1
# INIDE_SLAVE_MON_CTR=8
# arid in s mon : 58966
# m mon ar id : e656
# m mon rid : e93b
# rd data in s drv: c6d5f5ef , len : 3 , last:0 , valid : 1
# abc : 1
# ref model mem : 3840134672
# abc : 2
# ref model mem : 3840134680
# xyz : 1
# xyz : 2
# AR ADDR IN SB : e4e3ce10
# INIDE_SLAVE_MON_CTR=9
# arid in s mon : 64759
# AFFTER W CHANNEL
# m mon rid : e93b
# m mon ar id : fcf7
# req wid : 48924 , bid:48924
# UVM_INFO ../env/m_agent/axi_base_m_seqs.sv(26) @ 105: uvm_test_top.env_h.m_uvc_h.m_agent_h[0].m_seqr_h@@vseqs_h.m_wseqs_h [IN V SEQS] Got B-channel response from driver
# match arid : 0 , rid : 0
# UVM_INFO ../env/s_agent/axi_s_drv.sv(31) @ 105: uvm_test_top.env_h.s_uvc_h.s_agent_h[0].s_drv_h [ID MATCH] aaaaa
# s seqs arid : 59859
# INIDE_SLAVE_SEQ_CTR=3
# match arid : e9d3 , rid : e9d3
# UVM_INFO ../env/s_agent/axi_s_drv.sv(31) @ 105: uvm_test_top.env_h.s_uvc_h.s_agent_h[0].s_drv_h [ID MATCH] aaaaa
# rd data in s drv: b8665e42 , len : 3 , last:0 , valid : 1
# INIDE_SLAVE_MON_CTR=10
# arid in s mon : 43156
# m mon ar id : a894
# m mon rid : e93b
# rd data in s drv: eaba05fa , len : 3 , last:1 , valid : 1
# abc : 1
# ref model mem : 1466994416
# abc : 2
# ref model mem : 1466994424
# xyz : 1
# xyz : 2
# AR ADDR IN SB : 57708ef0
# INIDE_SLAVE_MON_CTR=11
# arid in s mon : 52439
# AFFTER W CHANNEL
# req kind : READ
# INSIDE BEORE SAMPLE
# ---------------------------------------------------
# Name            Type               Size  Value     
# ---------------------------------------------------
# axi_m_seq_item  uvm_sequence_item  -     @2018     
#   AWID          integral           16    'h0       
#   AWADDR        integral           32    'h0       
#   AWLEN         integral           8     'd0       
#   AWSIZE        integral           3     'd0       
#   AWBURST       integral           2     'd0       
#   WID           integral           16    'h0       
#   WDATA         da(integral)       0     -         
#   WSTRB         da(integral)       0     -         
#   WLAST         integral           1     'd0       
#   BID           integral           16    'h0       
#   BRESP         integral           2     'd0       
#   ARID          integral           16    'he93b    
#   ARADDR        integral           32    'h93af0540
#   ARLEN         integral           8     'd3       
#   ARSIZE        integral           3     'd3       
#   ARBURST       integral           2     2         
#   RID           integral           16    'he93b    
#   RDATA         da(integral)       4     -         
#     [0]         integral           32    'h766d2096
#     [1]         integral           32    'hc6d5f5ef
#     [2]         integral           32    'hb8665e42
#     [3]         integral           32    'heaba05fa
#   RRESP         integral           2     'd0       
#   RLAST         integral           1     'd0       
#   burst_kind_e  burst_kind         2     FIXED     
#   kind_e        trans_kind         2     READ      
# ---------------------------------------------------
# RDATa IN SB : 1986863254 3335910895 3093716546 3938059770
# m mon rid : e93b
# m mon ar id : ccd7
# req wid : 11091 , bid:11091
# UVM_INFO ../env/m_agent/axi_base_m_seqs.sv(26) @ 125: uvm_test_top.env_h.m_uvc_h.m_agent_h[0].m_seqr_h@@vseqs_h.m_wseqs_h [IN V SEQS] Got B-channel response from driver
# UVM_INFO ../env/axi_sb.sv(82) @ 125: uvm_test_top.env_h.sb_h [after event in sb] aaaa
# UVM_INFO ../env/axi_sb.sv(80) @ 125: uvm_test_top.env_h.sb_h [before event in sb] aaaa
# match arid : 0 , rid : 0
# UVM_INFO ../env/s_agent/axi_s_drv.sv(31) @ 125: uvm_test_top.env_h.s_uvc_h.s_agent_h[0].s_drv_h [ID MATCH] aaaaa
# s seqs arid : 10426
# INIDE_SLAVE_SEQ_CTR=4
# match arid : 28ba , rid : 28ba
# UVM_INFO ../env/s_agent/axi_s_drv.sv(31) @ 125: uvm_test_top.env_h.s_uvc_h.s_agent_h[0].s_drv_h [ID MATCH] aaaaa
# rd data in s drv: 4542837f , len : 1 , last:0 , valid : 1
# INIDE_SLAVE_MON_CTR=12
# arid in s mon : 4905
# m mon ar id : 1329
# m mon rid : e9d3
# rd data in s drv: 3b27ee47 , len : 1 , last:1 , valid : 1
# INIDE_SLAVE_MON_CTR=13
# arid in s mon : 35577
# req kind : READ
# INSIDE BEORE SAMPLE
# ---------------------------------------------------
# Name            Type               Size  Value     
# ---------------------------------------------------
# axi_m_seq_item  uvm_sequence_item  -     @2054     
#   AWID          integral           16    'h0       
#   AWADDR        integral           32    'h0       
#   AWLEN         integral           8     'd0       
#   AWSIZE        integral           3     'd0       
#   AWBURST       integral           2     'd0       
#   WID           integral           16    'h0       
#   WDATA         da(integral)       0     -         
#   WSTRB         da(integral)       0     -         
#   WLAST         integral           1     'd0       
#   BID           integral           16    'h0       
#   BRESP         integral           2     'd0       
#   ARID          integral           16    'he9d3    
#   ARADDR        integral           32    'he4e3ce10
#   ARLEN         integral           8     'd1       
#   ARSIZE        integral           3     'd3       
#   ARBURST       integral           2     2         
#   RID           integral           16    'he9d3    
#   RDATA         da(integral)       2     -         
#     [0]         integral           32    'h4542837f
#     [1]         integral           32    'h3b27ee47
#   RRESP         integral           2     'd0       
#   RLAST         integral           1     'd0       
#   burst_kind_e  burst_kind         2     FIXED     
#   kind_e        trans_kind         2     READ      
# ---------------------------------------------------
# RDATa IN SB : 1161986943 992472647
# m mon rid : e9d3
# m mon ar id : 8af9
# req wid : 42546 , bid:42546
# UVM_INFO ../env/m_agent/axi_base_m_seqs.sv(26) @ 145: uvm_test_top.env_h.m_uvc_h.m_agent_h[0].m_seqr_h@@vseqs_h.m_wseqs_h [IN V SEQS] Got B-channel response from driver
# UVM_INFO ../env/axi_sb.sv(82) @ 145: uvm_test_top.env_h.sb_h [after event in sb] aaaa
# UVM_INFO ../env/axi_sb.sv(80) @ 145: uvm_test_top.env_h.sb_h [before event in sb] aaaa
# rd data in s drv: 7ef31ad8 , len : 1 , last:0 , valid : 1
# INIDE_SLAVE_MON_CTR=14
# arid in s mon : 25219
# m mon ar id : 6283
# m mon rid : 28ba
# rd data in s drv: 400041b1 , len : 1 , last:1 , valid : 1
# INIDE_SLAVE_MON_CTR=15
# arid in s mon : 47995
# req kind : READ
# INSIDE BEORE SAMPLE
# ---------------------------------------------------
# Name            Type               Size  Value     
# ---------------------------------------------------
# axi_m_seq_item  uvm_sequence_item  -     @2083     
#   AWID          integral           16    'h0       
#   AWADDR        integral           32    'h0       
#   AWLEN         integral           8     'd0       
#   AWSIZE        integral           3     'd0       
#   AWBURST       integral           2     'd0       
#   WID           integral           16    'h0       
#   WDATA         da(integral)       0     -         
#   WSTRB         da(integral)       0     -         
#   WLAST         integral           1     'd0       
#   BID           integral           16    'h0       
#   BRESP         integral           2     'd0       
#   ARID          integral           16    'h28ba    
#   ARADDR        integral           32    'h57708ef0
#   ARLEN         integral           8     'd1       
#   ARSIZE        integral           3     'd3       
#   ARBURST       integral           2     2         
#   RID           integral           16    'h28ba    
#   RDATA         da(integral)       2     -         
#     [0]         integral           32    'h7ef31ad8
#     [1]         integral           32    'h400041b1
#   RRESP         integral           2     'd0       
#   RLAST         integral           1     'd0       
#   burst_kind_e  burst_kind         2     FIXED     
#   kind_e        trans_kind         2     READ      
# ---------------------------------------------------
# RDATa IN SB : 2129861336 1073758641
# m mon rid : 28ba
# m mon ar id : bb7b
# UVM_INFO ../env/axi_sb.sv(82) @ 165: uvm_test_top.env_h.sb_h [after event in sb] aaaa
# UVM_INFO ../env/axi_sb.sv(80) @ 165: uvm_test_top.env_h.sb_h [before event in sb] aaaa
# INIDE_SLAVE_MON_CTR=16
# arid in s mon : 51276
# m mon ar id : c84c
# INIDE_SLAVE_MON_CTR=17
# arid in s mon : 44353
# m mon ar id : ad41
# INIDE_SLAVE_MON_CTR=18
# arid in s mon : 34273
# m mon ar id : 85e1
# abc : 1
# ref model mem : 547683968
# abc : 2
# ref model mem : 547683976
# abc : 3
# ref model mem : 547683984
# abc : 4
# ref model mem : 547683992
# abc : 5
# ref model mem : 547684000
# abc : 6
# ref model mem : 547684008
# abc : 7
# ref model mem : 547684016
# abc : 8
# ref model mem : 547684024
# xyz : 1
# xyz : 2
# xyz : 3
# xyz : 4
# xyz : 5
# xyz : 6
# xyz : 7
# xyz : 8
# AR ADDR IN SB : 20a4fe80
# INIDE_SLAVE_MON_CTR=19
# arid in s mon : 40878
# AFFTER W CHANNEL
# m mon ar id : 9fae
# match arid : 0 , rid : 0
# UVM_INFO ../env/s_agent/axi_s_drv.sv(31) @ 205: uvm_test_top.env_h.s_uvc_h.s_agent_h[0].s_drv_h [ID MATCH] aaaaa
# s seqs arid : 61524
# INIDE_SLAVE_SEQ_CTR=5
# match arid : f054 , rid : f054
# UVM_INFO ../env/s_agent/axi_s_drv.sv(31) @ 205: uvm_test_top.env_h.s_uvc_h.s_agent_h[0].s_drv_h [ID MATCH] aaaaa
# rd data in s drv: 90e411e0 , len : 7 , last:0 , valid : 1
# INIDE_SLAVE_MON_CTR=20
# arid in s mon : 65033
# m mon ar id : fe09
# m mon rid : f054
# rd data in s drv: 7c5cf680 , len : 7 , last:0 , valid : 1
# INIDE_SLAVE_MON_CTR=21
# arid in s mon : 39064
# m mon rid : f054
# m mon ar id : 9898
# req wid : 32817 , bid:32817
# UVM_INFO ../env/m_agent/axi_base_m_seqs.sv(26) @ 225: uvm_test_top.env_h.m_uvc_h.m_agent_h[0].m_seqr_h@@vseqs_h.m_wseqs_h [IN V SEQS] Got B-channel response from driver
# rd data in s drv: cdcb11b4 , len : 7 , last:0 , valid : 1
# INIDE_SLAVE_MON_CTR=22
# arid in s mon : 62773
# m mon ar id : f535
# m mon rid : f054
# rd data in s drv: e77068cf , len : 7 , last:0 , valid : 1
# INIDE_SLAVE_MON_CTR=23
# arid in s mon : 60350
# m mon rid : f054
# m mon ar id : ebbe
# rd data in s drv: e748098f , len : 7 , last:0 , valid : 1
# INIDE_SLAVE_MON_CTR=24
# arid in s mon : 45043
# m mon ar id : aff3
# m mon rid : f054
# rd data in s drv: bda1c34e , len : 7 , last:0 , valid : 1
# INIDE_SLAVE_MON_CTR=25
# arid in s mon : 15796
# m mon rid : f054
# m mon ar id : 3db4
# rd data in s drv: 21d79332 , len : 7 , last:0 , valid : 1
# INIDE_SLAVE_MON_CTR=26
# arid in s mon : 64427
# m mon ar id : fbab
# m mon rid : f054
# rd data in s drv: 5e2db49 , len : 7 , last:1 , valid : 1
# INIDE_SLAVE_MON_CTR=27
# arid in s mon : 15132
# req kind : READ
# INSIDE BEORE SAMPLE
# ---------------------------------------------------
# Name            Type               Size  Value     
# ---------------------------------------------------
# axi_m_seq_item  uvm_sequence_item  -     @2123     
#   AWID          integral           16    'h0       
#   AWADDR        integral           32    'h0       
#   AWLEN         integral           8     'd0       
#   AWSIZE        integral           3     'd0       
#   AWBURST       integral           2     'd0       
#   WID           integral           16    'h0       
#   WDATA         da(integral)       0     -         
#   WSTRB         da(integral)       0     -         
#   WLAST         integral           1     'd0       
#   BID           integral           16    'h0       
#   BRESP         integral           2     'd0       
#   ARID          integral           16    'hf054    
#   ARADDR        integral           32    'h20a4fe80
#   ARLEN         integral           8     'd7       
#   ARSIZE        integral           3     'd3       
#   ARBURST       integral           2     2         
#   RID           integral           16    'hf054    
#   RDATA         da(integral)       8     -         
#     [0]         integral           32    'h90e411e0
#     [1]         integral           32    'h7c5cf680
#     [2]         integral           32    'hcdcb11b4
#     [3]         integral           32    'he77068cf
#     [4]         integral           32    'he748098f
#     [5]         integral           32    'hbda1c34e
#     [6]         integral           32    'h21d79332
#     [7]         integral           32    'h5e2db49 
#   RRESP         integral           2     'd0       
#   RLAST         integral           1     'd0       
#   burst_kind_e  burst_kind         2     FIXED     
#   kind_e        trans_kind         2     READ      
# ---------------------------------------------------
# RDATa IN SB : 2430865888 2086467200 3452637620 3882903759 3880257935 3181495118 567776050 98753353
# m mon rid : f054
# m mon ar id : 3b1c
# UVM_INFO ../env/axi_sb.sv(82) @ 285: uvm_test_top.env_h.sb_h [after event in sb] aaaa
# UVM_INFO ../env/axi_sb.sv(80) @ 285: uvm_test_top.env_h.sb_h [before event in sb] aaaa
# INIDE_SLAVE_MON_CTR=28
# arid in s mon : 25003
# m mon ar id : 61ab
# INIDE_SLAVE_MON_CTR=29
# arid in s mon : 51408
# m mon ar id : c8d0
# INIDE_SLAVE_MON_CTR=30
# arid in s mon : 29970
# m mon ar id : 7512
# INIDE_SLAVE_MON_CTR=31
# arid in s mon : 11395
# m mon ar id : 2c83
# INIDE_SLAVE_MON_CTR=32
# arid in s mon : 43166
# m mon ar id : a89e
# INIDE_SLAVE_MON_CTR=33
# arid in s mon : 11187
# m mon ar id : 2bb3
# INIDE_SLAVE_MON_CTR=34
# arid in s mon : 5180
# m mon ar id : 143c
# abc : 1
# ref model mem : 1956180096
# abc : 2
# ref model mem : 1956180104
# abc : 3
# ref model mem : 1956180112
# abc : 4
# ref model mem : 1956180120
# abc : 5
# ref model mem : 1956180128
# abc : 6
# ref model mem : 1956180136
# abc : 7
# ref model mem : 1956180144
# abc : 8
# ref model mem : 1956180152
# abc : 9
# ref model mem : 1956180160
# abc : 10
# ref model mem : 1956180168
# abc : 11
# ref model mem : 1956180176
# abc : 12
# ref model mem : 1956180184
# abc : 13
# ref model mem : 1956180192
# abc : 14
# ref model mem : 1956180200
# abc : 15
# ref model mem : 1956180208
# abc : 16
# ref model mem : 1956180216
# xyz : 1
# xyz : 2
# xyz : 3
# xyz : 4
# xyz : 5
# xyz : 6
# xyz : 7
# xyz : 8
# xyz : 9
# xyz : 10
# xyz : 11
# xyz : 12
# xyz : 13
# xyz : 14
# xyz : 15
# xyz : 16
# AR ADDR IN SB : 7498f080
# INIDE_SLAVE_MON_CTR=35
# arid in s mon : 33047
# AFFTER W CHANNEL
# m mon ar id : 8117
# match arid : 0 , rid : 0
# UVM_INFO ../env/s_agent/axi_s_drv.sv(31) @ 365: uvm_test_top.env_h.s_uvc_h.s_agent_h[0].s_drv_h [ID MATCH] aaaaa
# s seqs arid : 26459
# INIDE_SLAVE_SEQ_CTR=6
# match arid : 675b , rid : 675b
# UVM_INFO ../env/s_agent/axi_s_drv.sv(31) @ 365: uvm_test_top.env_h.s_uvc_h.s_agent_h[0].s_drv_h [ID MATCH] aaaaa
# rd data in s drv: e692a955 , len : 15 , last:0 , valid : 1
# INIDE_SLAVE_MON_CTR=36
# arid in s mon : 41870
# m mon ar id : a38e
# m mon rid : 675b
# rd data in s drv: 5e5d6ae8 , len : 15 , last:0 , valid : 1
# abc : 1
# ref model mem : 4240419552
# abc : 2
# ref model mem : 4240419560
# xyz : 1
# xyz : 2
# AR ADDR IN SB : fcbfaae0
# INIDE_SLAVE_MON_CTR=37
# arid in s mon : 14176
# AFFTER W CHANNEL
# m mon rid : 675b
# m mon ar id : 3760
# req wid : 64272 , bid:64272
# UVM_INFO ../env/m_agent/axi_base_m_seqs.sv(26) @ 385: uvm_test_top.env_h.m_uvc_h.m_agent_h[0].m_seqr_h@@vseqs_h.m_wseqs_h [IN V SEQS] Got B-channel response from driver
# match arid : 0 , rid : 0
# UVM_INFO ../env/s_agent/axi_s_drv.sv(31) @ 385: uvm_test_top.env_h.s_uvc_h.s_agent_h[0].s_drv_h [ID MATCH] aaaaa
# s seqs arid : 22357
# INIDE_SLAVE_SEQ_CTR=7
# match arid : 5755 , rid : 5755
# UVM_INFO ../env/s_agent/axi_s_drv.sv(31) @ 385: uvm_test_top.env_h.s_uvc_h.s_agent_h[0].s_drv_h [ID MATCH] aaaaa
# rd data in s drv: 2e5cdf84 , len : 15 , last:0 , valid : 1
# INIDE_SLAVE_MON_CTR=38
# arid in s mon : 15499
# m mon ar id : 3c8b
# m mon rid : 675b
# rd data in s drv: 85dca7b4 , len : 15 , last:0 , valid : 1
# INIDE_SLAVE_MON_CTR=39
# arid in s mon : 29379
# m mon rid : 675b
# m mon ar id : 72c3
# req wid : 48097 , bid:48097
# UVM_INFO ../env/m_agent/axi_base_m_seqs.sv(26) @ 405: uvm_test_top.env_h.m_uvc_h.m_agent_h[0].m_seqr_h@@vseqs_h.m_wseqs_h [IN V SEQS] Got B-channel response from driver
# rd data in s drv: a29faa36 , len : 15 , last:0 , valid : 1
# INIDE_SLAVE_MON_CTR=40
# arid in s mon : 11568
# m mon ar id : 2d30
# m mon rid : 675b
# rd data in s drv: d6eb0a92 , len : 15 , last:0 , valid : 1
# INIDE_SLAVE_MON_CTR=41
# arid in s mon : 16179
# m mon rid : 675b
# m mon ar id : 3f33
# rd data in s drv: e73ddebe , len : 15 , last:0 , valid : 1
# INIDE_SLAVE_MON_CTR=42
# arid in s mon : 60092
# m mon ar id : eabc
# m mon rid : 675b
# rd data in s drv: de58f65a , len : 15 , last:0 , valid : 1
# INIDE_SLAVE_MON_CTR=43
# arid in s mon : 36315
# m mon rid : 675b
# m mon ar id : 8ddb
# rd data in s drv: c4621ac7 , len : 15 , last:0 , valid : 1
# INIDE_SLAVE_MON_CTR=44
# arid in s mon : 5087
# m mon ar id : 13df
# m mon rid : 675b
# rd data in s drv: 39ddeae8 , len : 15 , last:0 , valid : 1
# INIDE_SLAVE_MON_CTR=45
# arid in s mon : 47476
# m mon rid : 675b
# m mon ar id : b974
# rd data in s drv: 9dd4f93e , len : 15 , last:0 , valid : 1
# INIDE_SLAVE_MON_CTR=46
# arid in s mon : 36504
# m mon ar id : 8e98
# m mon rid : 675b
# rd data in s drv: a19d830f , len : 15 , last:0 , valid : 1
# INIDE_SLAVE_MON_CTR=47
# arid in s mon : 22723
# m mon rid : 675b
# m mon ar id : 58c3
# rd data in s drv: 8714b927 , len : 15 , last:0 , valid : 1
# INIDE_SLAVE_MON_CTR=48
# arid in s mon : 50465
# m mon ar id : c521
# m mon rid : 675b
# rd data in s drv: 4e6f6152 , len : 15 , last:0 , valid : 1
# INIDE_SLAVE_MON_CTR=49
# arid in s mon : 9563
# m mon rid : 675b
# m mon ar id : 255b
# rd data in s drv: 83b164bb , len : 15 , last:0 , valid : 1
# INIDE_SLAVE_MON_CTR=50
# arid in s mon : 12754
# m mon ar id : 31d2
# m mon rid : 675b
# rd data in s drv: b2e22138 , len : 15 , last:1 , valid : 1
# INIDE_SLAVE_MON_CTR=51
# arid in s mon : 32108
# req kind : READ
# INSIDE BEORE SAMPLE
# ---------------------------------------------------
# Name            Type               Size  Value     
# ---------------------------------------------------
# axi_m_seq_item  uvm_sequence_item  -     @2155     
#   AWID          integral           16    'h0       
#   AWADDR        integral           32    'h0       
#   AWLEN         integral           8     'd0       
#   AWSIZE        integral           3     'd0       
#   AWBURST       integral           2     'd0       
#   WID           integral           16    'h0       
#   WDATA         da(integral)       0     -         
#   WSTRB         da(integral)       0     -         
#   WLAST         integral           1     'd0       
#   BID           integral           16    'h0       
#   BRESP         integral           2     'd0       
#   ARID          integral           16    'h675b    
#   ARADDR        integral           32    'h7498f080
#   ARLEN         integral           8     'd15      
#   ARSIZE        integral           3     'd3       
#   ARBURST       integral           2     2         
#   RID           integral           16    'h675b    
#   RDATA         da(integral)       16    -         
#     [0]         integral           32    'he692a955
#     [1]         integral           32    'h5e5d6ae8
#     [2]         integral           32    'h2e5cdf84
#     [3]         integral           32    'h85dca7b4
#     [4]         integral           32    'ha29faa36
#     ...         ...                ...   ...       
#     [11]        integral           32    'ha19d830f
#     [12]        integral           32    'h8714b927
#     [13]        integral           32    'h4e6f6152
#     [14]        integral           32    'h83b164bb
#     [15]        integral           32    'hb2e22138
#   RRESP         integral           2     'd0       
#   RLAST         integral           1     'd0       
#   burst_kind_e  burst_kind         2     FIXED     
#   kind_e        trans_kind         2     READ      
# ---------------------------------------------------
# RDATa IN SB : 3868371285 1583180520 777838468 2245830580 2728372790 3605727890 3879591614 3730372186 3294763719 970844904 2647980350 2711454479 2266282279 1315922258 2209440955 3001164088
# m mon rid : 675b
# m mon ar id : 7d6c
# UVM_INFO ../env/axi_sb.sv(82) @ 525: uvm_test_top.env_h.sb_h [after event in sb] aaaa
# UVM_INFO ../env/axi_sb.sv(80) @ 525: uvm_test_top.env_h.sb_h [before event in sb] aaaa
# rd data in s drv: 2b2d318 , len : 1 , last:0 , valid : 1
# INIDE_SLAVE_MON_CTR=52
# arid in s mon : 12915
# m mon ar id : 3273
# m mon rid : 5755
# rd data in s drv: 372f0987 , len : 1 , last:1 , valid : 1
# abc : 1
# ref model mem : 3657785472
# abc : 2
# ref model mem : 3657785480
# abc : 3
# ref model mem : 3657785488
# abc : 4
# ref model mem : 3657785496
# abc : 5
# ref model mem : 3657785504
# abc : 6
# ref model mem : 3657785512
# abc : 7
# ref model mem : 3657785520
# abc : 8
# ref model mem : 3657785528
# abc : 9
# ref model mem : 3657785536
# abc : 10
# ref model mem : 3657785544
# abc : 11
# ref model mem : 3657785552
# abc : 12
# ref model mem : 3657785560
# abc : 13
# ref model mem : 3657785568
# abc : 14
# ref model mem : 3657785576
# abc : 15
# ref model mem : 3657785584
# abc : 16
# ref model mem : 3657785592
# xyz : 1
# xyz : 2
# xyz : 3
# xyz : 4
# xyz : 5
# xyz : 6
# xyz : 7
# xyz : 8
# xyz : 9
# xyz : 10
# xyz : 11
# xyz : 12
# xyz : 13
# xyz : 14
# xyz : 15
# xyz : 16
# AR ADDR IN SB : da056080
# INIDE_SLAVE_MON_CTR=53
# arid in s mon : 58420
# AFFTER W CHANNEL
# req kind : READ
# INSIDE BEORE SAMPLE
# ---------------------------------------------------
# Name            Type               Size  Value     
# ---------------------------------------------------
# axi_m_seq_item  uvm_sequence_item  -     @2203     
#   AWID          integral           16    'h0       
#   AWADDR        integral           32    'h0       
#   AWLEN         integral           8     'd0       
#   AWSIZE        integral           3     'd0       
#   AWBURST       integral           2     'd0       
#   WID           integral           16    'h0       
#   WDATA         da(integral)       0     -         
#   WSTRB         da(integral)       0     -         
#   WLAST         integral           1     'd0       
#   BID           integral           16    'h0       
#   BRESP         integral           2     'd0       
#   ARID          integral           16    'h5755    
#   ARADDR        integral           32    'hfcbfaae0
#   ARLEN         integral           8     'd1       
#   ARSIZE        integral           3     'd3       
#   ARBURST       integral           2     2         
#   RID           integral           16    'h5755    
#   RDATA         da(integral)       2     -         
#     [0]         integral           32    'h2b2d318 
#     [1]         integral           32    'h372f0987
#   RRESP         integral           2     'd0       
#   RLAST         integral           1     'd0       
#   burst_kind_e  burst_kind         2     FIXED     
#   kind_e        trans_kind         2     READ      
# ---------------------------------------------------
# RDATa IN SB : 45273880 925829511
# m mon rid : 5755
# m mon ar id : e434
# UVM_INFO ../env/axi_sb.sv(82) @ 545: uvm_test_top.env_h.sb_h [after event in sb] aaaa
# UVM_INFO ../env/axi_sb.sv(80) @ 545: uvm_test_top.env_h.sb_h [before event in sb] aaaa
# match arid : 0 , rid : 0
# UVM_INFO ../env/s_agent/axi_s_drv.sv(31) @ 545: uvm_test_top.env_h.s_uvc_h.s_agent_h[0].s_drv_h [ID MATCH] aaaaa
# s seqs arid : 58966
# INIDE_SLAVE_SEQ_CTR=8
# match arid : e656 , rid : e656
# UVM_INFO ../env/s_agent/axi_s_drv.sv(31) @ 545: uvm_test_top.env_h.s_uvc_h.s_agent_h[0].s_drv_h [ID MATCH] aaaaa
# rd data in s drv: d7aab9f7 , len : 15 , last:0 , valid : 1
# INIDE_SLAVE_MON_CTR=54
# arid in s mon : 21916
# m mon ar id : 559c
# m mon rid : e656
# rd data in s drv: baee7d8 , len : 15 , last:0 , valid : 1
# abc : 1
# ref model mem : 438253536
# abc : 2
# ref model mem : 438253544
# xyz : 1
# xyz : 2
# AR ADDR IN SB : 1a1f37e0
# INIDE_SLAVE_MON_CTR=55
# arid in s mon : 31141
# AFFTER W CHANNEL
# m mon rid : e656
# m mon ar id : 79a5
# req wid : 48149 , bid:48149
# UVM_INFO ../env/m_agent/axi_base_m_seqs.sv(26) @ 565: uvm_test_top.env_h.m_uvc_h.m_agent_h[0].m_seqr_h@@vseqs_h.m_wseqs_h [IN V SEQS] Got B-channel response from driver
# match arid : 0 , rid : 0
# UVM_INFO ../env/s_agent/axi_s_drv.sv(31) @ 565: uvm_test_top.env_h.s_uvc_h.s_agent_h[0].s_drv_h [ID MATCH] aaaaa
# s seqs arid : 64759
# INIDE_SLAVE_SEQ_CTR=9
# match arid : fcf7 , rid : fcf7
# UVM_INFO ../env/s_agent/axi_s_drv.sv(31) @ 565: uvm_test_top.env_h.s_uvc_h.s_agent_h[0].s_drv_h [ID MATCH] aaaaa
# rd data in s drv: e174315a , len : 15 , last:0 , valid : 1
# INIDE_SLAVE_MON_CTR=56
# arid in s mon : 36107
# m mon ar id : 8d0b
# m mon rid : e656
# rd data in s drv: 502c68b6 , len : 15 , last:0 , valid : 1
# INIDE_SLAVE_MON_CTR=57
# arid in s mon : 65117
# m mon rid : e656
# m mon ar id : fe5d
# req wid : 23496 , bid:23496
# UVM_INFO ../env/m_agent/axi_base_m_seqs.sv(26) @ 585: uvm_test_top.env_h.m_uvc_h.m_agent_h[0].m_seqr_h@@vseqs_h.m_wseqs_h [IN V SEQS] Got B-channel response from driver
# rd data in s drv: ed58a3a5 , len : 15 , last:0 , valid : 1
# INIDE_SLAVE_MON_CTR=58
# arid in s mon : 21315
# m mon ar id : 5343
# m mon rid : e656
# rd data in s drv: 7e7bdfcc , len : 15 , last:0 , valid : 1
# INIDE_SLAVE_MON_CTR=59
# arid in s mon : 58658
# m mon rid : e656
# m mon ar id : e522
# rd data in s drv: 2e9bb6b1 , len : 15 , last:0 , valid : 1
# INIDE_SLAVE_MON_CTR=60
# arid in s mon : 55026
# m mon ar id : d6f2
# m mon rid : e656
# rd data in s drv: 835229c2 , len : 15 , last:0 , valid : 1
# INIDE_SLAVE_MON_CTR=61
# arid in s mon : 30931
# m mon rid : e656
# m mon ar id : 78d3
# rd data in s drv: dd947ef8 , len : 15 , last:0 , valid : 1
# INIDE_SLAVE_MON_CTR=62
# arid in s mon : 21841
# m mon ar id : 5551
# m mon rid : e656
# rd data in s drv: 61b0b002 , len : 15 , last:0 , valid : 1
# abc : 1
# ref model mem : 280709120
# abc : 2
# ref model mem : 280709128
# abc : 3
# ref model mem : 280709136
# abc : 4
# ref model mem : 280709144
# abc : 5
# ref model mem : 280709152
# abc : 6
# ref model mem : 280709160
# abc : 7
# ref model mem : 280709168
# abc : 8
# ref model mem : 280709176
# xyz : 1
# xyz : 2
# xyz : 3
# xyz : 4
# xyz : 5
# xyz : 6
# xyz : 7
# xyz : 8
# AR ADDR IN SB : 10bb4800
# INIDE_SLAVE_MON_CTR=63
# arid in s mon : 5800
# AFFTER W CHANNEL
# m mon rid : e656
# m mon ar id : 16a8
# match arid : 0 , rid : 0
# UVM_INFO ../env/s_agent/axi_s_drv.sv(31) @ 645: uvm_test_top.env_h.s_uvc_h.s_agent_h[0].s_drv_h [ID MATCH] aaaaa
# s seqs arid : 43156
# INIDE_SLAVE_SEQ_CTR=10
# match arid : a894 , rid : a894
# UVM_INFO ../env/s_agent/axi_s_drv.sv(31) @ 645: uvm_test_top.env_h.s_uvc_h.s_agent_h[0].s_drv_h [ID MATCH] aaaaa
# rd data in s drv: 1c85404 , len : 15 , last:0 , valid : 1
# INIDE_SLAVE_MON_CTR=64
# arid in s mon : 56378
# m mon ar id : dc3a
# m mon rid : e656
# rd data in s drv: 98d23d04 , len : 15 , last:0 , valid : 1
# INIDE_SLAVE_MON_CTR=65
# arid in s mon : 43113
# m mon rid : e656
# m mon ar id : a869
# req wid : 53607 , bid:53607
# UVM_INFO ../env/m_agent/axi_base_m_seqs.sv(26) @ 665: uvm_test_top.env_h.m_uvc_h.m_agent_h[0].m_seqr_h@@vseqs_h.m_wseqs_h [IN V SEQS] Got B-channel response from driver
# rd data in s drv: 878b1739 , len : 15 , last:0 , valid : 1
# INIDE_SLAVE_MON_CTR=66
# arid in s mon : 31737
# m mon ar id : 7bf9
# m mon rid : e656
# rd data in s drv: 73c26990 , len : 15 , last:0 , valid : 1
# INIDE_SLAVE_MON_CTR=67
# arid in s mon : 34398
# m mon rid : e656
# m mon ar id : 865e
# rd data in s drv: dd8e62b8 , len : 15 , last:0 , valid : 1
# INIDE_SLAVE_MON_CTR=68
# arid in s mon : 20639
# m mon ar id : 509f
# m mon rid : e656
# rd data in s drv: 70590f2 , len : 15 , last:1 , valid : 1
# INIDE_SLAVE_MON_CTR=69
# arid in s mon : 43133
# req kind : READ
# INSIDE BEORE SAMPLE
# ---------------------------------------------------
# Name            Type               Size  Value     
# ---------------------------------------------------
# axi_m_seq_item  uvm_sequence_item  -     @2255     
#   AWID          integral           16    'h0       
#   AWADDR        integral           32    'h0       
#   AWLEN         integral           8     'd0       
#   AWSIZE        integral           3     'd0       
#   AWBURST       integral           2     'd0       
#   WID           integral           16    'h0       
#   WDATA         da(integral)       0     -         
#   WSTRB         da(integral)       0     -         
#   WLAST         integral           1     'd0       
#   BID           integral           16    'h0       
#   BRESP         integral           2     'd0       
#   ARID          integral           16    'he656    
#   ARADDR        integral           32    'hda056080
#   ARLEN         integral           8     'd15      
#   ARSIZE        integral           3     'd3       
#   ARBURST       integral           2     2         
#   RID           integral           16    'he656    
#   RDATA         da(integral)       16    -         
#     [0]         integral           32    'hd7aab9f7
#     [1]         integral           32    'hbaee7d8 
#     [2]         integral           32    'he174315a
#     [3]         integral           32    'h502c68b6
#     [4]         integral           32    'hed58a3a5
#     ...         ...                ...   ...       
#     [11]        integral           32    'h98d23d04
#     [12]        integral           32    'h878b1739
#     [13]        integral           32    'h73c26990
#     [14]        integral           32    'hdd8e62b8
#     [15]        integral           32    'h70590f2 
#   RRESP         integral           2     'd0       
#   RLAST         integral           1     'd0       
#   burst_kind_e  burst_kind         2     FIXED     
#   kind_e        trans_kind         2     READ      
# ---------------------------------------------------
# RDATa IN SB : 3618290167 196011992 3782488410 1345087670 3982009253 2122047436 781956785 2203199938 3717496568 1638969346 29905924 2563915012 2274039609 1942120848 3717096120 117805298
# m mon rid : e656
# m mon ar id : a87d
# UVM_INFO ../env/axi_sb.sv(82) @ 705: uvm_test_top.env_h.sb_h [after event in sb] aaaa
# UVM_INFO ../env/axi_sb.sv(80) @ 705: uvm_test_top.env_h.sb_h [before event in sb] aaaa
# rd data in s drv: 8ab6c3a2 , len : 1 , last:0 , valid : 1
# INIDE_SLAVE_MON_CTR=70
# arid in s mon : 54666
# m mon ar id : d58a
# m mon rid : fcf7
# rd data in s drv: 316470ff , len : 1 , last:1 , valid : 1
# INIDE_SLAVE_MON_CTR=71
# arid in s mon : 2480
# req kind : READ
# INSIDE BEORE SAMPLE
# ---------------------------------------------------
# Name            Type               Size  Value     
# ---------------------------------------------------
# axi_m_seq_item  uvm_sequence_item  -     @2311     
#   AWID          integral           16    'h0       
#   AWADDR        integral           32    'h0       
#   AWLEN         integral           8     'd0       
#   AWSIZE        integral           3     'd0       
#   AWBURST       integral           2     'd0       
#   WID           integral           16    'h0       
#   WDATA         da(integral)       0     -         
#   WSTRB         da(integral)       0     -         
#   WLAST         integral           1     'd0       
#   BID           integral           16    'h0       
#   BRESP         integral           2     'd0       
#   ARID          integral           16    'hfcf7    
#   ARADDR        integral           32    'h1a1f37e0
#   ARLEN         integral           8     'd1       
#   ARSIZE        integral           3     'd3       
#   ARBURST       integral           2     2         
#   RID           integral           16    'hfcf7    
#   RDATA         da(integral)       2     -         
#     [0]         integral           32    'h8ab6c3a2
#     [1]         integral           32    'h316470ff
#   RRESP         integral           2     'd0       
#   RLAST         integral           1     'd0       
#   burst_kind_e  burst_kind         2     FIXED     
#   kind_e        trans_kind         2     READ      
# ---------------------------------------------------
# RDATa IN SB : 2327233442 828666111
# m mon rid : fcf7
# m mon ar id : 9b0
# UVM_INFO ../env/axi_sb.sv(82) @ 725: uvm_test_top.env_h.sb_h [after event in sb] aaaa
# UVM_INFO ../env/axi_sb.sv(80) @ 725: uvm_test_top.env_h.sb_h [before event in sb] aaaa
# rd data in s drv: b3f5107f , len : 7 , last:0 , valid : 1
# INIDE_SLAVE_MON_CTR=72
# arid in s mon : 58224
# m mon ar id : e370
# m mon rid : a894
# rd data in s drv: b5c5d03b , len : 7 , last:0 , valid : 1
# INIDE_SLAVE_MON_CTR=73
# arid in s mon : 18096
# m mon rid : a894
# m mon ar id : 46b0
# rd data in s drv: 869f0c8e , len : 7 , last:0 , valid : 1
# INIDE_SLAVE_MON_CTR=74
# arid in s mon : 10861
# m mon ar id : 2a6d
# m mon rid : a894
# rd data in s drv: af45646f , len : 7 , last:0 , valid : 1
# INIDE_SLAVE_MON_CTR=75
# arid in s mon : 29068
# m mon rid : a894
# m mon ar id : 718c
# rd data in s drv: f82b7f9c , len : 7 , last:0 , valid : 1
# INIDE_SLAVE_MON_CTR=76
# arid in s mon : 45337
# m mon ar id : b119
# m mon rid : a894
# rd data in s drv: 4260ad3e , len : 7 , last:0 , valid : 1
# INIDE_SLAVE_MON_CTR=77
# arid in s mon : 24484
# m mon rid : a894
# m mon ar id : 5fa4
# rd data in s drv: 88f086ed , len : 7 , last:0 , valid : 1
# INIDE_SLAVE_MON_CTR=78
# arid in s mon : 27438
# m mon ar id : 6b2e
# m mon rid : a894
# rd data in s drv: 531b6ebe , len : 7 , last:1 , valid : 1
# abc : 1
# ref model mem : 2945927040
# abc : 2
# ref model mem : 2945927048
# abc : 3
# ref model mem : 2945927056
# abc : 4
# ref model mem : 2945927064
# abc : 5
# ref model mem : 2945927072
# abc : 6
# ref model mem : 2945927080
# abc : 7
# ref model mem : 2945927088
# abc : 8
# ref model mem : 2945927096
# abc : 9
# ref model mem : 2945927104
# abc : 10
# ref model mem : 2945927112
# abc : 11
# ref model mem : 2945927120
# abc : 12
# ref model mem : 2945927128
# abc : 13
# ref model mem : 2945927136
# abc : 14
# ref model mem : 2945927144
# abc : 15
# ref model mem : 2945927152
# abc : 16
# ref model mem : 2945927160
# xyz : 1
# xyz : 2
# xyz : 3
# xyz : 4
# xyz : 5
# xyz : 6
# xyz : 7
# xyz : 8
# xyz : 9
# xyz : 10
# xyz : 11
# xyz : 12
# xyz : 13
# xyz : 14
# xyz : 15
# xyz : 16
# AR ADDR IN SB : af974780
# INIDE_SLAVE_MON_CTR=79
# arid in s mon : 9050
# AFFTER W CHANNEL
# req kind : READ
# INSIDE BEORE SAMPLE
# ---------------------------------------------------
# Name            Type               Size  Value     
# ---------------------------------------------------
# axi_m_seq_item  uvm_sequence_item  -     @2371     
#   AWID          integral           16    'h0       
#   AWADDR        integral           32    'h0       
#   AWLEN         integral           8     'd0       
#   AWSIZE        integral           3     'd0       
#   AWBURST       integral           2     'd0       
#   WID           integral           16    'h0       
#   WDATA         da(integral)       0     -         
#   WSTRB         da(integral)       0     -         
#   WLAST         integral           1     'd0       
#   BID           integral           16    'h0       
#   BRESP         integral           2     'd0       
#   ARID          integral           16    'ha894    
#   ARADDR        integral           32    'h10bb4800
#   ARLEN         integral           8     'd7       
#   ARSIZE        integral           3     'd3       
#   ARBURST       integral           2     2         
#   RID           integral           16    'ha894    
#   RDATA         da(integral)       8     -         
#     [0]         integral           32    'hb3f5107f
#     [1]         integral           32    'hb5c5d03b
#     [2]         integral           32    'h869f0c8e
#     [3]         integral           32    'haf45646f
#     [4]         integral           32    'hf82b7f9c
#     [5]         integral           32    'h4260ad3e
#     [6]         integral           32    'h88f086ed
#     [7]         integral           32    'h531b6ebe
#   RRESP         integral           2     'd0       
#   RLAST         integral           1     'd0       
#   burst_kind_e  burst_kind         2     FIXED     
#   kind_e        trans_kind         2     READ      
# ---------------------------------------------------
# RDATa IN SB : 3019182207 3049639995 2258570382 2940560495 4163600284 1113632062 2297464557 1394306750
# m mon rid : a894
# m mon ar id : 235a
# UVM_INFO ../env/axi_sb.sv(82) @ 805: uvm_test_top.env_h.sb_h [after event in sb] aaaa
# UVM_INFO ../env/axi_sb.sv(80) @ 805: uvm_test_top.env_h.sb_h [before event in sb] aaaa
# match arid : 0 , rid : 0
# UVM_INFO ../env/s_agent/axi_s_drv.sv(31) @ 805: uvm_test_top.env_h.s_uvc_h.s_agent_h[0].s_drv_h [ID MATCH] aaaaa
# s seqs arid : 52439
# INIDE_SLAVE_SEQ_CTR=11
# match arid : ccd7 , rid : ccd7
# UVM_INFO ../env/s_agent/axi_s_drv.sv(31) @ 805: uvm_test_top.env_h.s_uvc_h.s_agent_h[0].s_drv_h [ID MATCH] aaaaa
# rd data in s drv: a11555f6 , len : 15 , last:0 , valid : 1
# INIDE_SLAVE_MON_CTR=80
# arid in s mon : 59726
# m mon ar id : e94e
# m mon rid : ccd7
# rd data in s drv: 9bd541f3 , len : 15 , last:0 , valid : 1
# INIDE_SLAVE_MON_CTR=81
# arid in s mon : 3496
# m mon rid : ccd7
# m mon ar id : da8
# req wid : 17367 , bid:17367
# UVM_INFO ../env/m_agent/axi_base_m_seqs.sv(26) @ 825: uvm_test_top.env_h.m_uvc_h.m_agent_h[0].m_seqr_h@@vseqs_h.m_wseqs_h [IN V SEQS] Got B-channel response from driver
# rd data in s drv: eb2a1de0 , len : 15 , last:0 , valid : 1
# INIDE_SLAVE_MON_CTR=82
# arid in s mon : 23075
# m mon ar id : 5a23
# m mon rid : ccd7
# rd data in s drv: b51a296e , len : 15 , last:0 , valid : 1
# abc : 1
# ref model mem : 80134880
# abc : 2
# ref model mem : 80134888
# abc : 3
# ref model mem : 80134896
# abc : 4
# ref model mem : 80134904
# xyz : 1
# xyz : 2
# xyz : 3
# xyz : 4
# AR ADDR IN SB : 4c6c2e0
# INIDE_SLAVE_MON_CTR=83
# arid in s mon : 53893
# AFFTER W CHANNEL
# m mon rid : ccd7
# m mon ar id : d285
# match arid : 0 , rid : 0
# UVM_INFO ../env/s_agent/axi_s_drv.sv(31) @ 845: uvm_test_top.env_h.s_uvc_h.s_agent_h[0].s_drv_h [ID MATCH] aaaaa
# s seqs arid : 4905
# INIDE_SLAVE_SEQ_CTR=12
# match arid : 1329 , rid : 1329
# UVM_INFO ../env/s_agent/axi_s_drv.sv(31) @ 845: uvm_test_top.env_h.s_uvc_h.s_agent_h[0].s_drv_h [ID MATCH] aaaaa
# rd data in s drv: c66c2a34 , len : 15 , last:0 , valid : 1
# INIDE_SLAVE_MON_CTR=84
# arid in s mon : 57238
# m mon ar id : df96
# m mon rid : ccd7
# rd data in s drv: e841aa26 , len : 15 , last:0 , valid : 1
# INIDE_SLAVE_MON_CTR=85
# arid in s mon : 61303
# m mon rid : ccd7
# m mon ar id : ef77
# req wid : 23008 , bid:23008
# UVM_INFO ../env/m_agent/axi_base_m_seqs.sv(26) @ 865: uvm_test_top.env_h.m_uvc_h.m_agent_h[0].m_seqr_h@@vseqs_h.m_wseqs_h [IN V SEQS] Got B-channel response from driver
# rd data in s drv: d7106a56 , len : 15 , last:0 , valid : 1
# INIDE_SLAVE_MON_CTR=86
# arid in s mon : 23900
# m mon ar id : 5d5c
# m mon rid : ccd7
# rd data in s drv: c56e0789 , len : 15 , last:0 , valid : 1
# INIDE_SLAVE_MON_CTR=87
# arid in s mon : 61299
# m mon rid : ccd7
# m mon ar id : ef73
# rd data in s drv: 8e335b94 , len : 15 , last:0 , valid : 1
# INIDE_SLAVE_MON_CTR=88
# arid in s mon : 13152
# m mon ar id : 3360
# m mon rid : ccd7
# rd data in s drv: 5e074ac , len : 15 , last:0 , valid : 1
# INIDE_SLAVE_MON_CTR=89
# arid in s mon : 60289
# m mon rid : ccd7
# m mon ar id : eb81
# rd data in s drv: eecc4b62 , len : 15 , last:0 , valid : 1
# INIDE_SLAVE_MON_CTR=90
# arid in s mon : 46097
# m mon ar id : b411
# m mon rid : ccd7
# rd data in s drv: 6f4f0a0d , len : 15 , last:0 , valid : 1
# abc : 1
# ref model mem : 2701051584
# abc : 2
# ref model mem : 2701051592
# abc : 3
# ref model mem : 2701051600
# abc : 4
# ref model mem : 2701051608
# abc : 5
# ref model mem : 2701051616
# abc : 6
# ref model mem : 2701051624
# abc : 7
# ref model mem : 2701051632
# abc : 8
# ref model mem : 2701051640
# xyz : 1
# xyz : 2
# xyz : 3
# xyz : 4
# xyz : 5
# xyz : 6
# xyz : 7
# xyz : 8
# AR ADDR IN SB : a0fec6c0
# INIDE_SLAVE_MON_CTR=91
# arid in s mon : 13132
# AFFTER W CHANNEL
# m mon rid : ccd7
# m mon ar id : 334c
# match arid : 0 , rid : 0
# UVM_INFO ../env/s_agent/axi_s_drv.sv(31) @ 925: uvm_test_top.env_h.s_uvc_h.s_agent_h[0].s_drv_h [ID MATCH] aaaaa
# s seqs arid : 35577
# INIDE_SLAVE_SEQ_CTR=13
# match arid : 8af9 , rid : 8af9
# UVM_INFO ../env/s_agent/axi_s_drv.sv(31) @ 925: uvm_test_top.env_h.s_uvc_h.s_agent_h[0].s_drv_h [ID MATCH] aaaaa
# rd data in s drv: 53a68039 , len : 15 , last:0 , valid : 1
# INIDE_SLAVE_MON_CTR=92
# arid in s mon : 26239
# m mon ar id : 667f
# m mon rid : ccd7
# rd data in s drv: a98132b0 , len : 15 , last:0 , valid : 1
# INIDE_SLAVE_MON_CTR=93
# arid in s mon : 50062
# m mon rid : ccd7
# m mon ar id : c38e
# req wid : 32031 , bid:32031
# UVM_INFO ../env/m_agent/axi_base_m_seqs.sv(26) @ 945: uvm_test_top.env_h.m_uvc_h.m_agent_h[0].m_seqr_h@@vseqs_h.m_wseqs_h [IN V SEQS] Got B-channel response from driver
# rd data in s drv: 24fa7de1 , len : 15 , last:0 , valid : 1
# INIDE_SLAVE_MON_CTR=94
# arid in s mon : 57647
# m mon ar id : e12f
# m mon rid : ccd7
# rd data in s drv: fb4098d0 , len : 15 , last:1 , valid : 1
# INIDE_SLAVE_MON_CTR=95
# arid in s mon : 23728
# req kind : READ
# INSIDE BEORE SAMPLE
# ---------------------------------------------------
# Name            Type               Size  Value     
# ---------------------------------------------------
# axi_m_seq_item  uvm_sequence_item  -     @2431     
#   AWID          integral           16    'h0       
#   AWADDR        integral           32    'h0       
#   AWLEN         integral           8     'd0       
#   AWSIZE        integral           3     'd0       
#   AWBURST       integral           2     'd0       
#   WID           integral           16    'h0       
#   WDATA         da(integral)       0     -         
#   WSTRB         da(integral)       0     -         
#   WLAST         integral           1     'd0       
#   BID           integral           16    'h0       
#   BRESP         integral           2     'd0       
#   ARID          integral           16    'hccd7    
#   ARADDR        integral           32    'haf974780
#   ARLEN         integral           8     'd15      
#   ARSIZE        integral           3     'd3       
#   ARBURST       integral           2     2         
#   RID           integral           16    'hccd7    
#   RDATA         da(integral)       16    -         
#     [0]         integral           32    'ha11555f6
#     [1]         integral           32    'h9bd541f3
#     [2]         integral           32    'heb2a1de0
#     [3]         integral           32    'hb51a296e
#     [4]         integral           32    'hc66c2a34
#     ...         ...                ...   ...       
#     [11]        integral           32    'h6f4f0a0d
#     [12]        integral           32    'h53a68039
#     [13]        integral           32    'ha98132b0
#     [14]        integral           32    'h24fa7de1
#     [15]        integral           32    'hfb4098d0
#   RRESP         integral           2     'd0       
#   RLAST         integral           1     'd0       
#   burst_kind_e  burst_kind         2     FIXED     
#   kind_e        trans_kind         2     READ      
# ---------------------------------------------------
# RDATa IN SB : 2702530038 2614444531 3945405920 3038390638 3328977460 3896617510 3608177238 3312322441 2385730452 98596012 4006366050 1867450893 1403420729 2843816624 620396001 4215314640
# m mon rid : ccd7
# m mon ar id : 5cb0
# UVM_INFO ../env/axi_sb.sv(82) @ 965: uvm_test_top.env_h.sb_h [after event in sb] aaaa
# UVM_INFO ../env/axi_sb.sv(80) @ 965: uvm_test_top.env_h.sb_h [before event in sb] aaaa
# rd data in s drv: a93a1366 , len : 3 , last:0 , valid : 1
# INIDE_SLAVE_MON_CTR=96
# arid in s mon : 33600
# m mon ar id : 8340
# m mon rid : 1329
# rd data in s drv: f1c9ee1 , len : 3 , last:0 , valid : 1
# INIDE_SLAVE_MON_CTR=97
# arid in s mon : 59131
# m mon rid : 1329
# m mon ar id : e6fb
# rd data in s drv: b95e5aa2 , len : 3 , last:0 , valid : 1
# INIDE_SLAVE_MON_CTR=98
# arid in s mon : 11031
# m mon ar id : 2b17
# m mon rid : 1329
# rd data in s drv: 27a31541 , len : 3 , last:1 , valid : 1
# INIDE_SLAVE_MON_CTR=99
# arid in s mon : 46713
# req kind : READ
# INSIDE BEORE SAMPLE
# ---------------------------------------------------
# Name            Type               Size  Value     
# ---------------------------------------------------
# axi_m_seq_item  uvm_sequence_item  -     @2499     
#   AWID          integral           16    'h0       
#   AWADDR        integral           32    'h0       
#   AWLEN         integral           8     'd0       
#   AWSIZE        integral           3     'd0       
#   AWBURST       integral           2     'd0       
#   WID           integral           16    'h0       
#   WDATA         da(integral)       0     -         
#   WSTRB         da(integral)       0     -         
#   WLAST         integral           1     'd0       
#   BID           integral           16    'h0       
#   BRESP         integral           2     'd0       
#   ARID          integral           16    'h1329    
#   ARADDR        integral           32    'h4c6c2e0 
#   ARLEN         integral           8     'd3       
#   ARSIZE        integral           3     'd3       
#   ARBURST       integral           2     2         
#   RID           integral           16    'h1329    
#   RDATA         da(integral)       4     -         
#     [0]         integral           32    'ha93a1366
#     [1]         integral           32    'hf1c9ee1 
#     [2]         integral           32    'hb95e5aa2
#     [3]         integral           32    'h27a31541
#   RRESP         integral           2     'd0       
#   RLAST         integral           1     'd0       
#   burst_kind_e  burst_kind         2     FIXED     
#   kind_e        trans_kind         2     READ      
# ---------------------------------------------------
# RDATa IN SB : 2839155558 253533921 3109968546 664999233
# m mon rid : 1329
# m mon ar id : b679
# UVM_INFO ../env/axi_sb.sv(82) @ 1005: uvm_test_top.env_h.sb_h [after event in sb] aaaa
# UVM_INFO ../env/axi_sb.sv(80) @ 1005: uvm_test_top.env_h.sb_h [before event in sb] aaaa
# rd data in s drv: 67135dfc , len : 7 , last:0 , valid : 1
# INIDE_SLAVE_MON_CTR=100
# arid in s mon : 44059
# m mon ar id : ac1b
# m mon rid : 8af9
# rd data in s drv: 63ae97a9 , len : 7 , last:0 , valid : 1
# m mon rid : 8af9
# rd data in s drv: 1bda4650 , len : 7 , last:0 , valid : 1
# m mon rid : 8af9
# rd data in s drv: 22dc21c3 , len : 7 , last:0 , valid : 1
# m mon rid : 8af9
# rd data in s drv: 18ce46de , len : 7 , last:0 , valid : 1
# m mon rid : 8af9
# rd data in s drv: 5ec3e2c1 , len : 7 , last:0 , valid : 1
# m mon rid : 8af9
# rd data in s drv: 2ccf0dde , len : 7 , last:0 , valid : 1
# m mon rid : 8af9
# rd data in s drv: e372bf2 , len : 7 , last:1 , valid : 1
# abc : 1
# ref model mem : 3422561792
# abc : 2
# ref model mem : 3422561800
# abc : 3
# ref model mem : 3422561808
# abc : 4
# ref model mem : 3422561816
# abc : 5
# ref model mem : 3422561824
# abc : 6
# ref model mem : 3422561832
# abc : 7
# ref model mem : 3422561840
# abc : 8
# ref model mem : 3422561848
# abc : 9
# ref model mem : 3422561856
# abc : 10
# ref model mem : 3422561864
# abc : 11
# ref model mem : 3422561872
# abc : 12
# ref model mem : 3422561880
# abc : 13
# ref model mem : 3422561888
# abc : 14
# ref model mem : 3422561896
# abc : 15
# ref model mem : 3422561904
# abc : 16
# ref model mem : 3422561912
# xyz : 1
# xyz : 2
# xyz : 3
# xyz : 4
# xyz : 5
# xyz : 6
# xyz : 7
# xyz : 8
# xyz : 9
# xyz : 10
# xyz : 11
# xyz : 12
# xyz : 13
# xyz : 14
# xyz : 15
# xyz : 16
# AR ADDR IN SB : cc002600
# AFFTER W CHANNEL
# req kind : READ
# INSIDE BEORE SAMPLE
# ---------------------------------------------------
# Name            Type               Size  Value     
# ---------------------------------------------------
# axi_m_seq_item  uvm_sequence_item  -     @2559     
#   AWID          integral           16    'h0       
#   AWADDR        integral           32    'h0       
#   AWLEN         integral           8     'd0       
#   AWSIZE        integral           3     'd0       
#   AWBURST       integral           2     'd0       
#   WID           integral           16    'h0       
#   WDATA         da(integral)       0     -         
#   WSTRB         da(integral)       0     -         
#   WLAST         integral           1     'd0       
#   BID           integral           16    'h0       
#   BRESP         integral           2     'd0       
#   ARID          integral           16    'h8af9    
#   ARADDR        integral           32    'ha0fec6c0
#   ARLEN         integral           8     'd7       
#   ARSIZE        integral           3     'd3       
#   ARBURST       integral           2     2         
#   RID           integral           16    'h8af9    
#   RDATA         da(integral)       8     -         
#     [0]         integral           32    'h67135dfc
#     [1]         integral           32    'h63ae97a9
#     [2]         integral           32    'h1bda4650
#     [3]         integral           32    'h22dc21c3
#     [4]         integral           32    'h18ce46de
#     [5]         integral           32    'h5ec3e2c1
#     [6]         integral           32    'h2ccf0dde
#     [7]         integral           32    'he372bf2 
#   RRESP         integral           2     'd0       
#   RLAST         integral           1     'd0       
#   burst_kind_e  burst_kind         2     FIXED     
#   kind_e        trans_kind         2     READ      
# ---------------------------------------------------
# RDATa IN SB : 1729322492 1672386473 467289680 584851907 416171742 1589895873 751767006 238496754
# m mon rid : 8af9
# UVM_INFO ../env/axi_sb.sv(82) @ 1085: uvm_test_top.env_h.sb_h [after event in sb] aaaa
# UVM_INFO ../env/axi_sb.sv(80) @ 1085: uvm_test_top.env_h.sb_h [before event in sb] aaaa
# match arid : 0 , rid : 0
# UVM_INFO ../env/s_agent/axi_s_drv.sv(31) @ 1085: uvm_test_top.env_h.s_uvc_h.s_agent_h[0].s_drv_h [ID MATCH] aaaaa
# s seqs arid : 25219
# INIDE_SLAVE_SEQ_CTR=14
# match arid : 6283 , rid : 6283
# UVM_INFO ../env/s_agent/axi_s_drv.sv(31) @ 1085: uvm_test_top.env_h.s_uvc_h.s_agent_h[0].s_drv_h [ID MATCH] aaaaa
# rd data in s drv: 1caf32cc , len : 15 , last:0 , valid : 1
# m mon rid : 6283
# rd data in s drv: 62b68558 , len : 15 , last:0 , valid : 1
# abc : 1
# ref model mem : 2142700016
# abc : 2
# ref model mem : 2142700024
# xyz : 1
# xyz : 2
# AR ADDR IN SB : 7fb701f0
# AFFTER W CHANNEL
# m mon rid : 6283
# req wid : 12673 , bid:12673
# UVM_INFO ../env/m_agent/axi_base_m_seqs.sv(26) @ 1105: uvm_test_top.env_h.m_uvc_h.m_agent_h[0].m_seqr_h@@vseqs_h.m_wseqs_h [IN V SEQS] Got B-channel response from driver
# match arid : 0 , rid : 0
# UVM_INFO ../env/s_agent/axi_s_drv.sv(31) @ 1105: uvm_test_top.env_h.s_uvc_h.s_agent_h[0].s_drv_h [ID MATCH] aaaaa
# s seqs arid : 47995
# INIDE_SLAVE_SEQ_CTR=15
# match arid : bb7b , rid : bb7b
# UVM_INFO ../env/s_agent/axi_s_drv.sv(31) @ 1105: uvm_test_top.env_h.s_uvc_h.s_agent_h[0].s_drv_h [ID MATCH] aaaaa
# rd data in s drv: 346f872e , len : 15 , last:0 , valid : 1
# m mon rid : 6283
# rd data in s drv: 5172b9cc , len : 15 , last:0 , valid : 1
# m mon rid : 6283
# req wid : 40425 , bid:40425
# UVM_INFO ../env/m_agent/axi_base_m_seqs.sv(26) @ 1125: uvm_test_top.env_h.m_uvc_h.m_agent_h[0].m_seqr_h@@vseqs_h.m_wseqs_h [IN V SEQS] Got B-channel response from driver
# rd data in s drv: 47d2fabd , len : 15 , last:0 , valid : 1
# m mon rid : 6283
# rd data in s drv: a99a92f0 , len : 15 , last:0 , valid : 1
# m mon rid : 6283
# rd data in s drv: 50870e , len : 15 , last:0 , valid : 1
# m mon rid : 6283
# rd data in s drv: 6d7eedea , len : 15 , last:0 , valid : 1
# m mon rid : 6283
# rd data in s drv: 69f09a55 , len : 15 , last:0 , valid : 1
# m mon rid : 6283
# rd data in s drv: ce6bcea , len : 15 , last:0 , valid : 1
# m mon rid : 6283
# rd data in s drv: 5a92f85 , len : 15 , last:0 , valid : 1
# m mon rid : 6283
# rd data in s drv: 54740593 , len : 15 , last:0 , valid : 1
# m mon rid : 6283
# rd data in s drv: 9c38c23d , len : 15 , last:0 , valid : 1
# m mon rid : 6283
# rd data in s drv: ed48c52e , len : 15 , last:0 , valid : 1
# m mon rid : 6283
# rd data in s drv: e6784156 , len : 15 , last:0 , valid : 1
# m mon rid : 6283
# rd data in s drv: 85a4e53f , len : 15 , last:1 , valid : 1
# req kind : READ
# INSIDE BEORE SAMPLE
# ---------------------------------------------------
# Name            Type               Size  Value     
# ---------------------------------------------------
# axi_m_seq_item  uvm_sequence_item  -     @2611     
#   AWID          integral           16    'h0       
#   AWADDR        integral           32    'h0       
#   AWLEN         integral           8     'd0       
#   AWSIZE        integral           3     'd0       
#   AWBURST       integral           2     'd0       
#   WID           integral           16    'h0       
#   WDATA         da(integral)       0     -         
#   WSTRB         da(integral)       0     -         
#   WLAST         integral           1     'd0       
#   BID           integral           16    'h0       
#   BRESP         integral           2     'd0       
#   ARID          integral           16    'h6283    
#   ARADDR        integral           32    'hcc002600
#   ARLEN         integral           8     'd15      
#   ARSIZE        integral           3     'd3       
#   ARBURST       integral           2     2         
#   RID           integral           16    'h6283    
#   RDATA         da(integral)       16    -         
#     [0]         integral           32    'h1caf32cc
#     [1]         integral           32    'h62b68558
#     [2]         integral           32    'h346f872e
#     [3]         integral           32    'h5172b9cc
#     [4]         integral           32    'h47d2fabd
#     ...         ...                ...   ...       
#     [11]        integral           32    'h54740593
#     [12]        integral           32    'h9c38c23d
#     [13]        integral           32    'hed48c52e
#     [14]        integral           32    'he6784156
#     [15]        integral           32    'h85a4e53f
#   RRESP         integral           2     'd0       
#   RLAST         integral           1     'd0       
#   burst_kind_e  burst_kind         2     FIXED     
#   kind_e        trans_kind         2     READ      
# ---------------------------------------------------
# RDATa IN SB : 481243852 1656128856 879724334 1366473164 1205009085 2845479664 5277454 1837034986 1777375829 216448234 94973829 1416889747 2620965437 3980969262 3866640726 2242176319
# m mon rid : 6283
# UVM_INFO ../env/axi_sb.sv(82) @ 1245: uvm_test_top.env_h.sb_h [after event in sb] aaaa
# UVM_INFO ../env/axi_sb.sv(80) @ 1245: uvm_test_top.env_h.sb_h [before event in sb] aaaa
# rd data in s drv: 9e0e4e42 , len : 1 , last:0 , valid : 1
# m mon rid : bb7b
# rd data in s drv: 29347435 , len : 1 , last:1 , valid : 1
# abc : 1
# ref model mem : 171173120
# abc : 2
# ref model mem : 171173128
# abc : 3
# ref model mem : 171173136
# abc : 4
# ref model mem : 171173144
# abc : 5
# ref model mem : 171173152
# abc : 6
# ref model mem : 171173160
# abc : 7
# ref model mem : 171173168
# abc : 8
# ref model mem : 171173176
# abc : 9
# ref model mem : 171173184
# abc : 10
# ref model mem : 171173192
# abc : 11
# ref model mem : 171173200
# abc : 12
# ref model mem : 171173208
# abc : 13
# ref model mem : 171173216
# abc : 14
# ref model mem : 171173224
# abc : 15
# ref model mem : 171173232
# abc : 16
# ref model mem : 171173240
# xyz : 1
# xyz : 2
# xyz : 3
# xyz : 4
# xyz : 5
# xyz : 6
# xyz : 7
# xyz : 8
# xyz : 9
# xyz : 10
# xyz : 11
# xyz : 12
# xyz : 13
# xyz : 14
# xyz : 15
# xyz : 16
# AR ADDR IN SB : a33e500
# AFFTER W CHANNEL
# req kind : READ
# INSIDE BEORE SAMPLE
# ---------------------------------------------------
# Name            Type               Size  Value     
# ---------------------------------------------------
# axi_m_seq_item  uvm_sequence_item  -     @2675     
#   AWID          integral           16    'h0       
#   AWADDR        integral           32    'h0       
#   AWLEN         integral           8     'd0       
#   AWSIZE        integral           3     'd0       
#   AWBURST       integral           2     'd0       
#   WID           integral           16    'h0       
#   WDATA         da(integral)       0     -         
#   WSTRB         da(integral)       0     -         
#   WLAST         integral           1     'd0       
#   BID           integral           16    'h0       
#   BRESP         integral           2     'd0       
#   ARID          integral           16    'hbb7b    
#   ARADDR        integral           32    'h7fb701f0
#   ARLEN         integral           8     'd1       
#   ARSIZE        integral           3     'd3       
#   ARBURST       integral           2     2         
#   RID           integral           16    'hbb7b    
#   RDATA         da(integral)       2     -         
#     [0]         integral           32    'h9e0e4e42
#     [1]         integral           32    'h29347435
#   RRESP         integral           2     'd0       
#   RLAST         integral           1     'd0       
#   burst_kind_e  burst_kind         2     FIXED     
#   kind_e        trans_kind         2     READ      
# ---------------------------------------------------
# RDATa IN SB : 2651737666 691303477
# m mon rid : bb7b
# UVM_INFO ../env/axi_sb.sv(82) @ 1265: uvm_test_top.env_h.sb_h [after event in sb] aaaa
# UVM_INFO ../env/axi_sb.sv(80) @ 1265: uvm_test_top.env_h.sb_h [before event in sb] aaaa
# match arid : 0 , rid : 0
# UVM_INFO ../env/s_agent/axi_s_drv.sv(31) @ 1265: uvm_test_top.env_h.s_uvc_h.s_agent_h[0].s_drv_h [ID MATCH] aaaaa
# s seqs arid : 51276
# INIDE_SLAVE_SEQ_CTR=16
# match arid : c84c , rid : c84c
# UVM_INFO ../env/s_agent/axi_s_drv.sv(31) @ 1265: uvm_test_top.env_h.s_uvc_h.s_agent_h[0].s_drv_h [ID MATCH] aaaaa
# rd data in s drv: 8fa30135 , len : 15 , last:0 , valid : 1
# m mon rid : c84c
# rd data in s drv: 167e33ce , len : 15 , last:0 , valid : 1
# abc : 1
# ref model mem : 3370897808
# abc : 2
# ref model mem : 3370897816
# xyz : 1
# xyz : 2
# AR ADDR IN SB : c8ebd190
# AFFTER W CHANNEL
# m mon rid : c84c
# req wid : 34571 , bid:34571
# UVM_INFO ../env/m_agent/axi_base_m_seqs.sv(26) @ 1285: uvm_test_top.env_h.m_uvc_h.m_agent_h[0].m_seqr_h@@vseqs_h.m_wseqs_h [IN V SEQS] Got B-channel response from driver
# match arid : 0 , rid : 0
# UVM_INFO ../env/s_agent/axi_s_drv.sv(31) @ 1285: uvm_test_top.env_h.s_uvc_h.s_agent_h[0].s_drv_h [ID MATCH] aaaaa
# s seqs arid : 44353
# INIDE_SLAVE_SEQ_CTR=17
# match arid : ad41 , rid : ad41
# UVM_INFO ../env/s_agent/axi_s_drv.sv(31) @ 1285: uvm_test_top.env_h.s_uvc_h.s_agent_h[0].s_drv_h [ID MATCH] aaaaa
# rd data in s drv: c98d86f4 , len : 15 , last:0 , valid : 1
# m mon rid : c84c
# rd data in s drv: 2e2e080d , len : 15 , last:0 , valid : 1
# m mon rid : c84c
# req wid : 3557 , bid:3557
# UVM_INFO ../env/m_agent/axi_base_m_seqs.sv(26) @ 1305: uvm_test_top.env_h.m_uvc_h.m_agent_h[0].m_seqr_h@@vseqs_h.m_wseqs_h [IN V SEQS] Got B-channel response from driver
# rd data in s drv: 80b624f6 , len : 15 , last:0 , valid : 1
# m mon rid : c84c
# rd data in s drv: 7fa83d3d , len : 15 , last:0 , valid : 1
# abc : 1
# ref model mem : 3105431968
# abc : 2
# ref model mem : 3105431976
# abc : 3
# ref model mem : 3105431984
# abc : 4
# ref model mem : 3105431992
# xyz : 1
# xyz : 2
# xyz : 3
# xyz : 4
# AR ADDR IN SB : b91921a0
# AFFTER W CHANNEL
# m mon rid : c84c
# match arid : 0 , rid : 0
# UVM_INFO ../env/s_agent/axi_s_drv.sv(31) @ 1325: uvm_test_top.env_h.s_uvc_h.s_agent_h[0].s_drv_h [ID MATCH] aaaaa
# s seqs arid : 34273
# INIDE_SLAVE_SEQ_CTR=18
# match arid : 85e1 , rid : 85e1
# UVM_INFO ../env/s_agent/axi_s_drv.sv(31) @ 1325: uvm_test_top.env_h.s_uvc_h.s_agent_h[0].s_drv_h [ID MATCH] aaaaa
# rd data in s drv: 1f3e4169 , len : 15 , last:0 , valid : 1
# m mon rid : c84c
# rd data in s drv: dae8738e , len : 15 , last:0 , valid : 1
# m mon rid : c84c
# req wid : 13717 , bid:13717
# UVM_INFO ../env/m_agent/axi_base_m_seqs.sv(26) @ 1345: uvm_test_top.env_h.m_uvc_h.m_agent_h[0].m_seqr_h@@vseqs_h.m_wseqs_h [IN V SEQS] Got B-channel response from driver
# rd data in s drv: ff263618 , len : 15 , last:0 , valid : 1
# m mon rid : c84c
# rd data in s drv: fae3668 , len : 15 , last:0 , valid : 1
# abc : 1
# ref model mem : 2655890880
# abc : 2
# ref model mem : 2655890888
# abc : 3
# ref model mem : 2655890896
# abc : 4
# ref model mem : 2655890904
# xyz : 1
# xyz : 2
# xyz : 3
# xyz : 4
# AR ADDR IN SB : 9e4dadc0
# AFFTER W CHANNEL
# m mon rid : c84c
# match arid : 0 , rid : 0
# UVM_INFO ../env/s_agent/axi_s_drv.sv(31) @ 1365: uvm_test_top.env_h.s_uvc_h.s_agent_h[0].s_drv_h [ID MATCH] aaaaa
# s seqs arid : 40878
# INIDE_SLAVE_SEQ_CTR=19
# match arid : 9fae , rid : 9fae
# UVM_INFO ../env/s_agent/axi_s_drv.sv(31) @ 1365: uvm_test_top.env_h.s_uvc_h.s_agent_h[0].s_drv_h [ID MATCH] aaaaa
# rd data in s drv: 25f69d7c , len : 15 , last:0 , valid : 1
# m mon rid : c84c
# rd data in s drv: 5788c70f , len : 15 , last:0 , valid : 1
# abc : 1
# ref model mem : 4289324848
# abc : 2
# ref model mem : 4289324856
# xyz : 1
# xyz : 2
# AR ADDR IN SB : ffa9e730
# AFFTER W CHANNEL
# m mon rid : c84c
# req wid : 8568 , bid:8568
# UVM_INFO ../env/m_agent/axi_base_m_seqs.sv(26) @ 1385: uvm_test_top.env_h.m_uvc_h.m_agent_h[0].m_seqr_h@@vseqs_h.m_wseqs_h [IN V SEQS] Got B-channel response from driver
# match arid : 0 , rid : 0
# UVM_INFO ../env/s_agent/axi_s_drv.sv(31) @ 1385: uvm_test_top.env_h.s_uvc_h.s_agent_h[0].s_drv_h [ID MATCH] aaaaa
# s seqs arid : 65033
# INIDE_SLAVE_SEQ_CTR=20
# match arid : fe09 , rid : fe09
# UVM_INFO ../env/s_agent/axi_s_drv.sv(31) @ 1385: uvm_test_top.env_h.s_uvc_h.s_agent_h[0].s_drv_h [ID MATCH] aaaaa
# rd data in s drv: a5242300 , len : 15 , last:0 , valid : 1
# m mon rid : c84c
# rd data in s drv: 6d889e73 , len : 15 , last:0 , valid : 1
# abc : 1
# ref model mem : 2382766368
# abc : 2
# ref model mem : 2382766376
# xyz : 1
# xyz : 2
# AR ADDR IN SB : 8e062120
# AFFTER W CHANNEL
# m mon rid : c84c
# req wid : 44422 , bid:44422
# UVM_INFO ../env/m_agent/axi_base_m_seqs.sv(26) @ 1405: uvm_test_top.env_h.m_uvc_h.m_agent_h[0].m_seqr_h@@vseqs_h.m_wseqs_h [IN V SEQS] Got B-channel response from driver
# match arid : 0 , rid : 0
# UVM_INFO ../env/s_agent/axi_s_drv.sv(31) @ 1405: uvm_test_top.env_h.s_uvc_h.s_agent_h[0].s_drv_h [ID MATCH] aaaaa
# s seqs arid : 39064
# INIDE_SLAVE_SEQ_CTR=21
# match arid : 9898 , rid : 9898
# UVM_INFO ../env/s_agent/axi_s_drv.sv(31) @ 1405: uvm_test_top.env_h.s_uvc_h.s_agent_h[0].s_drv_h [ID MATCH] aaaaa
# rd data in s drv: 3fe5f47e , len : 15 , last:0 , valid : 1
# m mon rid : c84c
# rd data in s drv: b65a1070 , len : 15 , last:1 , valid : 1
# abc : 1
# ref model mem : 730965376
# abc : 2
# ref model mem : 730965384
# xyz : 1
# xyz : 2
# AR ADDR IN SB : 2b91a580
# AFFTER W CHANNEL
# req kind : READ
# INSIDE BEORE SAMPLE
# ---------------------------------------------------
# Name            Type               Size  Value     
# ---------------------------------------------------
# axi_m_seq_item  uvm_sequence_item  -     @2735     
#   AWID          integral           16    'h0       
#   AWADDR        integral           32    'h0       
#   AWLEN         integral           8     'd0       
#   AWSIZE        integral           3     'd0       
#   AWBURST       integral           2     'd0       
#   WID           integral           16    'h0       
#   WDATA         da(integral)       0     -         
#   WSTRB         da(integral)       0     -         
#   WLAST         integral           1     'd0       
#   BID           integral           16    'h0       
#   BRESP         integral           2     'd0       
#   ARID          integral           16    'hc84c    
#   ARADDR        integral           32    'ha33e500 
#   ARLEN         integral           8     'd15      
#   ARSIZE        integral           3     'd3       
#   ARBURST       integral           2     2         
#   RID           integral           16    'hc84c    
#   RDATA         da(integral)       16    -         
#     [0]         integral           32    'h8fa30135
#     [1]         integral           32    'h167e33ce
#     [2]         integral           32    'hc98d86f4
#     [3]         integral           32    'h2e2e080d
#     [4]         integral           32    'h80b624f6
#     ...         ...                ...   ...       
#     [11]        integral           32    'h5788c70f
#     [12]        integral           32    'ha5242300
#     [13]        integral           32    'h6d889e73
#     [14]        integral           32    'h3fe5f47e
#     [15]        integral           32    'hb65a1070
#   RRESP         integral           2     'd0       
#   RLAST         integral           1     'd0       
#   burst_kind_e  burst_kind         2     FIXED     
#   kind_e        trans_kind         2     READ      
# ---------------------------------------------------
# RDATa IN SB : 2409824565 377369550 3381495540 774768653 2159420662 2141732157 524173673 3672667022 4280694296 263075432 636919164 1468581647 2770608896 1837670003 1072034942 3059355760
# m mon rid : c84c
# req wid : 65129 , bid:65129
# UVM_INFO ../env/m_agent/axi_base_m_seqs.sv(26) @ 1425: uvm_test_top.env_h.m_uvc_h.m_agent_h[0].m_seqr_h@@vseqs_h.m_wseqs_h [IN V SEQS] Got B-channel response from driver
# UVM_INFO ../env/axi_sb.sv(82) @ 1425: uvm_test_top.env_h.sb_h [after event in sb] aaaa
# UVM_INFO ../env/axi_sb.sv(80) @ 1425: uvm_test_top.env_h.sb_h [before event in sb] aaaa
# match arid : 0 , rid : 0
# UVM_INFO ../env/s_agent/axi_s_drv.sv(31) @ 1425: uvm_test_top.env_h.s_uvc_h.s_agent_h[0].s_drv_h [ID MATCH] aaaaa
# s seqs arid : 62773
# INIDE_SLAVE_SEQ_CTR=22
# match arid : f535 , rid : f535
# UVM_INFO ../env/s_agent/axi_s_drv.sv(31) @ 1425: uvm_test_top.env_h.s_uvc_h.s_agent_h[0].s_drv_h [ID MATCH] aaaaa
# rd data in s drv: f8b4f7dc , len : 1 , last:0 , valid : 1
# m mon rid : ad41
# rd data in s drv: c2374bc8 , len : 1 , last:1 , valid : 1
# abc : 1
# ref model mem : 3884647376
# abc : 2
# ref model mem : 3884647384
# xyz : 1
# xyz : 2
# AR ADDR IN SB : e78b03d0
# AFFTER W CHANNEL
# req kind : READ
# INSIDE BEORE SAMPLE
# ---------------------------------------------------
# Name            Type               Size  Value     
# ---------------------------------------------------
# axi_m_seq_item  uvm_sequence_item  -     @2807     
#   AWID          integral           16    'h0       
#   AWADDR        integral           32    'h0       
#   AWLEN         integral           8     'd0       
#   AWSIZE        integral           3     'd0       
#   AWBURST       integral           2     'd0       
#   WID           integral           16    'h0       
#   WDATA         da(integral)       0     -         
#   WSTRB         da(integral)       0     -         
#   WLAST         integral           1     'd0       
#   BID           integral           16    'h0       
#   BRESP         integral           2     'd0       
#   ARID          integral           16    'had41    
#   ARADDR        integral           32    'hc8ebd190
#   ARLEN         integral           8     'd1       
#   ARSIZE        integral           3     'd3       
#   ARBURST       integral           2     2         
#   RID           integral           16    'had41    
#   RDATA         da(integral)       2     -         
#     [0]         integral           32    'hf8b4f7dc
#     [1]         integral           32    'hc2374bc8
#   RRESP         integral           2     'd0       
#   RLAST         integral           1     'd0       
#   burst_kind_e  burst_kind         2     FIXED     
#   kind_e        trans_kind         2     READ      
# ---------------------------------------------------
# RDATa IN SB : 4172609500 3258403784
# m mon rid : ad41
# req wid : 6012 , bid:6012
# UVM_INFO ../env/m_agent/axi_base_m_seqs.sv(26) @ 1445: uvm_test_top.env_h.m_uvc_h.m_agent_h[0].m_seqr_h@@vseqs_h.m_wseqs_h [IN V SEQS] Got B-channel response from driver
# UVM_INFO ../env/axi_sb.sv(82) @ 1445: uvm_test_top.env_h.sb_h [after event in sb] aaaa
# UVM_INFO ../env/axi_sb.sv(80) @ 1445: uvm_test_top.env_h.sb_h [before event in sb] aaaa
# match arid : 0 , rid : 0
# UVM_INFO ../env/s_agent/axi_s_drv.sv(31) @ 1445: uvm_test_top.env_h.s_uvc_h.s_agent_h[0].s_drv_h [ID MATCH] aaaaa
# s seqs arid : 60350
# INIDE_SLAVE_SEQ_CTR=23
# match arid : ebbe , rid : ebbe
# UVM_INFO ../env/s_agent/axi_s_drv.sv(31) @ 1445: uvm_test_top.env_h.s_uvc_h.s_agent_h[0].s_drv_h [ID MATCH] aaaaa
# rd data in s drv: 194e5f17 , len : 3 , last:0 , valid : 1
# m mon rid : 85e1
# rd data in s drv: 55ae3a3a , len : 3 , last:0 , valid : 1
# m mon rid : 85e1
# req wid : 26141 , bid:26141
# UVM_INFO ../env/m_agent/axi_base_m_seqs.sv(26) @ 1465: uvm_test_top.env_h.m_uvc_h.m_agent_h[0].m_seqr_h@@vseqs_h.m_wseqs_h [IN V SEQS] Got B-channel response from driver
# rd data in s drv: 98339ceb , len : 3 , last:0 , valid : 1
# m mon rid : 85e1
# rd data in s drv: 2bbfbc60 , len : 3 , last:1 , valid : 1
# abc : 1
# ref model mem : 279374496
# abc : 2
# ref model mem : 279374504
# abc : 3
# ref model mem : 279374512
# abc : 4
# ref model mem : 279374520
# xyz : 1
# xyz : 2
# xyz : 3
# xyz : 4
# AR ADDR IN SB : 10a6eaa0
# AFFTER W CHANNEL
# req kind : READ
# INSIDE BEORE SAMPLE
# ---------------------------------------------------
# Name            Type               Size  Value     
# ---------------------------------------------------
# axi_m_seq_item  uvm_sequence_item  -     @2875     
#   AWID          integral           16    'h0       
#   AWADDR        integral           32    'h0       
#   AWLEN         integral           8     'd0       
#   AWSIZE        integral           3     'd0       
#   AWBURST       integral           2     'd0       
#   WID           integral           16    'h0       
#   WDATA         da(integral)       0     -         
#   WSTRB         da(integral)       0     -         
#   WLAST         integral           1     'd0       
#   BID           integral           16    'h0       
#   BRESP         integral           2     'd0       
#   ARID          integral           16    'h85e1    
#   ARADDR        integral           32    'hb91921a0
#   ARLEN         integral           8     'd3       
#   ARSIZE        integral           3     'd3       
#   ARBURST       integral           2     2         
#   RID           integral           16    'h85e1    
#   RDATA         da(integral)       4     -         
#     [0]         integral           32    'h194e5f17
#     [1]         integral           32    'h55ae3a3a
#     [2]         integral           32    'h98339ceb
#     [3]         integral           32    'h2bbfbc60
#   RRESP         integral           2     'd0       
#   RLAST         integral           1     'd0       
#   burst_kind_e  burst_kind         2     FIXED     
#   kind_e        trans_kind         2     READ      
# ---------------------------------------------------
# RDATa IN SB : 424566551 1437481530 2553519339 733985888
# m mon rid : 85e1
# UVM_INFO ../env/axi_sb.sv(82) @ 1485: uvm_test_top.env_h.sb_h [after event in sb] aaaa
# UVM_INFO ../env/axi_sb.sv(80) @ 1485: uvm_test_top.env_h.sb_h [before event in sb] aaaa
# match arid : 0 , rid : 0
# UVM_INFO ../env/s_agent/axi_s_drv.sv(31) @ 1485: uvm_test_top.env_h.s_uvc_h.s_agent_h[0].s_drv_h [ID MATCH] aaaaa
# s seqs arid : 45043
# INIDE_SLAVE_SEQ_CTR=24
# match arid : aff3 , rid : aff3
# UVM_INFO ../env/s_agent/axi_s_drv.sv(31) @ 1485: uvm_test_top.env_h.s_uvc_h.s_agent_h[0].s_drv_h [ID MATCH] aaaaa
# rd data in s drv: efe6ee6e , len : 3 , last:0 , valid : 1
# m mon rid : 9fae
# rd data in s drv: 83d11aa2 , len : 3 , last:0 , valid : 1
# abc : 1
# ref model mem : 91073168
# abc : 2
# ref model mem : 91073176
# xyz : 1
# xyz : 2
# AR ADDR IN SB : 56daa90
# AFFTER W CHANNEL
# m mon rid : 9fae
# req wid : 59295 , bid:59295
# UVM_INFO ../env/m_agent/axi_base_m_seqs.sv(26) @ 1505: uvm_test_top.env_h.m_uvc_h.m_agent_h[0].m_seqr_h@@vseqs_h.m_wseqs_h [IN V SEQS] Got B-channel response from driver
# match arid : 0 , rid : 0
# UVM_INFO ../env/s_agent/axi_s_drv.sv(31) @ 1505: uvm_test_top.env_h.s_uvc_h.s_agent_h[0].s_drv_h [ID MATCH] aaaaa
# s seqs arid : 15796
# INIDE_SLAVE_SEQ_CTR=25
# match arid : 3db4 , rid : 3db4
# UVM_INFO ../env/s_agent/axi_s_drv.sv(31) @ 1505: uvm_test_top.env_h.s_uvc_h.s_agent_h[0].s_drv_h [ID MATCH] aaaaa
# rd data in s drv: 489eab56 , len : 3 , last:0 , valid : 1
# m mon rid : 9fae
# rd data in s drv: e3dafdae , len : 3 , last:1 , valid : 1
# abc : 1
# ref model mem : 482259376
# abc : 2
# ref model mem : 482259384
# xyz : 1
# xyz : 2
# AR ADDR IN SB : 1cbeb1b0
# AFFTER W CHANNEL
# req kind : READ
# INSIDE BEORE SAMPLE
# ---------------------------------------------------
# Name            Type               Size  Value     
# ---------------------------------------------------
# axi_m_seq_item  uvm_sequence_item  -     @2959     
#   AWID          integral           16    'h0       
#   AWADDR        integral           32    'h0       
#   AWLEN         integral           8     'd0       
#   AWSIZE        integral           3     'd0       
#   AWBURST       integral           2     'd0       
#   WID           integral           16    'h0       
#   WDATA         da(integral)       0     -         
#   WSTRB         da(integral)       0     -         
#   WLAST         integral           1     'd0       
#   BID           integral           16    'h0       
#   BRESP         integral           2     'd0       
#   ARID          integral           16    'h9fae    
#   ARADDR        integral           32    'h9e4dadc0
#   ARLEN         integral           8     'd3       
