# vsim -coverage -voptargs="+acc" axi_tb_top -c -do "coverage save -onexit -directive -cvg -codeall axi_incr_test.ucdb; run -all; exit" "+UVM_TESTNAME=axi_incr_test" -l axi_incr_test.log 
# Start time: 09:59:08 on May 06,2026
# ** Note: (vsim-8009) Loading existing optimized design _opt
# //  Questa Sim-64
# //  Version 2023.4 linux_x86_64 Oct  9 2023
# //
# //  Copyright 1991-2023 Mentor Graphics Corporation
# //  All Rights Reserved.
# //
# //  QuestaSim and its associated documentation contain trade
# //  secrets and commercial or financial information that are the property of
# //  Mentor Graphics Corporation and are privileged, confidential,
# //  and exempt from disclosure under the Freedom of Information Act,
# //  5 U.S.C. Section 552. Furthermore, this information
# //  is prohibited from disclosure under the Trade Secrets Act,
# //  18 U.S.C. Section 1905.
# //
# Loading sv_std.std
# Loading work.axi_s_inf(fast)
# Loading work.axi_m_inf(fast)
# Loading mtiUvm.uvm_pkg(fast)
# Loading work.axi_s_agent_pkg(fast)
# Loading work.axi_m_agent_pkg(fast)
# Loading work.axi_env_pkg(fast)
# Loading work.axi_test_pkg(fast)
# Loading mtiUvm.questa_uvm_pkg(fast)
# Loading work.axi_tb_top(fast)
# Loading work.axi_m_inf(fast__2)
# Loading work.axi_s_inf(fast__2)
# ** Warning: (vsim-8441) Clocking block output s_vif.s_drv_cb.RDATA is not legal in this
# or another expression.
#    Time: 0 ns  Iteration: 0  Region: /axi_s_agent_pkg::axi_s_drv #(32, 32) File: ../env/s_agent/axi_s_drv.sv Line: 113
# ** Warning: (vsim-8441) Clocking block output s_vif.s_drv_cb.RVALID is not legal in this
# or another expression.
#    Time: 0 ns  Iteration: 0  Region: /axi_s_agent_pkg::axi_s_drv #(32, 32) File: ../env/s_agent/axi_s_drv.sv Line: 115
# ** Warning: (vsim-8441) Clocking block output s_vif.s_drv_cb.RLAST is not legal in this
# or another expression.
#    Time: 0 ns  Iteration: 0  Region: /axi_s_agent_pkg::axi_s_drv #(32, 32) File: ../env/s_agent/axi_s_drv.sv Line: 116
# ** Warning: (vsim-8441) Clocking block output s_vif.s_drv_cb.RDATA is not legal in this
# or another expression.
#    Time: 0 ns  Iteration: 0  Region: /axi_s_agent_pkg::axi_s_drv #(32, 32) File: ../env/s_agent/axi_s_drv.sv Line: 113
# ** Warning: (vsim-8441) Clocking block output s_vif.s_drv_cb.RLAST is not legal in this
# or another expression.
#    Time: 0 ns  Iteration: 0  Region: /axi_s_agent_pkg::axi_s_drv #(32, 32) File: ../env/s_agent/axi_s_drv.sv Line: 116
# ** Warning: (vsim-8441) Clocking block output s_vif.s_drv_cb.RVALID is not legal in this
# or another expression.
#    Time: 0 ns  Iteration: 0  Region: /axi_s_agent_pkg::axi_s_drv #(32, 32) File: ../env/s_agent/axi_s_drv.sv Line: 115
# ** Warning: (vsim-8441) Clocking block output s_vif.s_drv_cb.RVALID is not legal in this
# or another expression.
#    Time: 0 ns  Iteration: 0  Region: /axi_s_agent_pkg::axi_s_drv #(32, 32) File: ../env/s_agent/axi_s_drv.sv Line: 115
# ** Warning: (vsim-8441) Clocking block output s_vif.s_drv_cb.RLAST is not legal in this
# or another expression.
#    Time: 0 ns  Iteration: 0  Region: /axi_s_agent_pkg::axi_s_drv #(32, 32) File: ../env/s_agent/axi_s_drv.sv Line: 116
# ** Warning: (vsim-8441) Clocking block output m_vif.m_drv_cb.WID is not legal in this
# or another expression.
#    Time: 0 ns  Iteration: 0  Region: /axi_m_agent_pkg::axi_m_drv #(32, 32) File: ../env/m_agent/axi_m_drv.sv Line: 95
# ** Warning: (vsim-8441) Clocking block output m_vif.m_drv_cb.WID is not legal in this
# or another expression.
#    Time: 0 ns  Iteration: 0  Region: /axi_m_agent_pkg::axi_m_drv #(32, 32) File: ../env/m_agent/axi_m_drv.sv Line: 95
# ** Warning: (vsim-8441) Clocking block output m_vif.m_drv_cb.WLAST is not legal in this
# or another expression.
#    Time: 0 ns  Iteration: 0  Region: /axi_m_agent_pkg::axi_m_drv #(32, 32) File: ../env/m_agent/axi_m_drv.sv Line: 100
# ** Warning: (vsim-8441) Clocking block output m_vif.m_drv_cb.WLAST is not legal in this
# or another expression.
#    Time: 0 ns  Iteration: 0  Region: /axi_m_agent_pkg::axi_m_drv #(32, 32) File: ../env/m_agent/axi_m_drv.sv Line: 100
# ** Warning: (vsim-8441) Clocking block output m_vif.m_drv_cb.WLAST is not legal in this
# or another expression.
#    Time: 0 ns  Iteration: 0  Region: /axi_m_agent_pkg::axi_m_drv #(32, 32) File: ../env/m_agent/axi_m_drv.sv Line: 100
# ** Warning: (vsim-8441) Clocking block output m_vif.m_drv_cb.WLAST is not legal in this
# or another expression.
#    Time: 0 ns  Iteration: 0  Region: /axi_m_agent_pkg::axi_m_drv #(32, 32) File: ../env/m_agent/axi_m_drv.sv Line: 100
# Loading /tools/mentor/questa/2023.4/questasim/uvm-1.1d/linux_x86_64/uvm_dpi.so
# coverage save -onexit -directive -cvg -codeall axi_incr_test.ucdb
#  run -all
# ----------------------------------------------------------------
# UVM-1.1d
# (C) 2007-2013 Mentor Graphics Corporation
# (C) 2007-2013 Cadence Design Systems, Inc.
# (C) 2006-2013 Synopsys, Inc.
# (C) 2011-2013 Cypress Semiconductor Corp.
# ----------------------------------------------------------------
# 
#   ***********       IMPORTANT RELEASE NOTES         ************
# 
#   You are using a version of the UVM library that has been compiled
#   with `UVM_NO_DEPRECATED undefined.
#   See http://www.eda.org/svdb/view.php?id=3313 for more details.
# 
#   You are using a version of the UVM library that has been compiled
#   with `UVM_OBJECT_MUST_HAVE_CONSTRUCTOR undefined.
#   See http://www.eda.org/svdb/view.php?id=3770 for more details.
# 
#       (Specify +UVM_NO_RELNOTES to turn off this notice)
# 
# UVM_INFO verilog_src/questa_uvm_pkg-1.2/src/questa_uvm_pkg.sv(277) @ 0: reporter [Questa UVM] QUESTA_UVM-1.2.3
# UVM_INFO verilog_src/questa_uvm_pkg-1.2/src/questa_uvm_pkg.sv(278) @ 0: reporter [Questa UVM]  questa_uvm::init(+struct)
# UVM_INFO @ 0: reporter [RNTST] Running test axi_incr_test...
# UVM_INFO ../env/s_agent/axi_s_seqr.sv(25) @ 0: uvm_test_top.env_h.s_uvc_h.s_agent_h[0].s_seqr_h [Data in s seqr] Data got in slave seqr
# UVM_INFO @ 0: reporter [UVMTOP] UVM testbench topology:
# --------------------------------------------------------------------------------
# Name                             Type                                Size  Value
# --------------------------------------------------------------------------------
# uvm_test_top                     axi_incr_test                       -     @479 
#   env_h                          axi_env                             -     @491 
#     m_uvc_h                      uvm_agent                           -     @513 
#       m_agent_h[0]               uvm_agent                           -     @693 
#         m_drv_h                  uvm_driver #(REQ,RSP)               -     @814 
#           rsp_port               uvm_analysis_port                   -     @829 
#           seq_item_port          uvm_seq_item_pull_port              -     @821 
#         m_mon_h                  axi_m_mon#(ADDR_WIDTH, DATA_WIDTH)  -     @837 
#           s_port                 uvm_analysis_port                   -     @844 
#         m_seqr_h                 uvm_sequencer                       -     @705 
#           rsp_export             uvm_analysis_export                 -     @712 
#           seq_item_export        uvm_seq_item_pull_imp               -     @806 
#           arbitration_queue      array                               0     -    
#           lock_queue             array                               0     -    
#           num_last_reqs          integral                            32    'd1  
#           num_last_rsps          integral                            32    'd1  
#     ref_model_h                  axi_ref_model                       -     @558 
#       mon_imp                    uvm_analysis_imp                    -     @565 
#       sb_imp                     uvm_analysis_port                   -     @573 
#     s_uvc_h                      uvm_agent                           -     @520 
#       s_agent_h[0]               uvm_agent                           -     @860 
#         s_drv_h                  uvm_driver #(REQ,RSP)               -     @1036
#           rsp_port               uvm_analysis_port                   -     @1051
#           seq_item_port          uvm_seq_item_pull_port              -     @1043
#         s_mon_h                  axi_s_mon#(ADDR_WIDTH, DATA_WIDTH)  -     @1059
#           s_port                 uvm_analysis_port                   -     @1066
#         s_seqr_h                 uvm_sequencer                       -     @872 
#           item_collected_export  uvm_analysis_export                 -     @981 
#           item_req_fifo          uvm_tlm_analysis_fifo #(T)          -     @989 
#             analysis_export      uvm_analysis_imp                    -     @1028
#             get_ap               uvm_analysis_port                   -     @1020
#             get_peek_export      uvm_get_peek_imp                    -     @1004
#             put_ap               uvm_analysis_port                   -     @1012
#             put_export           uvm_put_imp                         -     @996 
#           rsp_export             uvm_analysis_export                 -     @879 
#           seq_item_export        uvm_seq_item_pull_imp               -     @973 
#           arbitration_queue      array                               0     -    
#           lock_queue             array                               0     -    
#           num_last_reqs          integral                            32    'd1  
#           num_last_rsps          integral                            32    'd1  
#     sb_h                         axi_sb                              -     @527 
#       anl_imp_m                  uvm_analysis_imp_m                  -     @534 
#       anl_imp_ref                uvm_analysis_imp_ref                -     @542 
#     vseqr_h                      axi_virtual_seqr                    -     @581 
#       rsp_export                 uvm_analysis_export                 -     @588 
#       seq_item_export            uvm_seq_item_pull_imp               -     @682 
#       arbitration_queue          array                               0     -    
#       lock_queue                 array                               0     -    
#       num_last_reqs              integral                            32    'd1  
#       num_last_rsps              integral                            32    'd1  
# --------------------------------------------------------------------------------
# 
# UVM_INFO ../env/axi_sb.sv(59) @ 0: uvm_test_top.env_h.sb_h [before event in sb] aaaa
# UVM_INFO ../env/m_agent/axi_m_mon.sv(29) @ 0: uvm_test_top.env_h.m_uvc_h.m_agent_h[0].m_mon_h [M MON RUN PHASE before] Inside master mon run phase
# UVM_INFO ../env/m_agent/axi_m_mon.sv(36) @ 0: uvm_test_top.env_h.m_uvc_h.m_agent_h[0].m_mon_h [M MON run PHASE after] Inside master mon
# UVM_INFO ../env/m_agent/axi_m_mon.sv(41) @ 0: uvm_test_top.env_h.m_uvc_h.m_agent_h[0].m_mon_h [M MON write addr PHASE before] Inside master mon
# UVM_INFO ../env/m_agent/axi_m_mon.sv(61) @ 0: uvm_test_top.env_h.m_uvc_h.m_agent_h[0].m_mon_h [M MON write data PHASE before] Inside master mon
# UVM_INFO ../env/m_agent/axi_m_mon.sv(86) @ 0: uvm_test_top.env_h.m_uvc_h.m_agent_h[0].m_mon_h [M MON read addr PHASE before] Inside master mon
# UVM_INFO ../env/m_agent/axi_m_mon.sv(108) @ 0: uvm_test_top.env_h.m_uvc_h.m_agent_h[0].m_mon_h [M MON read data PHASE before] Inside master mon
# Before AW CHANNEL
# Before W CHANNEL
# Before AR CHANNEL
# Before R CHANNEL
# cnt : 1
# cnt : 2
# cnt : 3
# cnt : 4
# cnt : 5
# cnt : 6
# cnt : 7
# cnt : 8
# cnt : 9
# cnt : 10
# cnt : 11
# cnt : 12
# cnt : 13
# cnt : 14
# cnt : 15
# cnt : 16
# cnt : 17
# cnt : 18
# cnt : 19
# cnt : 20
# cnt : 21
# cnt : 22
# cnt : 23
# cnt : 24
# cnt : 25
# cnt : 26
# cnt : 27
# cnt : 28
# cnt : 29
# cnt : 30
# cnt : 31
# cnt : 32
# cnt : 33
# cnt : 34
# cnt : 35
# cnt : 36
# cnt : 37
# cnt : 38
# cnt : 39
# cnt : 40
# cnt : 41
# cnt : 42
# cnt : 43
# cnt : 44
# cnt : 45
# cnt : 46
# cnt : 47
# cnt : 48
# cnt : 49
# cnt : 50
# cnt : 51
# cnt : 52
# cnt : 53
# cnt : 54
# cnt : 55
# cnt : 56
# cnt : 57
# cnt : 58
# cnt : 59
# cnt : 60
# cnt : 61
# cnt : 62
# cnt : 63
# cnt : 64
# cnt : 65
# cnt : 66
# cnt : 67
# cnt : 68
# cnt : 69
# cnt : 70
# cnt : 71
# cnt : 72
# cnt : 73
# cnt : 74
# cnt : 75
# cnt : 76
# cnt : 77
# cnt : 78
# cnt : 79
# cnt : 80
# cnt : 81
# cnt : 82
# cnt : 83
# cnt : 84
# cnt : 85
# cnt : 86
# cnt : 87
# cnt : 88
# cnt : 89
# cnt : 90
# cnt : 91
# cnt : 92
# cnt : 93
# cnt : 94
# cnt : 95
# cnt : 96
# cnt : 97
# cnt : 98
# cnt : 99
# cnt : 100
# cnt : 101
# cnt : 102
# cnt : 103
# cnt : 104
# cnt : 105
# cnt : 106
# cnt : 107
# cnt : 108
# cnt : 109
# cnt : 110
# cnt : 111
# cnt : 112
# cnt : 113
# cnt : 114
# cnt : 115
# cnt : 116
# cnt : 117
# cnt : 118
# cnt : 119
# cnt : 120
# cnt : 121
# cnt : 122
# cnt : 123
# cnt : 124
# cnt : 125
# cnt : 126
# cnt : 127
# cnt : 128
# cnt : 129
# cnt : 130
# cnt : 131
# cnt : 132
# cnt : 133
# cnt : 134
# cnt : 135
# cnt : 136
# cnt : 137
# cnt : 138
# cnt : 139
# cnt : 140
# cnt : 141
# cnt : 142
# cnt : 143
# cnt : 144
# cnt : 145
# cnt : 146
# cnt : 147
# cnt : 148
# cnt : 149
# cnt : 150
# cnt : 151
# cnt : 152
# cnt : 153
# cnt : 154
# cnt : 155
# cnt : 156
# cnt : 157
# cnt : 158
# cnt : 159
# cnt : 160
# cnt : 161
# cnt : 162
# cnt : 163
# cnt : 164
# cnt : 165
# cnt : 166
# cnt : 167
# cnt : 168
# cnt : 169
# cnt : 170
# cnt : 171
# cnt : 172
# cnt : 173
# cnt : 174
# cnt : 175
# cnt : 176
# cnt : 177
# cnt : 178
# cnt : 179
# cnt : 180
# cnt : 181
# cnt : 182
# cnt : 183
# cnt : 184
# cnt : 185
# cnt : 186
# cnt : 187
# cnt : 188
# cnt : 189
# cnt : 190
# cnt : 191
# cnt : 192
# cnt : 193
# cnt : 194
# cnt : 195
# cnt : 196
# cnt : 197
# cnt : 198
# cnt : 199
# cnt : 200
# cnt : 201
# cnt : 202
# cnt : 203
# cnt : 204
# cnt : 205
# cnt : 206
# cnt : 207
# cnt : 208
# cnt : 209
# cnt : 210
# cnt : 211
# cnt : 212
# cnt : 213
# cnt : 214
# cnt : 215
# cnt : 216
# cnt : 217
# cnt : 218
# cnt : 219
# cnt : 220
# cnt : 221
# cnt : 222
# cnt : 223
# cnt : 224
# cnt : 225
# cnt : 226
# cnt : 227
# cnt : 228
# cnt : 229
# cnt : 230
# cnt : 231
# cnt : 232
# cnt : 233
# cnt : 234
# cnt : 235
# cnt : 236
# cnt : 237
# cnt : 238
# cnt : 239
# cnt : 240
# cnt : 241
# cnt : 242
# cnt : 243
# cnt : 244
# cnt : 245
# cnt : 246
# cnt : 247
# cnt : 248
# cnt : 249
# cnt : 250
# cnt : 251
# cnt : 252
# cnt : 253
# cnt : 254
# cnt : 255
# cnt : 256
# cnt : 257
# cnt : 258
# cnt : 259
# cnt : 260
# cnt : 261
# cnt : 262
# cnt : 263
# cnt : 264
# cnt : 265
# cnt : 266
# cnt : 267
# cnt : 268
# cnt : 269
# cnt : 270
# cnt : 271
# cnt : 272
# cnt : 273
# cnt : 274
# cnt : 275
# cnt : 276
# cnt : 277
# cnt : 278
# cnt : 279
# cnt : 280
# cnt : 281
# cnt : 282
# cnt : 283
# cnt : 284
# cnt : 285
# cnt : 286
# cnt : 287
# cnt : 288
# cnt : 289
# cnt : 290
# cnt : 291
# cnt : 292
# cnt : 293
# cnt : 294
# cnt : 295
# cnt : 296
# cnt : 297
# cnt : 298
# cnt : 299
# cnt : 300
# WID: 48469 , AWID : 48469
# awid in s mon : bd55 , awaddr : 17f
#                   15wlast : 0
# WID: 48469 , AWID : 48469
# awid in s mon : bf1c , awaddr : aa8
# INIDE_SLAVE_MON_CTR=1
# arid in s mon : 60203
#                   25wlast : 0
# WID: 48469 , AWID : 48469
# m mon ar id : eb2b
# INIDE_SLAVE_MON_CTR=2
# arid in s mon : 59707
# awid in s mon : 2b53 , awaddr : 386
#                   35wlast : 0
# WID: 48469 , AWID : 48469
# m mon ar id : e93b
# awid in s mon : a632 , awaddr : 3a
# INIDE_SLAVE_MON_CTR=3
# arid in s mon : 59859
#                   45wlast : 0
# WID: 48469 , AWID : 48469
# m mon ar id : e9d3
# INIDE_SLAVE_MON_CTR=4
# arid in s mon : 10426
# awid in s mon : 8031 , awaddr : 1c75
#                   55wlast : 0
# WID: 48469 , AWID : 48469
# m mon ar id : 28ba
# awid in s mon : fb10 , awaddr : 1e0a
# INIDE_SLAVE_MON_CTR=5
# arid in s mon : 61524
#                   65wlast : 0
# WID: 48469 , AWID : 48469
# m mon ar id : f054
# INIDE_SLAVE_MON_CTR=6
# arid in s mon : 26459
# awid in s mon : bbe1 , awaddr : 43d
#                   75wlast : 0
# WID: 48469 , AWID : 48469
# m mon ar id : 675b
# awid in s mon : bc15 , awaddr : 4cb
# INIDE_SLAVE_MON_CTR=7
# arid in s mon : 22357
#                   85wlast : 0
# WID: 48469 , AWID : 48469
# m mon ar id : 5755
# INIDE_SLAVE_MON_CTR=8
# arid in s mon : 58966
# awid in s mon : 5bc8 , awaddr : da4
#                   95wlast : 0
# WID: 48469 , AWID : 48469
# m mon ar id : e656
# awid in s mon : d167 , awaddr : 2082
# INIDE_SLAVE_MON_CTR=9
# arid in s mon : 64759
#                  105wlast : 0
# WID: 48469 , AWID : 48469
# m mon ar id : fcf7
# INIDE_SLAVE_MON_CTR=10
# arid in s mon : 43156
# awid in s mon : 43d7 , awaddr : 1325
#                  115wlast : 0
# WID: 48469 , AWID : 48469
# m mon ar id : a894
# awid in s mon : 59e0 , awaddr : 1d70
# INIDE_SLAVE_MON_CTR=11
# arid in s mon : 52439
#                  125wlast : 0
# WID: 48469 , AWID : 48469
# m mon ar id : ccd7
# INIDE_SLAVE_MON_CTR=12
# arid in s mon : 4905
# awid in s mon : 7d1f , awaddr : 21d0
#                  135wlast : 0
# WID: 48469 , AWID : 48469
# m mon ar id : 1329
# awid in s mon : 3181 , awaddr : e15
# INIDE_SLAVE_MON_CTR=13
# arid in s mon : 35577
#                  145wlast : 0
# WID: 48469 , AWID : 48469
# m mon ar id : 8af9
# INIDE_SLAVE_MON_CTR=14
# arid in s mon : 25219
# awid in s mon : 9de9 , awaddr : 2078
#                  155wlast : 0
# WID: 48469 , AWID : 48469
# m mon ar id : 6283
# awid in s mon : 870b , awaddr : 1f99
# INIDE_SLAVE_MON_CTR=15
# arid in s mon : 47995
#                  165wlast : 0
# WID: 48469 , AWID : 48469
# m mon ar id : bb7b
# INIDE_SLAVE_MON_CTR=16
# arid in s mon : 51276
# awid in s mon : de5 , awaddr : 265a
#                  175wlast : 0
# WID: 48469 , AWID : 48469
# m mon ar id : c84c
# awid in s mon : 3595 , awaddr : 48e
# INIDE_SLAVE_MON_CTR=17
# arid in s mon : 44353
#                  185wlast : 0
# WID: 48469 , AWID : 48469
# m mon ar id : ad41
# INIDE_SLAVE_MON_CTR=18
# arid in s mon : 34273
# awid in s mon : 2178 , awaddr : 1ac5
#                  195wlast : 0
# WID: 48469 , AWID : 48469
# m mon ar id : 85e1
# awid in s mon : ad86 , awaddr : 2420
# INIDE_SLAVE_MON_CTR=19
# arid in s mon : 40878
#                  205wlast : 0
# WID: 48469 , AWID : 48469
# m mon ar id : 9fae
# INIDE_SLAVE_MON_CTR=20
# arid in s mon : 65033
# awid in s mon : fe69 , awaddr : d0f
#                  215wlast : 0
# WID: 48469 , AWID : 48469
# m mon ar id : fe09
# awid in s mon : 177c , awaddr : 97d
# INIDE_SLAVE_MON_CTR=21
# arid in s mon : 39064
#                  225wlast : 0
# WID: 48469 , AWID : 48469
# m mon ar id : 9898
# INIDE_SLAVE_MON_CTR=22
# arid in s mon : 62773
# awid in s mon : 661d , awaddr : d28
#                  235wlast : 0
# WID: 48469 , AWID : 48469
# m mon ar id : f535
# awid in s mon : e79f , awaddr : 1c94
# INIDE_SLAVE_MON_CTR=23
# arid in s mon : 60350
#                  245wlast : 0
# WID: 48469 , AWID : 48469
# m mon ar id : ebbe
# INIDE_SLAVE_MON_CTR=24
# arid in s mon : 45043
# awid in s mon : 5d92 , awaddr : 6f7
#                  255wlast : 0
# WID: 48469 , AWID : 48469
# m mon ar id : aff3
# awid in s mon : 74b6 , awaddr : 35b
# INIDE_SLAVE_MON_CTR=25
# arid in s mon : 15796
#                  265wlast : 0
# WID: 48469 , AWID : 48469
# m mon ar id : 3db4
# INIDE_SLAVE_MON_CTR=26
# arid in s mon : 64427
# awid in s mon : 2a80 , awaddr : 1b0f
#                  275wlast : 0
# WID: 48469 , AWID : 48469
# m mon ar id : fbab
# awid in s mon : 1ffb , awaddr : 242b
# INIDE_SLAVE_MON_CTR=27
# arid in s mon : 15132
#                  285wlast : 0
# WID: 48469 , AWID : 48469
# m mon ar id : 3b1c
# INIDE_SLAVE_MON_CTR=28
# arid in s mon : 25003
# awid in s mon : 4336 , awaddr : a26
#                  295wlast : 0
# WID: 48469 , AWID : 48469
# m mon ar id : 61ab
# awid in s mon : 2877 , awaddr : 2163
# INIDE_SLAVE_MON_CTR=29
# arid in s mon : 51408
#                  305wlast : 0
# WID: 48469 , AWID : 48469
# m mon ar id : c8d0
# INIDE_SLAVE_MON_CTR=30
# arid in s mon : 29970
# awid in s mon : 359 , awaddr : 1260
#                  315wlast : 0
# WID: 48469 , AWID : 48469
# m mon ar id : 7512
# awid in s mon : 36be , awaddr : 1763
# INIDE_SLAVE_MON_CTR=31
# arid in s mon : 11395
#                  325wlast : 0
# WID: 48469 , AWID : 48469
# m mon ar id : 2c83
# INIDE_SLAVE_MON_CTR=32
# arid in s mon : 43166
# awid in s mon : 3127 , awaddr : 1bb2
#                  335wlast : 0
# WID: 48469 , AWID : 48469
# m mon ar id : a89e
# awid in s mon : 5250 , awaddr : 11b3
# INIDE_SLAVE_MON_CTR=33
# arid in s mon : 11187
#                  345wlast : 0
# WID: 48469 , AWID : 48469
# m mon ar id : 2bb3
# INIDE_SLAVE_MON_CTR=34
# arid in s mon : 5180
# awid in s mon : 2eeb , awaddr : 1914
#                  355wlast : 0
# WID: 48469 , AWID : 48469
# m mon ar id : 143c
# awid in s mon : 2c50 , awaddr : 947
# INIDE_SLAVE_MON_CTR=35
# arid in s mon : 33047
#                  365wlast : 0
# WID: 48469 , AWID : 48469
# m mon ar id : 8117
# INIDE_SLAVE_MON_CTR=36
# arid in s mon : 41870
# awid in s mon : 810c , awaddr : b04
#                  375wlast : 0
# WID: 48469 , AWID : 48469
# m mon ar id : a38e
# awid in s mon : cb7a , awaddr : 2ef
# INIDE_SLAVE_MON_CTR=37
# arid in s mon : 14176
#                  385wlast : 0
# WID: 48469 , AWID : 48469
# m mon ar id : 3760
# INIDE_SLAVE_MON_CTR=38
# arid in s mon : 15499
# awid in s mon : 2afe , awaddr : e3a
#                  395wlast : 0
# WID: 48469 , AWID : 48469
# m mon ar id : 3c8b
# awid in s mon : 90ac , awaddr : 3f5
# INIDE_SLAVE_MON_CTR=39
# arid in s mon : 29379
#                  405wlast : 0
# WID: 48469 , AWID : 48469
# m mon ar id : 72c3
# INIDE_SLAVE_MON_CTR=40
# arid in s mon : 11568
# awid in s mon : b6ce , awaddr : 809
#                  415wlast : 0
# WID: 48469 , AWID : 48469
# m mon ar id : 2d30
# awid in s mon : 6ad5 , awaddr : 164
# INIDE_SLAVE_MON_CTR=41
# arid in s mon : 16179
#                  425wlast : 0
# WID: 48469 , AWID : 48469
# m mon ar id : 3f33
# INIDE_SLAVE_MON_CTR=42
# arid in s mon : 60092
# awid in s mon : c8cc , awaddr : 981
#                  435wlast : 0
# WID: 48469 , AWID : 48469
# m mon ar id : eabc
# awid in s mon : 13d6 , awaddr : 2595
# INIDE_SLAVE_MON_CTR=43
# arid in s mon : 36315
#                  445wlast : 0
# WID: 48469 , AWID : 48469
# m mon ar id : 8ddb
# INIDE_SLAVE_MON_CTR=44
# arid in s mon : 5087
# awid in s mon : 6a29 , awaddr : 428
#                  455wlast : 0
# WID: 48469 , AWID : 48469
# m mon ar id : 13df
# awid in s mon : a989 , awaddr : 71
# INIDE_SLAVE_MON_CTR=45
# arid in s mon : 47476
#                  465wlast : 0
# WID: 48469 , AWID : 48469
# m mon ar id : b974
# INIDE_SLAVE_MON_CTR=46
# arid in s mon : 36504
# awid in s mon : 98df , awaddr : 1ec0
#                  475wlast : 0
# WID: 48469 , AWID : 48469
# m mon ar id : 8e98
# awid in s mon : 4b94 , awaddr : 246a
# INIDE_SLAVE_MON_CTR=47
# arid in s mon : 22723
#                  485wlast : 0
# WID: 48469 , AWID : 48469
# m mon ar id : 58c3
# INIDE_SLAVE_MON_CTR=48
# arid in s mon : 50465
# awid in s mon : 4518 , awaddr : 13b3
#                  495wlast : 0
# WID: 48469 , AWID : 48469
# m mon ar id : c521
# awid in s mon : 4e73 , awaddr : 11f6
# INIDE_SLAVE_MON_CTR=49
# arid in s mon : 9563
#                  505wlast : 0
# WID: 48469 , AWID : 48469
# m mon ar id : 255b
# INIDE_SLAVE_MON_CTR=50
# arid in s mon : 12754
# awid in s mon : db50 , awaddr : 2626
#                  515wlast : 0
# WID: 48469 , AWID : 48469
# m mon ar id : 31d2
# awid in s mon : 7d7d , awaddr : bd5
# INIDE_SLAVE_MON_CTR=51
# arid in s mon : 32108
#                  525wlast : 0
# WID: 48469 , AWID : 48469
# m mon ar id : 7d6c
# INIDE_SLAVE_MON_CTR=52
# arid in s mon : 12915
# awid in s mon : fd61 , awaddr : 18e3
#                  535wlast : 0
# WID: 48469 , AWID : 48469
# m mon ar id : 3273
# awid in s mon : 61cd , awaddr : e00
# INIDE_SLAVE_MON_CTR=53
# arid in s mon : 58420
#                  545wlast : 0
# WID: 48469 , AWID : 48469
# m mon ar id : e434
# INIDE_SLAVE_MON_CTR=54
# arid in s mon : 21916
# awid in s mon : 177f , awaddr : 98f
#                  555wlast : 0
# WID: 48469 , AWID : 48469
# m mon ar id : 559c
# awid in s mon : 4ca , awaddr : 624
# INIDE_SLAVE_MON_CTR=55
# arid in s mon : 31141
#                  565wlast : 0
# WID: 48469 , AWID : 48469
# m mon ar id : 79a5
# INIDE_SLAVE_MON_CTR=56
# arid in s mon : 36107
# awid in s mon : f475 , awaddr : 10db
#                  575wlast : 0
# WID: 48469 , AWID : 48469
# m mon ar id : 8d0b
# awid in s mon : f2e1 , awaddr : 1a8e
# INIDE_SLAVE_MON_CTR=57
# arid in s mon : 65117
#                  585wlast : 0
# WID: 48469 , AWID : 48469
# m mon ar id : fe5d
# INIDE_SLAVE_MON_CTR=58
# arid in s mon : 21315
# awid in s mon : ac6e , awaddr : 1d66
#                  595wlast : 0
# WID: 48469 , AWID : 48469
# m mon ar id : 5343
# awid in s mon : 331 , awaddr : 1498
# INIDE_SLAVE_MON_CTR=59
# arid in s mon : 58658
#                  605wlast : 0
# WID: 48469 , AWID : 48469
# m mon ar id : e522
# INIDE_SLAVE_MON_CTR=60
# arid in s mon : 55026
# awid in s mon : f611 , awaddr : 1cae
#                  615wlast : 0
# WID: 48469 , AWID : 48469
# m mon ar id : d6f2
# awid in s mon : 1d0c , awaddr : 168
# INIDE_SLAVE_MON_CTR=61
# arid in s mon : 30931
#                  625wlast : 0
# WID: 48469 , AWID : 48469
# m mon ar id : 78d3
# INIDE_SLAVE_MON_CTR=62
# arid in s mon : 21841
# awid in s mon : f21b , awaddr : c4a
#                  635wlast : 0
# WID: 48469 , AWID : 48469
# m mon ar id : 5551
# awid in s mon : 81c9 , awaddr : 1dd2
# INIDE_SLAVE_MON_CTR=63
# arid in s mon : 5800
#                  645wlast : 0
# WID: 48469 , AWID : 48469
# m mon ar id : 16a8
# INIDE_SLAVE_MON_CTR=64
# arid in s mon : 56378
# awid in s mon : 8a9e , awaddr : 5d0
#                  655wlast : 0
# WID: 48469 , AWID : 48469
# m mon ar id : dc3a
# awid in s mon : 1790 , awaddr : ba5
# INIDE_SLAVE_MON_CTR=65
# arid in s mon : 43113
#                  665wlast : 0
# WID: 48469 , AWID : 48469
# m mon ar id : a869
# INIDE_SLAVE_MON_CTR=66
# arid in s mon : 31737
# awid in s mon : fc91 , awaddr : 1925
#                  675wlast : 0
# WID: 48469 , AWID : 48469
# m mon ar id : 7bf9
# awid in s mon : 103c , awaddr : 15a6
# INIDE_SLAVE_MON_CTR=67
# arid in s mon : 34398
#                  685wlast : 0
# WID: 48469 , AWID : 48469
# m mon ar id : 865e
# INIDE_SLAVE_MON_CTR=68
# arid in s mon : 20639
# awid in s mon : 492d , awaddr : 7bc
#                  695wlast : 0
# WID: 48469 , AWID : 48469
# m mon ar id : 509f
# awid in s mon : 4f82 , awaddr : 35f
# INIDE_SLAVE_MON_CTR=69
# arid in s mon : 43133
#                  705wlast : 0
# WID: 48469 , AWID : 48469
# m mon ar id : a87d
# INIDE_SLAVE_MON_CTR=70
# arid in s mon : 54666
# awid in s mon : 1682 , awaddr : af7
#                  715wlast : 0
# WID: 48469 , AWID : 48469
# m mon ar id : d58a
# awid in s mon : 4b17 , awaddr : 3bd
# INIDE_SLAVE_MON_CTR=71
# arid in s mon : 2480
#                  725wlast : 0
# WID: 48469 , AWID : 48469
# m mon ar id : 9b0
# INIDE_SLAVE_MON_CTR=72
# arid in s mon : 58224
# awid in s mon : 8ca1 , awaddr : 119e
#                  735wlast : 0
# WID: 48469 , AWID : 48469
# m mon ar id : e370
# awid in s mon : dcfb , awaddr : 1844
# INIDE_SLAVE_MON_CTR=73
# arid in s mon : 18096
#                  745wlast : 0
# WID: 48469 , AWID : 48469
# m mon ar id : 46b0
# INIDE_SLAVE_MON_CTR=74
# arid in s mon : 10861
# awid in s mon : e6d0 , awaddr : 244a
#                  755wlast : 0
# WID: 48469 , AWID : 48469
# m mon ar id : 2a6d
# abc : 1
# abc : 2
# abc : 3
# abc : 4
# abc : 5
# abc : 6
# abc : 7
# abc : 8
# abc : 9
# abc : 10
# abc : 11
# abc : 12
# abc : 13
# abc : 14
# abc : 15
# abc : 16
# abc : 17
# abc : 18
# abc : 19
# abc : 20
# abc : 21
# abc : 22
# abc : 23
# abc : 24
# abc : 25
# abc : 26
# abc : 27
# abc : 28
# abc : 29
# abc : 30
# abc : 31
# abc : 32
# abc : 33
# abc : 34
# abc : 35
# abc : 36
# abc : 37
# abc : 38
# abc : 39
# abc : 40
# abc : 41
# abc : 42
# abc : 43
# abc : 44
# abc : 45
# abc : 46
# abc : 47
# abc : 48
# abc : 49
# abc : 50
# abc : 51
# abc : 52
# abc : 53
# abc : 54
# abc : 55
# abc : 56
# abc : 57
# abc : 58
# abc : 59
# abc : 60
# abc : 61
# abc : 62
# abc : 63
# abc : 64
# abc : 65
# abc : 66
# abc : 67
# abc : 68
# abc : 69
# abc : 70
# abc : 71
# abc : 72
# abc : 73
# abc : 74
# abc : 75
# abc : 76
# xyz : 1
# xyz : 2
# xyz : 3
# xyz : 4
# xyz : 5
# xyz : 6
# xyz : 7
# xyz : 8
# xyz : 9
# xyz : 10
# xyz : 11
# xyz : 12
# xyz : 13
# xyz : 14
# xyz : 15
# xyz : 16
# xyz : 17
# xyz : 18
# xyz : 19
# xyz : 20
# xyz : 21
# xyz : 22
# xyz : 23
# xyz : 24
# xyz : 25
# xyz : 26
# xyz : 27
# xyz : 28
# xyz : 29
# xyz : 30
# xyz : 31
# xyz : 32
# xyz : 33
# xyz : 34
# xyz : 35
# xyz : 36
# xyz : 37
# xyz : 38
# xyz : 39
# xyz : 40
# xyz : 41
# xyz : 42
# xyz : 43
# xyz : 44
# xyz : 45
# xyz : 46
# xyz : 47
# xyz : 48
# xyz : 49
# xyz : 50
# xyz : 51
# xyz : 52
# xyz : 53
# xyz : 54
# xyz : 55
# xyz : 56
# xyz : 57
# xyz : 58
# xyz : 59
# xyz : 60
# xyz : 61
# xyz : 62
# xyz : 63
# xyz : 64
# xyz : 65
# awid in s mon : 9071 , awaddr : 25c9
# INIDE_SLAVE_MON_CTR=75
# arid in s mon : 29068
#                  765wlast : 1
# AFFTER W CHANNEL
# WID: 48924 , AWID : 48924
# m mon ar id : 718c
# match arid : 0 , rid : 0
# UVM_INFO ../env/s_agent/axi_s_drv.sv(31) @ 765: uvm_test_top.env_h.s_uvc_h.s_agent_h[0].s_drv_h [ID MATCH] aaaaa
# s seqs arid : 60203
# INIDE_SLAVE_SEQ_CTR=1
# match arid : eb2b , rid : eb2b
# UVM_INFO ../env/s_agent/axi_s_drv.sv(31) @ 765: uvm_test_top.env_h.s_uvc_h.s_agent_h[0].s_drv_h [ID MATCH] aaaaa
# rd data in s drv: e1000000 , len : 64 , last:0 , valid : 1
# INIDE_SLAVE_MON_CTR=76
# arid in s mon : 45337
# awid in s mon : 2634 , awaddr : d7c
#                  775wlast : 0
# WID: 48924 , AWID : 48924
# m mon ar id : b119
# m mon rid : eb2b
# rd data in s drv: 5ade4b3 , len : 64 , last:0 , valid : 1
# awid in s mon : 4af5 , awaddr : 26d8
# INIDE_SLAVE_MON_CTR=77
# arid in s mon : 24484
#                  785wlast : 0
# WID: 48924 , AWID : 48924
# m mon rid : eb2b
# m mon ar id : 5fa4
# UVM_INFO ../env/m_agent/axi_base_m_seqs.sv(26) @ 785: uvm_test_top.env_h.m_uvc_h.m_agent_h[0].m_seqr_h@@vseqs_h.m_wseqs_h [IN V SEQS] Got B-channel response from driver
# rd data in s drv: 55d992b7 , len : 64 , last:0 , valid : 1
# INIDE_SLAVE_MON_CTR=78
# arid in s mon : 27438
# awid in s mon : c008 , awaddr : 405
#                  795wlast : 0
# WID: 48924 , AWID : 48924
# m mon ar id : 6b2e
# m mon rid : eb2b
# rd data in s drv: edb2c52b , len : 64 , last:0 , valid : 1
# awid in s mon : d76c , awaddr : 1128
# INIDE_SLAVE_MON_CTR=79
# arid in s mon : 9050
#                  805wlast : 0
# WID: 48924 , AWID : 48924
# m mon rid : eb2b
# m mon ar id : 235a
# rd data in s drv: 1b923475 , len : 64 , last:0 , valid : 1
# INIDE_SLAVE_MON_CTR=80
# arid in s mon : 59726
# awid in s mon : 3005 , awaddr : 6bf
#                  815wlast : 0
# WID: 48924 , AWID : 48924
# m mon ar id : e94e
# m mon rid : eb2b
# rd data in s drv: 4107e103 , len : 64 , last:0 , valid : 1
# awid in s mon : 77ec , awaddr : bd4
# INIDE_SLAVE_MON_CTR=81
# arid in s mon : 3496
#                  825wlast : 0
# WID: 48924 , AWID : 48924
# m mon rid : eb2b
# m mon ar id : da8
# rd data in s drv: b7108ab , len : 64 , last:0 , valid : 1
# INIDE_SLAVE_MON_CTR=82
# arid in s mon : 23075
# awid in s mon : 9a08 , awaddr : 842
#                  835wlast : 0
# WID: 48924 , AWID : 48924
# m mon ar id : 5a23
# m mon rid : eb2b
# rd data in s drv: cb5f6e0d , len : 64 , last:0 , valid : 1
# awid in s mon : 4b22 , awaddr : 911
# INIDE_SLAVE_MON_CTR=83
# arid in s mon : 53893
#                  845wlast : 0
# WID: 48924 , AWID : 48924
# m mon rid : eb2b
# m mon ar id : d285
# rd data in s drv: 4c64af6 , len : 64 , last:0 , valid : 1
# INIDE_SLAVE_MON_CTR=84
# arid in s mon : 57238
# awid in s mon : 778b , awaddr : 1409
#                  855wlast : 0
# WID: 48924 , AWID : 48924
# m mon ar id : df96
# m mon rid : eb2b
# rd data in s drv: 7868e7e2 , len : 64 , last:0 , valid : 1
# awid in s mon : 4b82 , awaddr : 4dc
# INIDE_SLAVE_MON_CTR=85
# arid in s mon : 61303
#                  865wlast : 0
# WID: 48924 , AWID : 48924
# m mon rid : eb2b
# m mon ar id : ef77
# rd data in s drv: 969e6246 , len : 64 , last:0 , valid : 1
# INIDE_SLAVE_MON_CTR=86
# arid in s mon : 23900
# awid in s mon : dd3b , awaddr : 964
#                  875wlast : 0
# WID: 48924 , AWID : 48924
# m mon ar id : 5d5c
# m mon rid : eb2b
# rd data in s drv: fe2516af , len : 64 , last:0 , valid : 1
# awid in s mon : 3a8a , awaddr : 1f29
# INIDE_SLAVE_MON_CTR=87
# arid in s mon : 61299
#                  885wlast : 0
# WID: 48924 , AWID : 48924
# m mon rid : eb2b
# m mon ar id : ef73
# rd data in s drv: 8f210cad , len : 64 , last:0 , valid : 1
# INIDE_SLAVE_MON_CTR=88
# arid in s mon : 13152
# awid in s mon : a371 , awaddr : 57b
#                  895wlast : 0
# WID: 48924 , AWID : 48924
# m mon ar id : 3360
# m mon rid : eb2b
# rd data in s drv: 86f1b2d8 , len : 64 , last:0 , valid : 1
# awid in s mon : b271 , awaddr : 21d7
# INIDE_SLAVE_MON_CTR=89
# arid in s mon : 60289
#                  905wlast : 0
# WID: 48924 , AWID : 48924
# m mon rid : eb2b
# m mon ar id : eb81
# rd data in s drv: b2effe30 , len : 64 , last:0 , valid : 1
# INIDE_SLAVE_MON_CTR=90
# arid in s mon : 46097
# awid in s mon : 75fe , awaddr : fe4
#                  915wlast : 0
# WID: 48924 , AWID : 48924
# m mon ar id : b411
# m mon rid : eb2b
# rd data in s drv: f856f24 , len : 64 , last:0 , valid : 1
# awid in s mon : 891 , awaddr : cdd
# INIDE_SLAVE_MON_CTR=91
# arid in s mon : 13132
#                  925wlast : 0
# WID: 48924 , AWID : 48924
# m mon rid : eb2b
# m mon ar id : 334c
# rd data in s drv: 8fa19992 , len : 64 , last:0 , valid : 1
# INIDE_SLAVE_MON_CTR=92
# arid in s mon : 26239
# awid in s mon : 9526 , awaddr : 1cb8
#                  935wlast : 0
# WID: 48924 , AWID : 48924
# m mon ar id : 667f
# m mon rid : eb2b
# rd data in s drv: c12df88d , len : 64 , last:0 , valid : 1
# awid in s mon : 7593 , awaddr : 108d
# INIDE_SLAVE_MON_CTR=93
# arid in s mon : 50062
#                  945wlast : 0
# WID: 48924 , AWID : 48924
# m mon rid : eb2b
# m mon ar id : c38e
# rd data in s drv: 9d43dc14 , len : 64 , last:0 , valid : 1
# INIDE_SLAVE_MON_CTR=94
# arid in s mon : 57647
# awid in s mon : 8fb3 , awaddr : 534
#                  955wlast : 0
# WID: 48924 , AWID : 48924
# m mon ar id : e12f
# m mon rid : eb2b
# rd data in s drv: 9d37c28c , len : 64 , last:0 , valid : 1
# awid in s mon : 18fa , awaddr : 201f
# INIDE_SLAVE_MON_CTR=95
# arid in s mon : 23728
#                  965wlast : 0
# WID: 48924 , AWID : 48924
# m mon rid : eb2b
# m mon ar id : 5cb0
# rd data in s drv: 77df5636 , len : 64 , last:0 , valid : 1
# INIDE_SLAVE_MON_CTR=96
# arid in s mon : 33600
# awid in s mon : 50ca , awaddr : 52c
#                  975wlast : 0
# WID: 48924 , AWID : 48924
# m mon ar id : 8340
# m mon rid : eb2b
# rd data in s drv: da7ff4a0 , len : 64 , last:0 , valid : 1
# awid in s mon : 7d41 , awaddr : 0
# INIDE_SLAVE_MON_CTR=97
# arid in s mon : 59131
#                  985wlast : 0
# WID: 48924 , AWID : 48924
# m mon rid : eb2b
# m mon ar id : e6fb
# rd data in s drv: 2acde036 , len : 64 , last:0 , valid : 1
# INIDE_SLAVE_MON_CTR=98
# arid in s mon : 11031
# awid in s mon : 57bf , awaddr : cb0
#                  995wlast : 0
# WID: 48924 , AWID : 48924
# m mon ar id : 2b17
# m mon rid : eb2b
# rd data in s drv: 526c7e49 , len : 64 , last:0 , valid : 1
# awid in s mon : 1ca , awaddr : 6a9
# INIDE_SLAVE_MON_CTR=99
# arid in s mon : 46713
#                 1005wlast : 0
# WID: 48924 , AWID : 48924
# m mon rid : eb2b
# m mon ar id : b679
# rd data in s drv: e2a6903e , len : 64 , last:0 , valid : 1
# INIDE_SLAVE_MON_CTR=100
# arid in s mon : 44059
# awid in s mon : 85b , awaddr : e3e
#                 1015wlast : 0
# WID: 48924 , AWID : 48924
# m mon ar id : ac1b
# m mon rid : eb2b
# rd data in s drv: 4c6eda17 , len : 64 , last:0 , valid : 1
# awid in s mon : b9ac , awaddr : 1659
# INIDE_SLAVE_MON_CTR=101
# arid in s mon : 55528
#                 1025wlast : 0
# WID: 48924 , AWID : 48924
# m mon rid : eb2b
# m mon ar id : d8e8
# rd data in s drv: 17ae72b5 , len : 64 , last:0 , valid : 1
# INIDE_SLAVE_MON_CTR=102
# arid in s mon : 4360
# awid in s mon : 3ed6 , awaddr : d79
#                 1035wlast : 0
# WID: 48924 , AWID : 48924
# m mon ar id : 1108
# m mon rid : eb2b
# rd data in s drv: 72423ef6 , len : 64 , last:0 , valid : 1
# awid in s mon : beb5 , awaddr : 1c52
# INIDE_SLAVE_MON_CTR=103
# arid in s mon : 3534
#                 1045wlast : 0
# WID: 48924 , AWID : 48924
# m mon rid : eb2b
# m mon ar id : dce
# rd data in s drv: a7683d63 , len : 64 , last:0 , valid : 1
# INIDE_SLAVE_MON_CTR=104
# arid in s mon : 47514
# awid in s mon : aaa1 , awaddr : 9a4
#                 1055wlast : 0
# WID: 48924 , AWID : 48924
# m mon ar id : b99a
# m mon rid : eb2b
# rd data in s drv: 5e775e75 , len : 64 , last:0 , valid : 1
# awid in s mon : ce39 , awaddr : 5da
# INIDE_SLAVE_MON_CTR=105
# arid in s mon : 33182
#                 1065wlast : 0
# WID: 48924 , AWID : 48924
# m mon rid : eb2b
# m mon ar id : 819e
# rd data in s drv: 8a2632a1 , len : 64 , last:0 , valid : 1
# INIDE_SLAVE_MON_CTR=106
# arid in s mon : 56834
# awid in s mon : e5fb , awaddr : 14d6
#                 1075wlast : 0
# WID: 48924 , AWID : 48924
# m mon ar id : de02
# m mon rid : eb2b
# rd data in s drv: 8b0568ca , len : 64 , last:0 , valid : 1
# awid in s mon : 2e72 , awaddr : 18b7
# INIDE_SLAVE_MON_CTR=107
# arid in s mon : 60674
#                 1085wlast : 0
# WID: 48924 , AWID : 48924
# m mon rid : eb2b
# m mon ar id : ed02
# rd data in s drv: 306ebe98 , len : 64 , last:0 , valid : 1
# INIDE_SLAVE_MON_CTR=108
# arid in s mon : 25794
# awid in s mon : 5b4a , awaddr : 1aa3
#                 1095wlast : 0
# WID: 48924 , AWID : 48924
# m mon ar id : 64c2
# m mon rid : eb2b
# rd data in s drv: 780247cc , len : 64 , last:0 , valid : 1
# awid in s mon : cd59 , awaddr : a2
# INIDE_SLAVE_MON_CTR=109
# arid in s mon : 24115
#                 1105wlast : 0
# WID: 48924 , AWID : 48924
# m mon rid : eb2b
# m mon ar id : 5e33
# rd data in s drv: 2ec8852e , len : 64 , last:0 , valid : 1
# INIDE_SLAVE_MON_CTR=110
# arid in s mon : 52571
# awid in s mon : 2a73 , awaddr : 17a1
#                 1115wlast : 0
# WID: 48924 , AWID : 48924
# m mon ar id : cd5b
# m mon rid : eb2b
# rd data in s drv: d3202f19 , len : 64 , last:0 , valid : 1
# awid in s mon : 9ce1 , awaddr : 1691
# INIDE_SLAVE_MON_CTR=111
# arid in s mon : 47495
#                 1125wlast : 0
# WID: 48924 , AWID : 48924
# m mon rid : eb2b
# m mon ar id : b987
# rd data in s drv: 6e46a4bb , len : 64 , last:0 , valid : 1
# INIDE_SLAVE_MON_CTR=112
# arid in s mon : 11830
# awid in s mon : 4b43 , awaddr : 4e0
#                 1135wlast : 0
# WID: 48924 , AWID : 48924
# m mon ar id : 2e36
# m mon rid : eb2b
# rd data in s drv: d62fea62 , len : 64 , last:0 , valid : 1
# awid in s mon : 815b , awaddr : 83b
# INIDE_SLAVE_MON_CTR=113
# arid in s mon : 55098
#                 1145wlast : 0
# WID: 48924 , AWID : 48924
# m mon rid : eb2b
# m mon ar id : d73a
# rd data in s drv: 4ca22cc8 , len : 64 , last:0 , valid : 1
# INIDE_SLAVE_MON_CTR=114
# arid in s mon : 39152
# awid in s mon : 2e86 , awaddr : 956
#                 1155wlast : 0
# WID: 48924 , AWID : 48924
# m mon ar id : 98f0
# m mon rid : eb2b
# rd data in s drv: 9a798827 , len : 64 , last:0 , valid : 1
# awid in s mon : f4d5 , awaddr : 262c
# INIDE_SLAVE_MON_CTR=115
# arid in s mon : 15358
#                 1165wlast : 0
# WID: 48924 , AWID : 48924
# m mon rid : eb2b
# m mon ar id : 3bfe
# rd data in s drv: e48eb7c9 , len : 64 , last:0 , valid : 1
# INIDE_SLAVE_MON_CTR=116
# arid in s mon : 17798
# awid in s mon : 18be , awaddr : 2334
#                 1175wlast : 0
# WID: 48924 , AWID : 48924
# m mon ar id : 4586
# m mon rid : eb2b
# rd data in s drv: 9698b3ba , len : 64 , last:0 , valid : 1
# awid in s mon : e352 , awaddr : 2496
# INIDE_SLAVE_MON_CTR=117
# arid in s mon : 46781
#                 1185wlast : 0
# WID: 48924 , AWID : 48924
# m mon rid : eb2b
# m mon ar id : b6bd
# rd data in s drv: 95c69d3a , len : 64 , last:0 , valid : 1
# INIDE_SLAVE_MON_CTR=118
# arid in s mon : 1174
# awid in s mon : 8542 , awaddr : 196b
#                 1195wlast : 0
# WID: 48924 , AWID : 48924
# m mon ar id : 496
# m mon rid : eb2b
# rd data in s drv: ab357a0d , len : 64 , last:0 , valid : 1
# awid in s mon : d529 , awaddr : 1e02
# INIDE_SLAVE_MON_CTR=119
# arid in s mon : 62302
#                 1205wlast : 0
# WID: 48924 , AWID : 48924
# m mon rid : eb2b
# m mon ar id : f35e
# rd data in s drv: 45fb3108 , len : 64 , last:0 , valid : 1
# INIDE_SLAVE_MON_CTR=120
# arid in s mon : 28103
# awid in s mon : aeb0 , awaddr : 754
#                 1215wlast : 0
# WID: 48924 , AWID : 48924
# m mon ar id : 6dc7
# m mon rid : eb2b
# rd data in s drv: f8edb6cd , len : 64 , last:0 , valid : 1
# awid in s mon : cc23 , awaddr : 221e
# INIDE_SLAVE_MON_CTR=121
# arid in s mon : 28778
#                 1225wlast : 0
# WID: 48924 , AWID : 48924
# m mon rid : eb2b
# m mon ar id : 706a
# rd data in s drv: 48390880 , len : 64 , last:0 , valid : 1
# INIDE_SLAVE_MON_CTR=122
# arid in s mon : 63653
# awid in s mon : 796e , awaddr : 1562
#                 1235wlast : 0
# WID: 48924 , AWID : 48924
# m mon ar id : f8a5
# m mon rid : eb2b
# rd data in s drv: 2d32d58e , len : 64 , last:0 , valid : 1
# awid in s mon : efba , awaddr : 1469
# INIDE_SLAVE_MON_CTR=123
# arid in s mon : 34193
#                 1245wlast : 0
# WID: 48924 , AWID : 48924
# m mon rid : eb2b
# m mon ar id : 8591
# rd data in s drv: a101506e , len : 64 , last:0 , valid : 1
# INIDE_SLAVE_MON_CTR=124
# arid in s mon : 63464
# awid in s mon : 8e2e , awaddr : c9c
#                 1255wlast : 0
# WID: 48924 , AWID : 48924
# m mon ar id : f7e8
# m mon rid : eb2b
# rd data in s drv: a1e5009f , len : 64 , last:0 , valid : 1
# awid in s mon : 21d4 , awaddr : 9a
# INIDE_SLAVE_MON_CTR=125
# arid in s mon : 54192
#                 1265wlast : 0
# WID: 48924 , AWID : 48924
# m mon rid : eb2b
# m mon ar id : d3b0
# rd data in s drv: 9dce2577 , len : 64 , last:0 , valid : 1
# INIDE_SLAVE_MON_CTR=126
# arid in s mon : 46732
# awid in s mon : a9c0 , awaddr : 9dc
#                 1275wlast : 0
# WID: 48924 , AWID : 48924
# m mon ar id : b68c
# m mon rid : eb2b
# rd data in s drv: a5695df0 , len : 64 , last:0 , valid : 1
# awid in s mon : 43ad , awaddr : 2459
# INIDE_SLAVE_MON_CTR=127
# arid in s mon : 57462
#                 1285wlast : 0
# WID: 48924 , AWID : 48924
# m mon rid : eb2b
# m mon ar id : e076
# rd data in s drv: 5468ed03 , len : 64 , last:0 , valid : 1
# INIDE_SLAVE_MON_CTR=128
# arid in s mon : 20430
# awid in s mon : 3cf8 , awaddr : e66
#                 1295wlast : 0
# WID: 48924 , AWID : 48924
# m mon ar id : 4fce
# m mon rid : eb2b
# rd data in s drv: 7dc8f3b6 , len : 64 , last:0 , valid : 1
# awid in s mon : 60dd , awaddr : d8c
# INIDE_SLAVE_MON_CTR=129
# arid in s mon : 17071
#                 1305wlast : 0
# WID: 48924 , AWID : 48924
# m mon rid : eb2b
# m mon ar id : 42af
# rd data in s drv: f2b21046 , len : 64 , last:0 , valid : 1
# INIDE_SLAVE_MON_CTR=130
# arid in s mon : 29688
# awid in s mon : 82e5 , awaddr : 1d31
#                 1315wlast : 0
# WID: 48924 , AWID : 48924
# m mon ar id : 73f8
# m mon rid : eb2b
# rd data in s drv: 2e1d7a2d , len : 64 , last:0 , valid : 1
# awid in s mon : e3b4 , awaddr : 1adb
# INIDE_SLAVE_MON_CTR=131
# arid in s mon : 30346
#                 1325wlast : 0
# WID: 48924 , AWID : 48924
# m mon rid : eb2b
# m mon ar id : 768a
# rd data in s drv: 3671919c , len : 64 , last:0 , valid : 1
# INIDE_SLAVE_MON_CTR=132
# arid in s mon : 7522
# awid in s mon : aaa7 , awaddr : 652
#                 1335wlast : 0
# WID: 48924 , AWID : 48924
# m mon ar id : 1d62
# m mon rid : eb2b
# rd data in s drv: d607f9f8 , len : 64 , last:0 , valid : 1
# awid in s mon : 4759 , awaddr : 2159
# INIDE_SLAVE_MON_CTR=133
# arid in s mon : 65159
#                 1345wlast : 0
# WID: 48924 , AWID : 48924
# m mon rid : eb2b
# m mon ar id : fe87
# rd data in s drv: f8a42ef9 , len : 64 , last:0 , valid : 1
# INIDE_SLAVE_MON_CTR=134
# arid in s mon : 16437
# awid in s mon : 6954 , awaddr : 19f4
#                 1355wlast : 0
# WID: 48924 , AWID : 48924
# m mon ar id : 4035
# m mon rid : eb2b
# rd data in s drv: 10537db8 , len : 64 , last:0 , valid : 1
# awid in s mon : a3c6 , awaddr : 1896
# INIDE_SLAVE_MON_CTR=135
# arid in s mon : 32796
#                 1365wlast : 0
# WID: 48924 , AWID : 48924
# m mon rid : eb2b
# m mon ar id : 801c
# rd data in s drv: 8324c31c , len : 64 , last:0 , valid : 1
# INIDE_SLAVE_MON_CTR=136
# arid in s mon : 55432
# awid in s mon : 85f3 , awaddr : 71f
#                 1375wlast : 0
# WID: 48924 , AWID : 48924
# m mon ar id : d888
# m mon rid : eb2b
# rd data in s drv: 761131a , len : 64 , last:0 , valid : 1
# awid in s mon : d3 , awaddr : 1502
# INIDE_SLAVE_MON_CTR=137
# arid in s mon : 58882
#                 1385wlast : 0
# WID: 48924 , AWID : 48924
# m mon rid : eb2b
# m mon ar id : e602
# rd data in s drv: d0872f96 , len : 64 , last:0 , valid : 1
# INIDE_SLAVE_MON_CTR=138
# arid in s mon : 64073
# awid in s mon : e546 , awaddr : 59
#                 1395wlast : 0
# WID: 48924 , AWID : 48924
# m mon ar id : fa49
# m mon rid : eb2b
# rd data in s drv: 4e7e289c , len : 64 , last:0 , valid : 1
# awid in s mon : fa30 , awaddr : 1904
# INIDE_SLAVE_MON_CTR=139
# arid in s mon : 8739
#                 1405wlast : 0
# WID: 48924 , AWID : 48924
# m mon rid : eb2b
# m mon ar id : 2223
# rd data in s drv: 9fd756d5 , len : 64 , last:1 , valid : 1
# INIDE_SLAVE_MON_CTR=140
# arid in s mon : 15170
# awid in s mon : 9e42 , awaddr : 1c01
#                 1415wlast : 0
# WID: 48924 , AWID : 48924
# m mon ar id : 3b42
# m mon rid : eb2b
# UVM_INFO ../env/axi_sb.sv(61) @ 1415: uvm_test_top.env_h.sb_h [after event in sb] aaaa
# UVM_INFO ../env/axi_sb.sv(74) @ 1415: uvm_test_top.env_h.sb_h [SB MATCH] ARID=60203 RID=60203 MATCH! RDATA=3774873600 95282355 1440322231 3987916075 462566517 1091035395 191957163 3412028941 80104182 2020141026 2526962246 4263843503 2401307821 2263986904 3002072624 260402980 2409732498 3241015437 2638470164 2637677196 2011125302 3665818784 718135350 1382841929 3802566718 1282333207 397308597 1916944118 2808626531 1584881269 2317759137 2332387530 812564120 2013415372 784893230 3542101785 1850123451 3593464418 1285696712 2591655975 3834558409 2526589882 2512821562 2872408589 1174089992 4176328397 1211697280 758306190 2701217902 2716139679 2647532919 2775145968 1416162563 2110321590 4071755846 773683757 913412508 3590846968 4171509497 273907128 2200224540 123802394 3498520470 1316890780 2681689813 (Passes: 1)
# UVM_INFO ../env/axi_sb.sv(59) @ 1415: uvm_test_top.env_h.sb_h [before event in sb] aaaa
# awid in s mon : 234 , awaddr : 1201
# INIDE_SLAVE_MON_CTR=141
# arid in s mon : 60475
#                 1425wlast : 0
# WID: 48924 , AWID : 48924
# m mon ar id : ec3b
# INIDE_SLAVE_MON_CTR=142
# arid in s mon : 6931
# awid in s mon : 84ca , awaddr : 1697
#                 1435wlast : 0
# WID: 48924 , AWID : 48924
# m mon ar id : 1b13
# awid in s mon : 148c , awaddr : 203d
# INIDE_SLAVE_MON_CTR=143
# arid in s mon : 15421
#                 1445wlast : 0
# WID: 48924 , AWID : 48924
# m mon ar id : 3c3d
# INIDE_SLAVE_MON_CTR=144
# arid in s mon : 15811
# awid in s mon : ac54 , awaddr : 5c5
#                 1455wlast : 0
# WID: 48924 , AWID : 48924
# m mon ar id : 3dc3
# awid in s mon : 652c , awaddr : 136b
# INIDE_SLAVE_MON_CTR=145
# arid in s mon : 20031
#                 1465wlast : 0
# WID: 48924 , AWID : 48924
# m mon ar id : 4e3f
# INIDE_SLAVE_MON_CTR=146
# arid in s mon : 34178
# awid in s mon : 2ddb , awaddr : 2590
#                 1475wlast : 0
# WID: 48924 , AWID : 48924
# m mon ar id : 8582
# awid in s mon : 2617 , awaddr : 1dd5
# INIDE_SLAVE_MON_CTR=147
# arid in s mon : 45900
#                 1485wlast : 0
# WID: 48924 , AWID : 48924
# m mon ar id : b34c
# INIDE_SLAVE_MON_CTR=148
# arid in s mon : 17925
# awid in s mon : f18f , awaddr : b61
#                 1495wlast : 0
# WID: 48924 , AWID : 48924
# m mon ar id : 4605
# awid in s mon : 3bdf , awaddr : 1c02
# INIDE_SLAVE_MON_CTR=149
# arid in s mon : 21982
#                 1505wlast : 0
# WID: 48924 , AWID : 48924
# m mon ar id : 55de
# INIDE_SLAVE_MON_CTR=150
# arid in s mon : 29157
#                 1515wlast : 0
# WID: 48924 , AWID : 48924
# m mon ar id : 71e5
#                 1525wlast : 0
# WID: 48924 , AWID : 48924
#                 1535wlast : 0
# WID: 48924 , AWID : 48924
#                 1545wlast : 0
# WID: 48924 , AWID : 48924
#                 1555wlast : 0
# WID: 48924 , AWID : 48924
#                 1565wlast : 0
# WID: 48924 , AWID : 48924
#                 1575wlast : 0
# WID: 48924 , AWID : 48924
#                 1585wlast : 0
# WID: 48924 , AWID : 48924
#                 1595wlast : 0
# WID: 48924 , AWID : 48924
#                 1605wlast : 0
# WID: 48924 , AWID : 48924
#                 1615wlast : 0
# WID: 48924 , AWID : 48924
#                 1625wlast : 0
# WID: 48924 , AWID : 48924
#                 1635wlast : 0
# WID: 48924 , AWID : 48924
#                 1645wlast : 0
# WID: 48924 , AWID : 48924
#                 1655wlast : 0
# WID: 48924 , AWID : 48924
#                 1665wlast : 0
# WID: 48924 , AWID : 48924
#                 1675wlast : 0
# WID: 48924 , AWID : 48924
#                 1685wlast : 0
# WID: 48924 , AWID : 48924
#                 1695wlast : 0
# WID: 48924 , AWID : 48924
#                 1705wlast : 0
# WID: 48924 , AWID : 48924
#                 1715wlast : 0
# WID: 48924 , AWID : 48924
#                 1725wlast : 0
# WID: 48924 , AWID : 48924
#                 1735wlast : 0
# WID: 48924 , AWID : 48924
#                 1745wlast : 0
# WID: 48924 , AWID : 48924
#                 1755wlast : 0
# WID: 48924 , AWID : 48924
#                 1765wlast : 0
# WID: 48924 , AWID : 48924
#                 1775wlast : 0
# WID: 48924 , AWID : 48924
#                 1785wlast : 0
# WID: 48924 , AWID : 48924
#                 1795wlast : 0
# WID: 48924 , AWID : 48924
#                 1805wlast : 0
# WID: 48924 , AWID : 48924
#                 1815wlast : 0
# WID: 48924 , AWID : 48924
#                 1825wlast : 0
# WID: 48924 , AWID : 48924
#                 1835wlast : 0
# WID: 48924 , AWID : 48924
#                 1845wlast : 0
# WID: 48924 , AWID : 48924
#                 1855wlast : 0
# WID: 48924 , AWID : 48924
#                 1865wlast : 0
# WID: 48924 , AWID : 48924
#                 1875wlast : 0
# WID: 48924 , AWID : 48924
#                 1885wlast : 0
# WID: 48924 , AWID : 48924
#                 1895wlast : 0
# WID: 48924 , AWID : 48924
#                 1905wlast : 0
# WID: 48924 , AWID : 48924
#                 1915wlast : 0
# WID: 48924 , AWID : 48924
#                 1925wlast : 0
# WID: 48924 , AWID : 48924
#                 1935wlast : 0
# WID: 48924 , AWID : 48924
#                 1945wlast : 0
# WID: 48924 , AWID : 48924
#                 1955wlast : 0
# WID: 48924 , AWID : 48924
#                 1965wlast : 0
# WID: 48924 , AWID : 48924
#                 1975wlast : 0
# WID: 48924 , AWID : 48924
#                 1985wlast : 0
# WID: 48924 , AWID : 48924
#                 1995wlast : 0
# WID: 48924 , AWID : 48924
#                 2005wlast : 0
# WID: 48924 , AWID : 48924
#                 2015wlast : 0
# WID: 48924 , AWID : 48924
#                 2025wlast : 0
# WID: 48924 , AWID : 48924
#                 2035wlast : 0
# WID: 48924 , AWID : 48924
#                 2045wlast : 0
# WID: 48924 , AWID : 48924
#                 2055wlast : 0
# WID: 48924 , AWID : 48924
#                 2065wlast : 0
# WID: 48924 , AWID : 48924
#                 2075wlast : 0
# WID: 48924 , AWID : 48924
#                 2085wlast : 0
# WID: 48924 , AWID : 48924
#                 2095wlast : 0
# WID: 48924 , AWID : 48924
#                 2105wlast : 0
# WID: 48924 , AWID : 48924
#                 2115wlast : 0
# WID: 48924 , AWID : 48924
#                 2125wlast : 0
# WID: 48924 , AWID : 48924
#                 2135wlast : 0
# WID: 48924 , AWID : 48924
#                 2145wlast : 0
# WID: 48924 , AWID : 48924
#                 2155wlast : 0
# WID: 48924 , AWID : 48924
#                 2165wlast : 0
# WID: 48924 , AWID : 48924
#                 2175wlast : 0
# WID: 48924 , AWID : 48924
#                 2185wlast : 0
# WID: 48924 , AWID : 48924
#                 2195wlast : 0
# WID: 48924 , AWID : 48924
#                 2205wlast : 0
# WID: 48924 , AWID : 48924
#                 2215wlast : 0
# WID: 48924 , AWID : 48924
#                 2225wlast : 0
# WID: 48924 , AWID : 48924
#                 2235wlast : 0
# WID: 48924 , AWID : 48924
#                 2245wlast : 0
# WID: 48924 , AWID : 48924
#                 2255wlast : 0
# WID: 48924 , AWID : 48924
#                 2265wlast : 0
# WID: 48924 , AWID : 48924
#                 2275wlast : 0
# WID: 48924 , AWID : 48924
#                 2285wlast : 0
# WID: 48924 , AWID : 48924
#                 2295wlast : 0
# WID: 48924 , AWID : 48924
#                 2305wlast : 0
# WID: 48924 , AWID : 48924
#                 2315wlast : 0
# WID: 48924 , AWID : 48924
#                 2325wlast : 0
# WID: 48924 , AWID : 48924
#                 2335wlast : 0
# WID: 48924 , AWID : 48924
#                 2345wlast : 0
# WID: 48924 , AWID : 48924
#                 2355wlast : 0
# WID: 48924 , AWID : 48924
#                 2365wlast : 0
# WID: 48924 , AWID : 48924
#                 2375wlast : 0
# WID: 48924 , AWID : 48924
#                 2385wlast : 0
# WID: 48924 , AWID : 48924
#                 2395wlast : 0
# WID: 48924 , AWID : 48924
#                 2405wlast : 0
# WID: 48924 , AWID : 48924
#                 2415wlast : 0
# WID: 48924 , AWID : 48924
#                 2425wlast : 0
# WID: 48924 , AWID : 48924
#                 2435wlast : 0
# WID: 48924 , AWID : 48924
#                 2445wlast : 0
# WID: 48924 , AWID : 48924
#                 2455wlast : 0
# WID: 48924 , AWID : 48924
#                 2465wlast : 0
# WID: 48924 , AWID : 48924
#                 2475wlast : 0
# WID: 48924 , AWID : 48924
#                 2485wlast : 0
# WID: 48924 , AWID : 48924
#                 2495wlast : 0
# WID: 48924 , AWID : 48924
#                 2505wlast : 0
# WID: 48924 , AWID : 48924
#                 2515wlast : 0
# WID: 48924 , AWID : 48924
#                 2525wlast : 0
# WID: 48924 , AWID : 48924
#                 2535wlast : 0
# WID: 48924 , AWID : 48924
#                 2545wlast : 0
# WID: 48924 , AWID : 48924
#                 2555wlast : 0
# WID: 48924 , AWID : 48924
#                 2565wlast : 0
# WID: 48924 , AWID : 48924
#                 2575wlast : 0
# WID: 48924 , AWID : 48924
#                 2585wlast : 0
# WID: 48924 , AWID : 48924
#                 2595wlast : 0
# WID: 48924 , AWID : 48924
#                 2605wlast : 0
# WID: 48924 , AWID : 48924
#                 2615wlast : 0
# WID: 48924 , AWID : 48924
#                 2625wlast : 0
# WID: 48924 , AWID : 48924
#                 2635wlast : 0
# WID: 48924 , AWID : 48924
#                 2645wlast : 0
# WID: 48924 , AWID : 48924
#                 2655wlast : 0
# WID: 48924 , AWID : 48924
#                 2665wlast : 0
# WID: 48924 , AWID : 48924
#                 2675wlast : 0
# WID: 48924 , AWID : 48924
#                 2685wlast : 0
# WID: 48924 , AWID : 48924
#                 2695wlast : 0
# WID: 48924 , AWID : 48924
#                 2705wlast : 0
# WID: 48924 , AWID : 48924
#                 2715wlast : 0
# WID: 48924 , AWID : 48924
#                 2725wlast : 0
# WID: 48924 , AWID : 48924
#                 2735wlast : 0
# WID: 48924 , AWID : 48924
#                 2745wlast : 0
# WID: 48924 , AWID : 48924
#                 2755wlast : 0
# WID: 48924 , AWID : 48924
#                 2765wlast : 0
# WID: 48924 , AWID : 48924
#                 2775wlast : 0
# WID: 48924 , AWID : 48924
#                 2785wlast : 0
# WID: 48924 , AWID : 48924
#                 2795wlast : 0
# WID: 48924 , AWID : 48924
#                 2805wlast : 0
# WID: 48924 , AWID : 48924
#                 2815wlast : 0
# WID: 48924 , AWID : 48924
#                 2825wlast : 0
# WID: 48924 , AWID : 48924
#                 2835wlast : 0
# WID: 48924 , AWID : 48924
#                 2845wlast : 0
# WID: 48924 , AWID : 48924
#                 2855wlast : 0
# WID: 48924 , AWID : 48924
#                 2865wlast : 0
# WID: 48924 , AWID : 48924
#                 2875wlast : 0
# WID: 48924 , AWID : 48924
#                 2885wlast : 0
# WID: 48924 , AWID : 48924
#                 2895wlast : 0
# WID: 48924 , AWID : 48924
#                 2905wlast : 0
# WID: 48924 , AWID : 48924
#                 2915wlast : 0
# WID: 48924 , AWID : 48924
#                 2925wlast : 0
# WID: 48924 , AWID : 48924
#                 2935wlast : 0
# WID: 48924 , AWID : 48924
#                 2945wlast : 0
# WID: 48924 , AWID : 48924
#                 2955wlast : 0
# WID: 48924 , AWID : 48924
#                 2965wlast : 0
# WID: 48924 , AWID : 48924
#                 2975wlast : 0
# WID: 48924 , AWID : 48924
#                 2985wlast : 0
# WID: 48924 , AWID : 48924
#                 2995wlast : 0
# WID: 48924 , AWID : 48924
#                 3005wlast : 0
# WID: 48924 , AWID : 48924
#                 3015wlast : 0
# WID: 48924 , AWID : 48924
#                 3025wlast : 0
# WID: 48924 , AWID : 48924
#                 3035wlast : 0
# WID: 48924 , AWID : 48924
#                 3045wlast : 0
# WID: 48924 , AWID : 48924
# abc : 1
# abc : 2
# abc : 3
# abc : 4
# abc : 5
# abc : 6
# abc : 7
# abc : 8
# abc : 9
# abc : 10
# abc : 11
# abc : 12
# abc : 13
# abc : 14
# abc : 15
# abc : 16
# abc : 17
# abc : 18
# abc : 19
# abc : 20
# abc : 21
# abc : 22
# abc : 23
# abc : 24
# abc : 25
# abc : 26
# abc : 27
# abc : 28
# abc : 29
# abc : 30
# abc : 31
# abc : 32
# abc : 33
# abc : 34
# abc : 35
# abc : 36
# abc : 37
# abc : 38
# abc : 39
# abc : 40
# abc : 41
# abc : 42
# abc : 43
# abc : 44
# abc : 45
# abc : 46
# abc : 47
# abc : 48
# abc : 49
# abc : 50
# abc : 51
# abc : 52
# abc : 53
# abc : 54
# abc : 55
# abc : 56
# abc : 57
# abc : 58
# abc : 59
# abc : 60
# abc : 61
# abc : 62
# abc : 63
# abc : 64
# abc : 65
# abc : 66
# abc : 67
# abc : 68
# abc : 69
# abc : 70
# abc : 71
# abc : 72
# abc : 73
# abc : 74
# abc : 75
# abc : 76
# abc : 77
# abc : 78
# abc : 79
# abc : 80
# abc : 81
# abc : 82
# abc : 83
# abc : 84
# abc : 85
# abc : 86
# abc : 87
# abc : 88
# abc : 89
# abc : 90
# abc : 91
# abc : 92
# abc : 93
# abc : 94
# abc : 95
# abc : 96
# abc : 97
# abc : 98
# abc : 99
# abc : 100
# abc : 101
# abc : 102
# abc : 103
# abc : 104
# abc : 105
# abc : 106
# abc : 107
# abc : 108
# abc : 109
# abc : 110
# abc : 111
# abc : 112
# abc : 113
# abc : 114
# abc : 115
# abc : 116
# abc : 117
# abc : 118
# abc : 119
# abc : 120
# abc : 121
# abc : 122
# abc : 123
# abc : 124
# abc : 125
# abc : 126
# abc : 127
# abc : 128
# abc : 129
# abc : 130
# abc : 131
# abc : 132
# abc : 133
# abc : 134
# abc : 135
# abc : 136
# abc : 137
# abc : 138
# abc : 139
# abc : 140
# abc : 141
# abc : 142
# abc : 143
# abc : 144
# abc : 145
# abc : 146
# abc : 147
# abc : 148
# abc : 149
# abc : 150
# abc : 151
# abc : 152
# abc : 153
# abc : 154
# abc : 155
# abc : 156
# abc : 157
# abc : 158
# abc : 159
# abc : 160
# abc : 161
# abc : 162
# abc : 163
# abc : 164
# abc : 165
# abc : 166
# abc : 167
# abc : 168
# abc : 169
# abc : 170
# abc : 171
# abc : 172
# abc : 173
# abc : 174
# abc : 175
# abc : 176
# abc : 177
# abc : 178
# abc : 179
# abc : 180
# abc : 181
# abc : 182
# abc : 183
# abc : 184
# abc : 185
# abc : 186
# abc : 187
# abc : 188
# abc : 189
# abc : 190
# abc : 191
# abc : 192
# abc : 193
# abc : 194
# abc : 195
# abc : 196
# abc : 197
# abc : 198
# abc : 199
# abc : 200
# abc : 201
# abc : 202
# abc : 203
# abc : 204
# abc : 205
# abc : 206
# abc : 207
# abc : 208
# abc : 209
# abc : 210
# abc : 211
# abc : 212
# abc : 213
# abc : 214
# abc : 215
# abc : 216
# abc : 217
# abc : 218
# abc : 219
# abc : 220
# abc : 221
# abc : 222
# abc : 223
# abc : 224
# abc : 225
# abc : 226
# abc : 227
# abc : 228
# abc : 229
# xyz : 1
# xyz : 2
# xyz : 3
# xyz : 4
# xyz : 5
# xyz : 6
# xyz : 7
# xyz : 8
# xyz : 9
# xyz : 10
# xyz : 11
# xyz : 12
# xyz : 13
# xyz : 14
# xyz : 15
# xyz : 16
# xyz : 17
# xyz : 18
# xyz : 19
# xyz : 20
# xyz : 21
# xyz : 22
# xyz : 23
# xyz : 24
# xyz : 25
# xyz : 26
# xyz : 27
# xyz : 28
# xyz : 29
# xyz : 30
# xyz : 31
# xyz : 32
# xyz : 33
# xyz : 34
# xyz : 35
# xyz : 36
# xyz : 37
# xyz : 38
# xyz : 39
# xyz : 40
# xyz : 41
# xyz : 42
# xyz : 43
# xyz : 44
# xyz : 45
# xyz : 46
# xyz : 47
# xyz : 48
# xyz : 49
# xyz : 50
# xyz : 51
# xyz : 52
# xyz : 53
# xyz : 54
# xyz : 55
# xyz : 56
# xyz : 57
# xyz : 58
# xyz : 59
# xyz : 60
# xyz : 61
# xyz : 62
# xyz : 63
# xyz : 64
# xyz : 65
# xyz : 66
# xyz : 67
# xyz : 68
# xyz : 69
# xyz : 70
# xyz : 71
# xyz : 72
# xyz : 73
# xyz : 74
# xyz : 75
# xyz : 76
# xyz : 77
# xyz : 78
# xyz : 79
# xyz : 80
# xyz : 81
# xyz : 82
# xyz : 83
# xyz : 84
# xyz : 85
# xyz : 86
# xyz : 87
# xyz : 88
# xyz : 89
# xyz : 90
# xyz : 91
# xyz : 92
# xyz : 93
# xyz : 94
# xyz : 95
# xyz : 96
# xyz : 97
# xyz : 98
# xyz : 99
# xyz : 100
# xyz : 101
# xyz : 102
# xyz : 103
# xyz : 104
# xyz : 105
# xyz : 106
# xyz : 107
# xyz : 108
# xyz : 109
# xyz : 110
# xyz : 111
# xyz : 112
# xyz : 113
# xyz : 114
# xyz : 115
# xyz : 116
# xyz : 117
# xyz : 118
# xyz : 119
# xyz : 120
# xyz : 121
# xyz : 122
# xyz : 123
# xyz : 124
# xyz : 125
# xyz : 126
# xyz : 127
# xyz : 128
# xyz : 129
# xyz : 130
# xyz : 131
# xyz : 132
# xyz : 133
# xyz : 134
# xyz : 135
# xyz : 136
# xyz : 137
# xyz : 138
# xyz : 139
# xyz : 140
# xyz : 141
# xyz : 142
# xyz : 143
# xyz : 144
# xyz : 145
# xyz : 146
# xyz : 147
# xyz : 148
# xyz : 149
# xyz : 150
# xyz : 151
# xyz : 152
# xyz : 153
# xyz : 154
# xyz : 155
# xyz : 156
# xyz : 157
# xyz : 158
# xyz : 159
# xyz : 160
# xyz : 161
# xyz : 162
# xyz : 163
# xyz : 164
# xyz : 165
# xyz : 166
# xyz : 167
# xyz : 168
# xyz : 169
# xyz : 170
# xyz : 171
# xyz : 172
# xyz : 173
# xyz : 174
# xyz : 175
# xyz : 176
# xyz : 177
# xyz : 178
# xyz : 179
# xyz : 180
# xyz : 181
# xyz : 182
# xyz : 183
# xyz : 184
# xyz : 185
# xyz : 186
# xyz : 187
# xyz : 188
# xyz : 189
# xyz : 190
# xyz : 191
# xyz : 192
# xyz : 193
# xyz : 194
# xyz : 195
# xyz : 196
# xyz : 197
# xyz : 198
# xyz : 199
# xyz : 200
# xyz : 201
# xyz : 202
# xyz : 203
# xyz : 204
# xyz : 205
# xyz : 206
# xyz : 207
# xyz : 208
# xyz : 209
# xyz : 210
# xyz : 211
# xyz : 212
# xyz : 213
# xyz : 214
# xyz : 215
# xyz : 216
# xyz : 217
# xyz : 218
# xyz : 219
# xyz : 220
# xyz : 221
# xyz : 222
# xyz : 223
# xyz : 224
# xyz : 225
# xyz : 226
# xyz : 227
# xyz : 228
# xyz : 229
# ** Warning: (vsim-3829) Non-existent associative array entry. Returning default value.
#    Time: 3055 ns  Iteration: 2  Process: /axi_s_agent_pkg::axi_s_mon #(32, 32)::monitor/#FORK#34_7fefec44d21 File: ../env/axi_ref_model.sv Line: 82
# xyz : 230
# ** Warning: (vsim-3829) Non-existent associative array entry. Returning default value.
#    Time: 3055 ns  Iteration: 2  Process: /axi_s_agent_pkg::axi_s_mon #(32, 32)::monitor/#FORK#34_7fefec44d21 File: ../env/axi_ref_model.sv Line: 82
# xyz : 231
# ** Warning: (vsim-3829) Non-existent associative array entry. Returning default value.
#    Time: 3055 ns  Iteration: 2  Process: /axi_s_agent_pkg::axi_s_mon #(32, 32)::monitor/#FORK#34_7fefec44d21 File: ../env/axi_ref_model.sv Line: 82
# xyz : 232
# ** Warning: (vsim-3829) Non-existent associative array entry. Returning default value.
#    Time: 3055 ns  Iteration: 2  Process: /axi_s_agent_pkg::axi_s_mon #(32, 32)::monitor/#FORK#34_7fefec44d21 File: ../env/axi_ref_model.sv Line: 82
# xyz : 233
# ** Warning: (vsim-3829) Non-existent associative array entry. Returning default value.
#    Time: 3055 ns  Iteration: 2  Process: /axi_s_agent_pkg::axi_s_mon #(32, 32)::monitor/#FORK#34_7fefec44d21 File: ../env/axi_ref_model.sv Line: 82
# xyz : 234
# xyz : 235
# xyz : 236
# xyz : 237
# xyz : 238
# xyz : 239
# xyz : 240
# xyz : 241
# xyz : 242
# xyz : 243
# xyz : 244
# xyz : 245
# xyz : 246
# xyz : 247
# xyz : 248
# xyz : 249
# xyz : 250
# xyz : 251
# xyz : 252
# xyz : 253
# xyz : 254
# xyz : 255
# xyz : 256
# xyz : 257
# xyz : 258
# xyz : 259
# xyz : 260
# xyz : 261
# xyz : 262
# xyz : 263
# xyz : 264
# xyz : 265
# xyz : 266
# xyz : 267
# xyz : 268
# xyz : 269
# xyz : 270
# xyz : 271
# xyz : 272
# ** Warning: (vsim-3829) Non-existent associative array entry. Returning default value.
#    Time: 3055 ns  Iteration: 2  Process: /axi_s_agent_pkg::axi_s_mon #(32, 32)::monitor/#FORK#34_7fefec44d21 File: ../env/axi_ref_model.sv Line: 82
# xyz : 273
# ** Warning: (vsim-3829) Non-existent associative array entry. Returning default value.
#    Time: 3055 ns  Iteration: 2  Process: /axi_s_agent_pkg::axi_s_mon #(32, 32)::monitor/#FORK#34_7fefec44d21 File: ../env/axi_ref_model.sv Line: 82
# xyz : 274
# ** Warning: (vsim-3829) Non-existent associative array entry. Returning default value.
#    Time: 3055 ns  Iteration: 2  Process: /axi_s_agent_pkg::axi_s_mon #(32, 32)::monitor/#FORK#34_7fefec44d21 File: ../env/axi_ref_model.sv Line: 82
# xyz : 275
# ** Warning: (vsim-3829) Non-existent associative array entry. Returning default value.
#    Time: 3055 ns  Iteration: 2  Process: /axi_s_agent_pkg::axi_s_mon #(32, 32)::monitor/#FORK#34_7fefec44d21 File: ../env/axi_ref_model.sv Line: 82
# xyz : 276
# ** Warning: (vsim-3829) Non-existent associative array entry. Returning default value.
#    Time: 3055 ns  Iteration: 2  Process: /axi_s_agent_pkg::axi_s_mon #(32, 32)::monitor/#FORK#34_7fefec44d21 File: ../env/axi_ref_model.sv Line: 82
# xyz : 277
# ** Warning: (vsim-3829) Non-existent associative array entry. Returning default value.
#    Time: 3055 ns  Iteration: 2  Process: /axi_s_agent_pkg::axi_s_mon #(32, 32)::monitor/#FORK#34_7fefec44d21 File: ../env/axi_ref_model.sv Line: 82
# xyz : 278
# ** Warning: (vsim-3829) Non-existent associative array entry. Returning default value.
#    Time: 3055 ns  Iteration: 2  Process: /axi_s_agent_pkg::axi_s_mon #(32, 32)::monitor/#FORK#34_7fefec44d21 File: ../env/axi_ref_model.sv Line: 82
# xyz : 279
# ** Warning: (vsim-3829) Non-existent associative array entry. Returning default value.
#    Time: 3055 ns  Iteration: 2  Process: /axi_s_agent_pkg::axi_s_mon #(32, 32)::monitor/#FORK#34_7fefec44d21 File: ../env/axi_ref_model.sv Line: 82
# xyz : 280
# ** Warning: (vsim-3829) Non-existent associative array entry. Returning default value.
#    Time: 3055 ns  Iteration: 2  Process: /axi_s_agent_pkg::axi_s_mon #(32, 32)::monitor/#FORK#34_7fefec44d21 File: ../env/axi_ref_model.sv Line: 82
# xyz : 281
# ** Warning: (vsim-3829) Non-existent associative array entry. Returning default value.
#    Time: 3055 ns  Iteration: 2  Process: /axi_s_agent_pkg::axi_s_mon #(32, 32)::monitor/#FORK#34_7fefec44d21 File: ../env/axi_ref_model.sv Line: 82
# xyz : 282
# ** Warning: (vsim-3829) Non-existent associative array entry. Returning default value.
#    Time: 3055 ns  Iteration: 2  Process: /axi_s_agent_pkg::axi_s_mon #(32, 32)::monitor/#FORK#34_7fefec44d21 File: ../env/axi_ref_model.sv Line: 82
# xyz : 283
# ** Warning: (vsim-3829) Non-existent associative array entry. Returning default value.
#    Time: 3055 ns  Iteration: 2  Process: /axi_s_agent_pkg::axi_s_mon #(32, 32)::monitor/#FORK#34_7fefec44d21 File: ../env/axi_ref_model.sv Line: 82
# xyz : 284
# ** Warning: (vsim-3829) Non-existent associative array entry. Returning default value.
#    Time: 3055 ns  Iteration: 2  Process: /axi_s_agent_pkg::axi_s_mon #(32, 32)::monitor/#FORK#34_7fefec44d21 File: ../env/axi_ref_model.sv Line: 82
# xyz : 285
# ** Warning: (vsim-3829) Non-existent associative array entry. Returning default value.
#    Time: 3055 ns  Iteration: 2  Process: /axi_s_agent_pkg::axi_s_mon #(32, 32)::monitor/#FORK#34_7fefec44d21 File: ../env/axi_ref_model.sv Line: 82
# xyz : 286
# ** Warning: (vsim-3829) Non-existent associative array entry. Returning default value.
#    Time: 3055 ns  Iteration: 2  Process: /axi_s_agent_pkg::axi_s_mon #(32, 32)::monitor/#FORK#34_7fefec44d21 File: ../env/axi_ref_model.sv Line: 82
# xyz : 287
# ** Warning: (vsim-3829) Non-existent associative array entry. Returning default value.
#    Time: 3055 ns  Iteration: 2  Process: /axi_s_agent_pkg::axi_s_mon #(32, 32)::monitor/#FORK#34_7fefec44d21 File: ../env/axi_ref_model.sv Line: 82
# xyz : 288
# ** Warning: (vsim-3829) Non-existent associative array entry. Returning default value.
#    Time: 3055 ns  Iteration: 2  Process: /axi_s_agent_pkg::axi_s_mon #(32, 32)::monitor/#FORK#34_7fefec44d21 File: ../env/axi_ref_model.sv Line: 82
# xyz : 289
# ** Warning: (vsim-3829) Non-existent associative array entry. Returning default value.
#    Time: 3055 ns  Iteration: 2  Process: /axi_s_agent_pkg::axi_s_mon #(32, 32)::monitor/#FORK#34_7fefec44d21 File: ../env/axi_ref_model.sv Line: 82
# xyz : 290
# ** Warning: (vsim-3829) Non-existent associative array entry. Returning default value.
#    Time: 3055 ns  Iteration: 2  Process: /axi_s_agent_pkg::axi_s_mon #(32, 32)::monitor/#FORK#34_7fefec44d21 File: ../env/axi_ref_model.sv Line: 82
# xyz : 291
# ** Warning: (vsim-3829) Non-existent associative array entry. Returning default value.
#    Time: 3055 ns  Iteration: 2  Process: /axi_s_agent_pkg::axi_s_mon #(32, 32)::monitor/#FORK#34_7fefec44d21 File: ../env/axi_ref_model.sv Line: 82
# xyz : 292
# ** Warning: (vsim-3829) Non-existent associative array entry. Returning default value.
#    Time: 3055 ns  Iteration: 2  Process: /axi_s_agent_pkg::axi_s_mon #(32, 32)::monitor/#FORK#34_7fefec44d21 File: ../env/axi_ref_model.sv Line: 82
# xyz : 293
# ** Warning: (vsim-3829) Non-existent associative array entry. Returning default value.
#    Time: 3055 ns  Iteration: 2  Process: /axi_s_agent_pkg::axi_s_mon #(32, 32)::monitor/#FORK#34_7fefec44d21 File: ../env/axi_ref_model.sv Line: 82
# xyz : 294
# ** Warning: (vsim-3829) Non-existent associative array entry. Returning default value.
#    Time: 3055 ns  Iteration: 2  Process: /axi_s_agent_pkg::axi_s_mon #(32, 32)::monitor/#FORK#34_7fefec44d21 File: ../env/axi_ref_model.sv Line: 82
# xyz : 295
# ** Warning: (vsim-3829) Non-existent associative array entry. Returning default value.
#    Time: 3055 ns  Iteration: 2  Process: /axi_s_agent_pkg::axi_s_mon #(32, 32)::monitor/#FORK#34_7fefec44d21 File: ../env/axi_ref_model.sv Line: 82
# xyz : 296
# ** Warning: (vsim-3829) Non-existent associative array entry. Returning default value.
#    Time: 3055 ns  Iteration: 2  Process: /axi_s_agent_pkg::axi_s_mon #(32, 32)::monitor/#FORK#34_7fefec44d21 File: ../env/axi_ref_model.sv Line: 82
# xyz : 297
# ** Warning: (vsim-3829) Non-existent associative array entry. Returning default value.
#    Time: 3055 ns  Iteration: 2  Process: /axi_s_agent_pkg::axi_s_mon #(32, 32)::monitor/#FORK#34_7fefec44d21 File: ../env/axi_ref_model.sv Line: 82
# xyz : 298
# ** Warning: (vsim-3829) Non-existent associative array entry. Returning default value.
#    Time: 3055 ns  Iteration: 2  Process: /axi_s_agent_pkg::axi_s_mon #(32, 32)::monitor/#FORK#34_7fefec44d21 File: ../env/axi_ref_model.sv Line: 82
# xyz : 299
# ** Warning: (vsim-3829) Non-existent associative array entry. Returning default value.
#    Time: 3055 ns  Iteration: 2  Process: /axi_s_agent_pkg::axi_s_mon #(32, 32)::monitor/#FORK#34_7fefec44d21 File: ../env/axi_ref_model.sv Line: 82
# xyz : 300
# ** Warning: (vsim-3829) Non-existent associative array entry. Returning default value.
#    Time: 3055 ns  Iteration: 2  Process: /axi_s_agent_pkg::axi_s_mon #(32, 32)::monitor/#FORK#34_7fefec44d21 File: ../env/axi_ref_model.sv Line: 82
# xyz : 301
# ** Warning: (vsim-3829) Non-existent associative array entry. Returning default value.
#    Time: 3055 ns  Iteration: 2  Process: /axi_s_agent_pkg::axi_s_mon #(32, 32)::monitor/#FORK#34_7fefec44d21 File: ../env/axi_ref_model.sv Line: 82
# xyz : 302
# ** Warning: (vsim-3829) Non-existent associative array entry. Returning default value.
#    Time: 3055 ns  Iteration: 2  Process: /axi_s_agent_pkg::axi_s_mon #(32, 32)::monitor/#FORK#34_7fefec44d21 File: ../env/axi_ref_model.sv Line: 82
# xyz : 303
# ** Warning: (vsim-3829) Non-existent associative array entry. Returning default value.
#    Time: 3055 ns  Iteration: 2  Process: /axi_s_agent_pkg::axi_s_mon #(32, 32)::monitor/#FORK#34_7fefec44d21 File: ../env/axi_ref_model.sv Line: 82
# xyz : 304
# ** Warning: (vsim-3829) Non-existent associative array entry. Returning default value.
#    Time: 3055 ns  Iteration: 2  Process: /axi_s_agent_pkg::axi_s_mon #(32, 32)::monitor/#FORK#34_7fefec44d21 File: ../env/axi_ref_model.sv Line: 82
# xyz : 305
# ** Warning: (vsim-3829) Non-existent associative array entry. Returning default value.
#    Time: 3055 ns  Iteration: 2  Process: /axi_s_agent_pkg::axi_s_mon #(32, 32)::monitor/#FORK#34_7fefec44d21 File: ../env/axi_ref_model.sv Line: 82
# xyz : 306
# ** Warning: (vsim-3829) Non-existent associative array entry. Returning default value.
#    Time: 3055 ns  Iteration: 2  Process: /axi_s_agent_pkg::axi_s_mon #(32, 32)::monitor/#FORK#34_7fefec44d21 File: ../env/axi_ref_model.sv Line: 82
# xyz : 307
# ** Warning: (vsim-3829) Non-existent associative array entry. Returning default value.
#    Time: 3055 ns  Iteration: 2  Process: /axi_s_agent_pkg::axi_s_mon #(32, 32)::monitor/#FORK#34_7fefec44d21 File: ../env/axi_ref_model.sv Line: 82
# xyz : 308
# ** Warning: (vsim-3829) Non-existent associative array entry. Returning default value.
#    Time: 3055 ns  Iteration: 2  Process: /axi_s_agent_pkg::axi_s_mon #(32, 32)::monitor/#FORK#34_7fefec44d21 File: ../env/axi_ref_model.sv Line: 82
# xyz : 309
# ** Warning: (vsim-3829) Non-existent associative array entry. Returning default value.
#    Time: 3055 ns  Iteration: 2  Process: /axi_s_agent_pkg::axi_s_mon #(32, 32)::monitor/#FORK#34_7fefec44d21 File: ../env/axi_ref_model.sv Line: 82
# xyz : 310
# ** Warning: (vsim-3829) Non-existent associative array entry. Returning default value.
#    Time: 3055 ns  Iteration: 2  Process: /axi_s_agent_pkg::axi_s_mon #(32, 32)::monitor/#FORK#34_7fefec44d21 File: ../env/axi_ref_model.sv Line: 82
# xyz : 311
# ** Warning: (vsim-3829) Non-existent associative array entry. Returning default value.
#    Time: 3055 ns  Iteration: 2  Process: /axi_s_agent_pkg::axi_s_mon #(32, 32)::monitor/#FORK#34_7fefec44d21 File: ../env/axi_ref_model.sv Line: 82
# xyz : 312
# ** Warning: (vsim-3829) Non-existent associative array entry. Returning default value.
#    Time: 3055 ns  Iteration: 2  Process: /axi_s_agent_pkg::axi_s_mon #(32, 32)::monitor/#FORK#34_7fefec44d21 File: ../env/axi_ref_model.sv Line: 82
# xyz : 313
# ** Warning: (vsim-3829) Non-existent associative array entry. Returning default value.
#    Time: 3055 ns  Iteration: 2  Process: /axi_s_agent_pkg::axi_s_mon #(32, 32)::monitor/#FORK#34_7fefec44d21 File: ../env/axi_ref_model.sv Line: 82
# xyz : 314
# ** Warning: (vsim-3829) Non-existent associative array entry. Returning default value.
#    Time: 3055 ns  Iteration: 2  Process: /axi_s_agent_pkg::axi_s_mon #(32, 32)::monitor/#FORK#34_7fefec44d21 File: ../env/axi_ref_model.sv Line: 82
# xyz : 315
# ** Warning: (vsim-3829) Non-existent associative array entry. Returning default value.
#    Time: 3055 ns  Iteration: 2  Process: /axi_s_agent_pkg::axi_s_mon #(32, 32)::monitor/#FORK#34_7fefec44d21 File: ../env/axi_ref_model.sv Line: 82
# xyz : 316
# ** Warning: (vsim-3829) Non-existent associative array entry. Returning default value.
#    Time: 3055 ns  Iteration: 2  Process: /axi_s_agent_pkg::axi_s_mon #(32, 32)::monitor/#FORK#34_7fefec44d21 File: ../env/axi_ref_model.sv Line: 82
# xyz : 317
# ** Warning: (vsim-3829) Non-existent associative array entry. Returning default value.
#    Time: 3055 ns  Iteration: 2  Process: /axi_s_agent_pkg::axi_s_mon #(32, 32)::monitor/#FORK#34_7fefec44d21 File: ../env/axi_ref_model.sv Line: 82
# xyz : 318
# ** Warning: (vsim-3829) Non-existent associative array entry. Returning default value.
#    Time: 3055 ns  Iteration: 2  Process: /axi_s_agent_pkg::axi_s_mon #(32, 32)::monitor/#FORK#34_7fefec44d21 File: ../env/axi_ref_model.sv Line: 82
# xyz : 319
# ** Warning: (vsim-3829) Non-existent associative array entry. Returning default value.
#    Time: 3055 ns  Iteration: 2  Process: /axi_s_agent_pkg::axi_s_mon #(32, 32)::monitor/#FORK#34_7fefec44d21 File: ../env/axi_ref_model.sv Line: 82
# xyz : 320
# ** Warning: (vsim-3829) Non-existent associative array entry. Returning default value.
#    Time: 3055 ns  Iteration: 2  Process: /axi_s_agent_pkg::axi_s_mon #(32, 32)::monitor/#FORK#34_7fefec44d21 File: ../env/axi_ref_model.sv Line: 82
# xyz : 321
# ** Warning: (vsim-3829) Non-existent associative array entry. Returning default value.
#    Time: 3055 ns  Iteration: 2  Process: /axi_s_agent_pkg::axi_s_mon #(32, 32)::monitor/#FORK#34_7fefec44d21 File: ../env/axi_ref_model.sv Line: 82
# xyz : 322
# ** Warning: (vsim-3829) Non-existent associative array entry. Returning default value.
#    Time: 3055 ns  Iteration: 2  Process: /axi_s_agent_pkg::axi_s_mon #(32, 32)::monitor/#FORK#34_7fefec44d21 File: ../env/axi_ref_model.sv Line: 82
# xyz : 323
# ** Warning: (vsim-3829) Non-existent associative array entry. Returning default value.
#    Time: 3055 ns  Iteration: 2  Process: /axi_s_agent_pkg::axi_s_mon #(32, 32)::monitor/#FORK#34_7fefec44d21 File: ../env/axi_ref_model.sv Line: 82
# xyz : 324
# ** Warning: (vsim-3829) Non-existent associative array entry. Returning default value.
#    Time: 3055 ns  Iteration: 2  Process: /axi_s_agent_pkg::axi_s_mon #(32, 32)::monitor/#FORK#34_7fefec44d21 File: ../env/axi_ref_model.sv Line: 82
# xyz : 325
# ** Warning: (vsim-3829) Non-existent associative array entry. Returning default value.
#    Time: 3055 ns  Iteration: 2  Process: /axi_s_agent_pkg::axi_s_mon #(32, 32)::monitor/#FORK#34_7fefec44d21 File: ../env/axi_ref_model.sv Line: 82
# xyz : 326
# ** Warning: (vsim-3829) Non-existent associative array entry. Returning default value.
#    Time: 3055 ns  Iteration: 2  Process: /axi_s_agent_pkg::axi_s_mon #(32, 32)::monitor/#FORK#34_7fefec44d21 File: ../env/axi_ref_model.sv Line: 82
# xyz : 327
# ** Warning: (vsim-3829) Non-existent associative array entry. Returning default value.
#    Time: 3055 ns  Iteration: 2  Process: /axi_s_agent_pkg::axi_s_mon #(32, 32)::monitor/#FORK#34_7fefec44d21 File: ../env/axi_ref_model.sv Line: 82
# xyz : 328
# ** Warning: (vsim-3829) Non-existent associative array entry. Returning default value.
#    Time: 3055 ns  Iteration: 2  Process: /axi_s_agent_pkg::axi_s_mon #(32, 32)::monitor/#FORK#34_7fefec44d21 File: ../env/axi_ref_model.sv Line: 82
# xyz : 329
# ** Warning: (vsim-3829) Non-existent associative array entry. Returning default value.
#    Time: 3055 ns  Iteration: 2  Process: /axi_s_agent_pkg::axi_s_mon #(32, 32)::monitor/#FORK#34_7fefec44d21 File: ../env/axi_ref_model.sv Line: 82
# xyz : 330
# ** Warning: (vsim-3829) Non-existent associative array entry. Returning default value.
#    Time: 3055 ns  Iteration: 2  Process: /axi_s_agent_pkg::axi_s_mon #(32, 32)::monitor/#FORK#34_7fefec44d21 File: ../env/axi_ref_model.sv Line: 82
# xyz : 331
# ** Warning: (vsim-3829) Non-existent associative array entry. Returning default value.
#    Time: 3055 ns  Iteration: 2  Process: /axi_s_agent_pkg::axi_s_mon #(32, 32)::monitor/#FORK#34_7fefec44d21 File: ../env/axi_ref_model.sv Line: 82
# xyz : 332
# ** Warning: (vsim-3829) Non-existent associative array entry. Returning default value.
#    Time: 3055 ns  Iteration: 2  Process: /axi_s_agent_pkg::axi_s_mon #(32, 32)::monitor/#FORK#34_7fefec44d21 File: ../env/axi_ref_model.sv Line: 82
# xyz : 333
# ** Warning: (vsim-3829) Non-existent associative array entry. Returning default value.
#    Time: 3055 ns  Iteration: 2  Process: /axi_s_agent_pkg::axi_s_mon #(32, 32)::monitor/#FORK#34_7fefec44d21 File: ../env/axi_ref_model.sv Line: 82
# xyz : 334
# ** Warning: (vsim-3829) Non-existent associative array entry. Returning default value.
#    Time: 3055 ns  Iteration: 2  Process: /axi_s_agent_pkg::axi_s_mon #(32, 32)::monitor/#FORK#34_7fefec44d21 File: ../env/axi_ref_model.sv Line: 82
# xyz : 335
# ** Warning: (vsim-3829) Non-existent associative array entry. Returning default value.
#    Time: 3055 ns  Iteration: 2  Process: /axi_s_agent_pkg::axi_s_mon #(32, 32)::monitor/#FORK#34_7fefec44d21 File: ../env/axi_ref_model.sv Line: 82
# xyz : 336
# ** Warning: (vsim-3829) Non-existent associative array entry. Returning default value.
#    Time: 3055 ns  Iteration: 2  Process: /axi_s_agent_pkg::axi_s_mon #(32, 32)::monitor/#FORK#34_7fefec44d21 File: ../env/axi_ref_model.sv Line: 82
# xyz : 337
# ** Warning: (vsim-3829) Non-existent associative array entry. Returning default value.
#    Time: 3055 ns  Iteration: 2  Process: /axi_s_agent_pkg::axi_s_mon #(32, 32)::monitor/#FORK#34_7fefec44d21 File: ../env/axi_ref_model.sv Line: 82
# xyz : 338
# ** Warning: (vsim-3829) Non-existent associative array entry. Returning default value.
#    Time: 3055 ns  Iteration: 2  Process: /axi_s_agent_pkg::axi_s_mon #(32, 32)::monitor/#FORK#34_7fefec44d21 File: ../env/axi_ref_model.sv Line: 82
# xyz : 339
# ** Warning: (vsim-3829) Non-existent associative array entry. Returning default value.
#    Time: 3055 ns  Iteration: 2  Process: /axi_s_agent_pkg::axi_s_mon #(32, 32)::monitor/#FORK#34_7fefec44d21 File: ../env/axi_ref_model.sv Line: 82
# xyz : 340
# ** Warning: (vsim-3829) Non-existent associative array entry. Returning default value.
#    Time: 3055 ns  Iteration: 2  Process: /axi_s_agent_pkg::axi_s_mon #(32, 32)::monitor/#FORK#34_7fefec44d21 File: ../env/axi_ref_model.sv Line: 82
# xyz : 341
# ** Warning: (vsim-3829) Non-existent associative array entry. Returning default value.
#    Time: 3055 ns  Iteration: 2  Process: /axi_s_agent_pkg::axi_s_mon #(32, 32)::monitor/#FORK#34_7fefec44d21 File: ../env/axi_ref_model.sv Line: 82
# xyz : 342
# ** Warning: (vsim-3829) Non-existent associative array entry. Returning default value.
#    Time: 3055 ns  Iteration: 2  Process: /axi_s_agent_pkg::axi_s_mon #(32, 32)::monitor/#FORK#34_7fefec44d21 File: ../env/axi_ref_model.sv Line: 82
# xyz : 343
# ** Warning: (vsim-3829) Non-existent associative array entry. Returning default value.
#    Time: 3055 ns  Iteration: 2  Process: /axi_s_agent_pkg::axi_s_mon #(32, 32)::monitor/#FORK#34_7fefec44d21 File: ../env/axi_ref_model.sv Line: 82
# xyz : 344
# ** Warning: (vsim-3829) Non-existent associative array entry. Returning default value.
#    Time: 3055 ns  Iteration: 2  Process: /axi_s_agent_pkg::axi_s_mon #(32, 32)::monitor/#FORK#34_7fefec44d21 File: ../env/axi_ref_model.sv Line: 82
# xyz : 345
# ** Warning: (vsim-3829) Non-existent associative array entry. Returning default value.
#    Time: 3055 ns  Iteration: 2  Process: /axi_s_agent_pkg::axi_s_mon #(32, 32)::monitor/#FORK#34_7fefec44d21 File: ../env/axi_ref_model.sv Line: 82
# xyz : 346
# ** Warning: (vsim-3829) Non-existent associative array entry. Returning default value.
#    Time: 3055 ns  Iteration: 2  Process: /axi_s_agent_pkg::axi_s_mon #(32, 32)::monitor/#FORK#34_7fefec44d21 File: ../env/axi_ref_model.sv Line: 82
# xyz : 347
# ** Warning: (vsim-3829) Non-existent associative array entry. Returning default value.
#    Time: 3055 ns  Iteration: 2  Process: /axi_s_agent_pkg::axi_s_mon #(32, 32)::monitor/#FORK#34_7fefec44d21 File: ../env/axi_ref_model.sv Line: 82
# xyz : 348
# ** Warning: (vsim-3829) Non-existent associative array entry. Returning default value.
#    Time: 3055 ns  Iteration: 2  Process: /axi_s_agent_pkg::axi_s_mon #(32, 32)::monitor/#FORK#34_7fefec44d21 File: ../env/axi_ref_model.sv Line: 82
# xyz : 349
# ** Warning: (vsim-3829) Non-existent associative array entry. Returning default value.
#    Time: 3055 ns  Iteration: 2  Process: /axi_s_agent_pkg::axi_s_mon #(32, 32)::monitor/#FORK#34_7fefec44d21 File: ../env/axi_ref_model.sv Line: 82
# xyz : 350
# ** Warning: (vsim-3829) Non-existent associative array entry. Returning default value.
#    Time: 3055 ns  Iteration: 2  Process: /axi_s_agent_pkg::axi_s_mon #(32, 32)::monitor/#FORK#34_7fefec44d21 File: ../env/axi_ref_model.sv Line: 82
# xyz : 351
# ** Warning: (vsim-3829) Non-existent associative array entry. Returning default value.
#    Time: 3055 ns  Iteration: 2  Process: /axi_s_agent_pkg::axi_s_mon #(32, 32)::monitor/#FORK#34_7fefec44d21 File: ../env/axi_ref_model.sv Line: 82
# xyz : 352
# ** Warning: (vsim-3829) Non-existent associative array entry. Returning default value.
#    Time: 3055 ns  Iteration: 2  Process: /axi_s_agent_pkg::axi_s_mon #(32, 32)::monitor/#FORK#34_7fefec44d21 File: ../env/axi_ref_model.sv Line: 82
# xyz : 353
# ** Warning: (vsim-3829) Non-existent associative array entry. Returning default value.
#    Time: 3055 ns  Iteration: 2  Process: /axi_s_agent_pkg::axi_s_mon #(32, 32)::monitor/#FORK#34_7fefec44d21 File: ../env/axi_ref_model.sv Line: 82
# xyz : 354
# ** Warning: (vsim-3829) Non-existent associative array entry. Returning default value.
#    Time: 3055 ns  Iteration: 2  Process: /axi_s_agent_pkg::axi_s_mon #(32, 32)::monitor/#FORK#34_7fefec44d21 File: ../env/axi_ref_model.sv Line: 82
# xyz : 355
# ** Warning: (vsim-3829) Non-existent associative array entry. Returning default value.
#    Time: 3055 ns  Iteration: 2  Process: /axi_s_agent_pkg::axi_s_mon #(32, 32)::monitor/#FORK#34_7fefec44d21 File: ../env/axi_ref_model.sv Line: 82
# xyz : 356
# ** Warning: (vsim-3829) Non-existent associative array entry. Returning default value.
#    Time: 3055 ns  Iteration: 2  Process: /axi_s_agent_pkg::axi_s_mon #(32, 32)::monitor/#FORK#34_7fefec44d21 File: ../env/axi_ref_model.sv Line: 82
# xyz : 357
# ** Warning: (vsim-3829) Non-existent associative array entry. Returning default value.
#    Time: 3055 ns  Iteration: 2  Process: /axi_s_agent_pkg::axi_s_mon #(32, 32)::monitor/#FORK#34_7fefec44d21 File: ../env/axi_ref_model.sv Line: 82
# xyz : 358
# ** Warning: (vsim-3829) Non-existent associative array entry. Returning default value.
#    Time: 3055 ns  Iteration: 2  Process: /axi_s_agent_pkg::axi_s_mon #(32, 32)::monitor/#FORK#34_7fefec44d21 File: ../env/axi_ref_model.sv Line: 82
# xyz : 359
# ** Warning: (vsim-3829) Non-existent associative array entry. Returning default value.
#    Time: 3055 ns  Iteration: 2  Process: /axi_s_agent_pkg::axi_s_mon #(32, 32)::monitor/#FORK#34_7fefec44d21 File: ../env/axi_ref_model.sv Line: 82
# xyz : 360
# ** Warning: (vsim-3829) Non-existent associative array entry. Returning default value.
#    Time: 3055 ns  Iteration: 2  Process: /axi_s_agent_pkg::axi_s_mon #(32, 32)::monitor/#FORK#34_7fefec44d21 File: ../env/axi_ref_model.sv Line: 82
# xyz : 361
# ** Warning: (vsim-3829) Non-existent associative array entry. Returning default value.
#    Time: 3055 ns  Iteration: 2  Process: /axi_s_agent_pkg::axi_s_mon #(32, 32)::monitor/#FORK#34_7fefec44d21 File: ../env/axi_ref_model.sv Line: 82
# xyz : 362
# ** Warning: (vsim-3829) Non-existent associative array entry. Returning default value.
#    Time: 3055 ns  Iteration: 2  Process: /axi_s_agent_pkg::axi_s_mon #(32, 32)::monitor/#FORK#34_7fefec44d21 File: ../env/axi_ref_model.sv Line: 82
# xyz : 363
# ** Warning: (vsim-3829) Non-existent associative array entry. Returning default value.
#    Time: 3055 ns  Iteration: 2  Process: /axi_s_agent_pkg::axi_s_mon #(32, 32)::monitor/#FORK#34_7fefec44d21 File: ../env/axi_ref_model.sv Line: 82
# xyz : 364
# ** Warning: (vsim-3829) Non-existent associative array entry. Returning default value.
#    Time: 3055 ns  Iteration: 2  Process: /axi_s_agent_pkg::axi_s_mon #(32, 32)::monitor/#FORK#34_7fefec44d21 File: ../env/axi_ref_model.sv Line: 82
# xyz : 365
# ** Warning: (vsim-3829) Non-existent associative array entry. Returning default value.
#    Time: 3055 ns  Iteration: 2  Process: /axi_s_agent_pkg::axi_s_mon #(32, 32)::monitor/#FORK#34_7fefec44d21 File: ../env/axi_ref_model.sv Line: 82
# xyz : 366
# ** Warning: (vsim-3829) Non-existent associative array entry. Returning default value.
#    Time: 3055 ns  Iteration: 2  Process: /axi_s_agent_pkg::axi_s_mon #(32, 32)::monitor/#FORK#34_7fefec44d21 File: ../env/axi_ref_model.sv Line: 82
# xyz : 367
# ** Warning: (vsim-3829) Non-existent associative array entry. Returning default value.
#    Time: 3055 ns  Iteration: 2  Process: /axi_s_agent_pkg::axi_s_mon #(32, 32)::monitor/#FORK#34_7fefec44d21 File: ../env/axi_ref_model.sv Line: 82
# xyz : 368
# ** Warning: (vsim-3829) Non-existent associative array entry. Returning default value.
#    Time: 3055 ns  Iteration: 2  Process: /axi_s_agent_pkg::axi_s_mon #(32, 32)::monitor/#FORK#34_7fefec44d21 File: ../env/axi_ref_model.sv Line: 82
# xyz : 369
# ** Warning: (vsim-3829) Non-existent associative array entry. Returning default value.
#    Time: 3055 ns  Iteration: 2  Process: /axi_s_agent_pkg::axi_s_mon #(32, 32)::monitor/#FORK#34_7fefec44d21 File: ../env/axi_ref_model.sv Line: 82
# xyz : 370
# ** Warning: (vsim-3829) Non-existent associative array entry. Returning default value.
#    Time: 3055 ns  Iteration: 2  Process: /axi_s_agent_pkg::axi_s_mon #(32, 32)::monitor/#FORK#34_7fefec44d21 File: ../env/axi_ref_model.sv Line: 82
# xyz : 371
# ** Warning: (vsim-3829) Non-existent associative array entry. Returning default value.
#    Time: 3055 ns  Iteration: 2  Process: /axi_s_agent_pkg::axi_s_mon #(32, 32)::monitor/#FORK#34_7fefec44d21 File: ../env/axi_ref_model.sv Line: 82
# xyz : 372
# ** Warning: (vsim-3829) Non-existent associative array entry. Returning default value.
#    Time: 3055 ns  Iteration: 2  Process: /axi_s_agent_pkg::axi_s_mon #(32, 32)::monitor/#FORK#34_7fefec44d21 File: ../env/axi_ref_model.sv Line: 82
# xyz : 373
# ** Warning: (vsim-3829) Non-existent associative array entry. Returning default value.
#    Time: 3055 ns  Iteration: 2  Process: /axi_s_agent_pkg::axi_s_mon #(32, 32)::monitor/#FORK#34_7fefec44d21 File: ../env/axi_ref_model.sv Line: 82
# xyz : 374
# ** Warning: (vsim-3829) Non-existent associative array entry. Returning default value.
#    Time: 3055 ns  Iteration: 2  Process: /axi_s_agent_pkg::axi_s_mon #(32, 32)::monitor/#FORK#34_7fefec44d21 File: ../env/axi_ref_model.sv Line: 82
# xyz : 375
# ** Warning: (vsim-3829) Non-existent associative array entry. Returning default value.
#    Time: 3055 ns  Iteration: 2  Process: /axi_s_agent_pkg::axi_s_mon #(32, 32)::monitor/#FORK#34_7fefec44d21 File: ../env/axi_ref_model.sv Line: 82
# xyz : 376
# ** Warning: (vsim-3829) Non-existent associative array entry. Returning default value.
#    Time: 3055 ns  Iteration: 2  Process: /axi_s_agent_pkg::axi_s_mon #(32, 32)::monitor/#FORK#34_7fefec44d21 File: ../env/axi_ref_model.sv Line: 82
# xyz : 377
# ** Warning: (vsim-3829) Non-existent associative array entry. Returning default value.
#    Time: 3055 ns  Iteration: 2  Process: /axi_s_agent_pkg::axi_s_mon #(32, 32)::monitor/#FORK#34_7fefec44d21 File: ../env/axi_ref_model.sv Line: 82
# xyz : 378
# ** Warning: (vsim-3829) Non-existent associative array entry. Returning default value.
#    Time: 3055 ns  Iteration: 2  Process: /axi_s_agent_pkg::axi_s_mon #(32, 32)::monitor/#FORK#34_7fefec44d21 File: ../env/axi_ref_model.sv Line: 82
# xyz : 379
# ** Warning: (vsim-3829) Non-existent associative array entry. Returning default value.
#    Time: 3055 ns  Iteration: 2  Process: /axi_s_agent_pkg::axi_s_mon #(32, 32)::monitor/#FORK#34_7fefec44d21 File: ../env/axi_ref_model.sv Line: 82
# xyz : 380
# ** Warning: (vsim-3829) Non-existent associative array entry. Returning default value.
#    Time: 3055 ns  Iteration: 2  Process: /axi_s_agent_pkg::axi_s_mon #(32, 32)::monitor/#FORK#34_7fefec44d21 File: ../env/axi_ref_model.sv Line: 82
# xyz : 381
# ** Warning: (vsim-3829) Non-existent associative array entry. Returning default value.
#    Time: 3055 ns  Iteration: 2  Process: /axi_s_agent_pkg::axi_s_mon #(32, 32)::monitor/#FORK#34_7fefec44d21 File: ../env/axi_ref_model.sv Line: 82
# xyz : 382
# ** Warning: (vsim-3829) Non-existent associative array entry. Returning default value.
#    Time: 3055 ns  Iteration: 2  Process: /axi_s_agent_pkg::axi_s_mon #(32, 32)::monitor/#FORK#34_7fefec44d21 File: ../env/axi_ref_model.sv Line: 82
# xyz : 383
# ** Warning: (vsim-3829) Non-existent associative array entry. Returning default value.
#    Time: 3055 ns  Iteration: 2  Process: /axi_s_agent_pkg::axi_s_mon #(32, 32)::monitor/#FORK#34_7fefec44d21 File: ../env/axi_ref_model.sv Line: 82
# xyz : 384
# ** Warning: (vsim-3829) Non-existent associative array entry. Returning default value.
#    Time: 3055 ns  Iteration: 2  Process: /axi_s_agent_pkg::axi_s_mon #(32, 32)::monitor/#FORK#34_7fefec44d21 File: ../env/axi_ref_model.sv Line: 82
# xyz : 385
# ** Warning: (vsim-3829) Non-existent associative array entry. Returning default value.
#    Time: 3055 ns  Iteration: 2  Process: /axi_s_agent_pkg::axi_s_mon #(32, 32)::monitor/#FORK#34_7fefec44d21 File: ../env/axi_ref_model.sv Line: 82
# xyz : 386
# ** Warning: (vsim-3829) Non-existent associative array entry. Returning default value.
#    Time: 3055 ns  Iteration: 2  Process: /axi_s_agent_pkg::axi_s_mon #(32, 32)::monitor/#FORK#34_7fefec44d21 File: ../env/axi_ref_model.sv Line: 82
# xyz : 387
# ** Warning: (vsim-3829) Non-existent associative array entry. Returning default value.
#    Time: 3055 ns  Iteration: 2  Process: /axi_s_agent_pkg::axi_s_mon #(32, 32)::monitor/#FORK#34_7fefec44d21 File: ../env/axi_ref_model.sv Line: 82
# xyz : 388
# ** Warning: (vsim-3829) Non-existent associative array entry. Returning default value.
#    Time: 3055 ns  Iteration: 2  Process: /axi_s_agent_pkg::axi_s_mon #(32, 32)::monitor/#FORK#34_7fefec44d21 File: ../env/axi_ref_model.sv Line: 82
# xyz : 389
# ** Warning: (vsim-3829) Non-existent associative array entry. Returning default value.
#    Time: 3055 ns  Iteration: 2  Process: /axi_s_agent_pkg::axi_s_mon #(32, 32)::monitor/#FORK#34_7fefec44d21 File: ../env/axi_ref_model.sv Line: 82
# xyz : 390
# ** Warning: (vsim-3829) Non-existent associative array entry. Returning default value.
#    Time: 3055 ns  Iteration: 2  Process: /axi_s_agent_pkg::axi_s_mon #(32, 32)::monitor/#FORK#34_7fefec44d21 File: ../env/axi_ref_model.sv Line: 82
# xyz : 391
# ** Warning: (vsim-3829) Non-existent associative array entry. Returning default value.
#    Time: 3055 ns  Iteration: 2  Process: /axi_s_agent_pkg::axi_s_mon #(32, 32)::monitor/#FORK#34_7fefec44d21 File: ../env/axi_ref_model.sv Line: 82
# xyz : 392
# ** Warning: (vsim-3829) Non-existent associative array entry. Returning default value.
#    Time: 3055 ns  Iteration: 2  Process: /axi_s_agent_pkg::axi_s_mon #(32, 32)::monitor/#FORK#34_7fefec44d21 File: ../env/axi_ref_model.sv Line: 82
# xyz : 393
# ** Warning: (vsim-3829) Non-existent associative array entry. Returning default value.
#    Time: 3055 ns  Iteration: 2  Process: /axi_s_agent_pkg::axi_s_mon #(32, 32)::monitor/#FORK#34_7fefec44d21 File: ../env/axi_ref_model.sv Line: 82
# xyz : 394
# ** Warning: (vsim-3829) Non-existent associative array entry. Returning default value.
#    Time: 3055 ns  Iteration: 2  Process: /axi_s_agent_pkg::axi_s_mon #(32, 32)::monitor/#FORK#34_7fefec44d21 File: ../env/axi_ref_model.sv Line: 82
# xyz : 395
# ** Warning: (vsim-3829) Non-existent associative array entry. Returning default value.
#    Time: 3055 ns  Iteration: 2  Process: /axi_s_agent_pkg::axi_s_mon #(32, 32)::monitor/#FORK#34_7fefec44d21 File: ../env/axi_ref_model.sv Line: 82
# xyz : 396
# ** Warning: (vsim-3829) Non-existent associative array entry. Returning default value.
#    Time: 3055 ns  Iteration: 2  Process: /axi_s_agent_pkg::axi_s_mon #(32, 32)::monitor/#FORK#34_7fefec44d21 File: ../env/axi_ref_model.sv Line: 82
# xyz : 397
# ** Warning: (vsim-3829) Non-existent associative array entry. Returning default value.
#    Time: 3055 ns  Iteration: 2  Process: /axi_s_agent_pkg::axi_s_mon #(32, 32)::monitor/#FORK#34_7fefec44d21 File: ../env/axi_ref_model.sv Line: 82
# xyz : 398
# ** Warning: (vsim-3829) Non-existent associative array entry. Returning default value.
#    Time: 3055 ns  Iteration: 2  Process: /axi_s_agent_pkg::axi_s_mon #(32, 32)::monitor/#FORK#34_7fefec44d21 File: ../env/axi_ref_model.sv Line: 82
# xyz : 399
# ** Warning: (vsim-3829) Non-existent associative array entry. Returning default value.
#    Time: 3055 ns  Iteration: 2  Process: /axi_s_agent_pkg::axi_s_mon #(32, 32)::monitor/#FORK#34_7fefec44d21 File: ../env/axi_ref_model.sv Line: 82
# xyz : 400
# ** Warning: (vsim-3829) Non-existent associative array entry. Returning default value.
#    Time: 3055 ns  Iteration: 2  Process: /axi_s_agent_pkg::axi_s_mon #(32, 32)::monitor/#FORK#34_7fefec44d21 File: ../env/axi_ref_model.sv Line: 82
# xyz : 401
# ** Warning: (vsim-3829) Non-existent associative array entry. Returning default value.
#    Time: 3055 ns  Iteration: 2  Process: /axi_s_agent_pkg::axi_s_mon #(32, 32)::monitor/#FORK#34_7fefec44d21 File: ../env/axi_ref_model.sv Line: 82
# xyz : 402
# ** Warning: (vsim-3829) Non-existent associative array entry. Returning default value.
#    Time: 3055 ns  Iteration: 2  Process: /axi_s_agent_pkg::axi_s_mon #(32, 32)::monitor/#FORK#34_7fefec44d21 File: ../env/axi_ref_model.sv Line: 82
# xyz : 403
# ** Warning: (vsim-3829) Non-existent associative array entry. Returning default value.
#    Time: 3055 ns  Iteration: 2  Process: /axi_s_agent_pkg::axi_s_mon #(32, 32)::monitor/#FORK#34_7fefec44d21 File: ../env/axi_ref_model.sv Line: 82
# xyz : 404
# ** Warning: (vsim-3829) Non-existent associative array entry. Returning default value.
#    Time: 3055 ns  Iteration: 2  Process: /axi_s_agent_pkg::axi_s_mon #(32, 32)::monitor/#FORK#34_7fefec44d21 File: ../env/axi_ref_model.sv Line: 82
# xyz : 405
# ** Warning: (vsim-3829) Non-existent associative array entry. Returning default value.
#    Time: 3055 ns  Iteration: 2  Process: /axi_s_agent_pkg::axi_s_mon #(32, 32)::monitor/#FORK#34_7fefec44d21 File: ../env/axi_ref_model.sv Line: 82
# xyz : 406
# ** Warning: (vsim-3829) Non-existent associative array entry. Returning default value.
#    Time: 3055 ns  Iteration: 2  Process: /axi_s_agent_pkg::axi_s_mon #(32, 32)::monitor/#FORK#34_7fefec44d21 File: ../env/axi_ref_model.sv Line: 82
# xyz : 407
# ** Warning: (vsim-3829) Non-existent associative array entry. Returning default value.
#    Time: 3055 ns  Iteration: 2  Process: /axi_s_agent_pkg::axi_s_mon #(32, 32)::monitor/#FORK#34_7fefec44d21 File: ../env/axi_ref_model.sv Line: 82
# xyz : 408
# ** Warning: (vsim-3829) Non-existent associative array entry. Returning default value.
#    Time: 3055 ns  Iteration: 2  Process: /axi_s_agent_pkg::axi_s_mon #(32, 32)::monitor/#FORK#34_7fefec44d21 File: ../env/axi_ref_model.sv Line: 82
# xyz : 409
# ** Warning: (vsim-3829) Non-existent associative array entry. Returning default value.
#    Time: 3055 ns  Iteration: 2  Process: /axi_s_agent_pkg::axi_s_mon #(32, 32)::monitor/#FORK#34_7fefec44d21 File: ../env/axi_ref_model.sv Line: 82
# xyz : 410
# ** Warning: (vsim-3829) Non-existent associative array entry. Returning default value.
#    Time: 3055 ns  Iteration: 2  Process: /axi_s_agent_pkg::axi_s_mon #(32, 32)::monitor/#FORK#34_7fefec44d21 File: ../env/axi_ref_model.sv Line: 82
# xyz : 411
# ** Warning: (vsim-3829) Non-existent associative array entry. Returning default value.
#    Time: 3055 ns  Iteration: 2  Process: /axi_s_agent_pkg::axi_s_mon #(32, 32)::monitor/#FORK#34_7fefec44d21 File: ../env/axi_ref_model.sv Line: 82
# xyz : 412
