# vsim -coverage -voptargs="+acc" axi_tb_top -c -do "coverage save -onexit -directive -cvg -codeall axi_fixed_test.ucdb; run -all; exit" "+UVM_TESTNAME=axi_fixed_test" -l axi_fixed_test.log 
# Start time: 14:54:28 on May 11,2026
# ** Note: (vsim-8009) Loading existing optimized design _opt
# //  Questa Sim-64
# //  Version 2023.4 linux_x86_64 Oct  9 2023
# //
# //  Copyright 1991-2023 Mentor Graphics Corporation
# //  All Rights Reserved.
# //
# //  QuestaSim and its associated documentation contain trade
# //  secrets and commercial or financial information that are the property of
# //  Mentor Graphics Corporation and are privileged, confidential,
# //  and exempt from disclosure under the Freedom of Information Act,
# //  5 U.S.C. Section 552. Furthermore, this information
# //  is prohibited from disclosure under the Trade Secrets Act,
# //  18 U.S.C. Section 1905.
# //
# Loading sv_std.std
# Loading work.axi_s_inf(fast)
# Loading work.axi_m_inf(fast)
# Loading mtiUvm.uvm_pkg(fast)
# Loading work.axi_s_agent_pkg(fast)
# Loading work.axi_m_agent_pkg(fast)
# Loading work.axi_env_pkg(fast)
# Loading work.axi_test_pkg(fast)
# Loading mtiUvm.questa_uvm_pkg(fast)
# Loading work.axi_tb_top(fast)
# Loading work.axi_m_inf(fast__2)
# Loading work.axi_s_inf(fast__2)
# ** Warning: (vsim-8441) Clocking block output s_vif.s_drv_cb.RDATA is not legal in this
# or another expression.
#    Time: 0 ns  Iteration: 0  Region: /axi_s_agent_pkg::axi_s_drv #(32, 32) File: ../env/s_agent/axi_s_drv.sv Line: 113
# ** Warning: (vsim-8441) Clocking block output s_vif.s_drv_cb.RVALID is not legal in this
# or another expression.
#    Time: 0 ns  Iteration: 0  Region: /axi_s_agent_pkg::axi_s_drv #(32, 32) File: ../env/s_agent/axi_s_drv.sv Line: 115
# ** Warning: (vsim-8441) Clocking block output s_vif.s_drv_cb.RLAST is not legal in this
# or another expression.
#    Time: 0 ns  Iteration: 0  Region: /axi_s_agent_pkg::axi_s_drv #(32, 32) File: ../env/s_agent/axi_s_drv.sv Line: 116
# ** Warning: (vsim-8441) Clocking block output s_vif.s_drv_cb.RDATA is not legal in this
# or another expression.
#    Time: 0 ns  Iteration: 0  Region: /axi_s_agent_pkg::axi_s_drv #(32, 32) File: ../env/s_agent/axi_s_drv.sv Line: 113
# ** Warning: (vsim-8441) Clocking block output s_vif.s_drv_cb.RLAST is not legal in this
# or another expression.
#    Time: 0 ns  Iteration: 0  Region: /axi_s_agent_pkg::axi_s_drv #(32, 32) File: ../env/s_agent/axi_s_drv.sv Line: 116
# ** Warning: (vsim-8441) Clocking block output s_vif.s_drv_cb.RVALID is not legal in this
# or another expression.
#    Time: 0 ns  Iteration: 0  Region: /axi_s_agent_pkg::axi_s_drv #(32, 32) File: ../env/s_agent/axi_s_drv.sv Line: 115
# ** Warning: (vsim-8441) Clocking block output s_vif.s_drv_cb.RVALID is not legal in this
# or another expression.
#    Time: 0 ns  Iteration: 0  Region: /axi_s_agent_pkg::axi_s_drv #(32, 32) File: ../env/s_agent/axi_s_drv.sv Line: 115
# ** Warning: (vsim-8441) Clocking block output s_vif.s_drv_cb.RLAST is not legal in this
# or another expression.
#    Time: 0 ns  Iteration: 0  Region: /axi_s_agent_pkg::axi_s_drv #(32, 32) File: ../env/s_agent/axi_s_drv.sv Line: 116
# Loading /tools/mentor/questa/2023.4/questasim/uvm-1.1d/linux_x86_64/uvm_dpi.so
# coverage save -onexit -directive -cvg -codeall axi_fixed_test.ucdb
#  run -all
# ----------------------------------------------------------------
# UVM-1.1d
# (C) 2007-2013 Mentor Graphics Corporation
# (C) 2007-2013 Cadence Design Systems, Inc.
# (C) 2006-2013 Synopsys, Inc.
# (C) 2011-2013 Cypress Semiconductor Corp.
# ----------------------------------------------------------------
# 
#   ***********       IMPORTANT RELEASE NOTES         ************
# 
#   You are using a version of the UVM library that has been compiled
#   with `UVM_NO_DEPRECATED undefined.
#   See http://www.eda.org/svdb/view.php?id=3313 for more details.
# 
#   You are using a version of the UVM library that has been compiled
#   with `UVM_OBJECT_MUST_HAVE_CONSTRUCTOR undefined.
#   See http://www.eda.org/svdb/view.php?id=3770 for more details.
# 
#       (Specify +UVM_NO_RELNOTES to turn off this notice)
# 
# UVM_INFO verilog_src/questa_uvm_pkg-1.2/src/questa_uvm_pkg.sv(277) @ 0: reporter [Questa UVM] QUESTA_UVM-1.2.3
# UVM_INFO verilog_src/questa_uvm_pkg-1.2/src/questa_uvm_pkg.sv(278) @ 0: reporter [Questa UVM]  questa_uvm::init(+struct)
# UVM_INFO @ 0: reporter [RNTST] Running test axi_fixed_test...
# ** Warning: (vsim-8474) A higher value '4294967295' is found in bin 'all_ones' of Coverpoint 'cp_wdata'. It is invalid and will be ignored.
#    Time: 0 ns  Iteration: 7  Process: /uvm_pkg::uvm_phase::m_run_phases/#FORK#1847_7fefec4648d File: ../env/axi_coverage.sv Line: 49
# ** Warning: (vsim-8549) After dropping the illegal, ignore or invalid values, the values list associated with scalar bin 'all_ones' in Coverpoint 'cp_wdata' of Covergroup instance '\/axi_env_pkg::axi_coverage::write_cov ' has converged to empty list. The bin will be taken out of coverage calculation.
#    Time: 0 ns  Iteration: 7  Region: /uvm_pkg::uvm_phase::m_run_phases
# ** Warning: (vsim-8474) A higher value '1431655765' is found in bin 'toggle_01' of Coverpoint 'cp_wdata'. It is invalid and will be ignored.
#    Time: 0 ns  Iteration: 7  Process: /uvm_pkg::uvm_phase::m_run_phases/#FORK#1847_7fefec4648d File: ../env/axi_coverage.sv Line: 50
# ** Warning: (vsim-8474) A higher value '2863311530' is found in bin 'toggle_01' of Coverpoint 'cp_wdata'. It is invalid and will be ignored.
#    Time: 0 ns  Iteration: 7  Process: /uvm_pkg::uvm_phase::m_run_phases/#FORK#1847_7fefec4648d File: ../env/axi_coverage.sv Line: 50
# ** Warning: (vsim-8549) After dropping the illegal, ignore or invalid values, the values list associated with scalar bin 'toggle_01' in Coverpoint 'cp_wdata' of Covergroup instance '\/axi_env_pkg::axi_coverage::write_cov ' has converged to empty list. The bin will be taken out of coverage calculation.
#    Time: 0 ns  Iteration: 7  Region: /uvm_pkg::uvm_phase::m_run_phases
# ** Warning: (vsim-3881) ../env/axi_coverage.sv(51): Width conversion applied in bin 'other_data' for Coverpoint 'cp_wdata'. Value '1' changed to ' (maximum)' value.
#    Time: 0 ns  Iteration: 7  Region: /uvm_pkg::uvm_phase::m_run_phases
# ** Warning: (vsim-3881) ../env/axi_coverage.sv(51): Width conversion applied in bin 'other_data' for Coverpoint 'cp_wdata'. Value '4294901759' changed to ' (maximum)' value.
#    Time: 0 ns  Iteration: 7  Region: /uvm_pkg::uvm_phase::m_run_phases
# ** Warning: (vsim-8475) The invalid value range [1 : 4294901759] is found in bin 'other_data' of Coverpoint 'cp_wdata'. It will be ignored.
#    Time: 0 ns  Iteration: 7  Process: /uvm_pkg::uvm_phase::m_run_phases/#FORK#1847_7fefec4648d File: ../env/axi_coverage.sv Line: 51
# ** Warning: (vsim-8549) After dropping the illegal, ignore or invalid values, the values list associated with array bin 'other_data' in Coverpoint 'cp_wdata' of Covergroup instance '\/axi_env_pkg::axi_coverage::write_cov ' has converged to empty list. The bin will be taken out of coverage calculation.
#    Time: 0 ns  Iteration: 7  Region: /uvm_pkg::uvm_phase::m_run_phases
# ** Warning: (vsim-8474) A higher value '8' is found in bin 'single_byte' of Coverpoint 'cp_wstrb'. It is invalid and will be ignored.
#    Time: 0 ns  Iteration: 7  Process: /uvm_pkg::uvm_phase::m_run_phases/#FORK#1847_7fefec4648d File: ../env/axi_coverage.sv Line: 72
# ** Warning: (vsim-8474) A higher value '12' is found in bin 'single_byte' of Coverpoint 'cp_wstrb'. It is invalid and will be ignored.
#    Time: 0 ns  Iteration: 7  Process: /uvm_pkg::uvm_phase::m_run_phases/#FORK#1847_7fefec4648d File: ../env/axi_coverage.sv Line: 72
# ** Warning: (vsim-8474) A higher value '14' is found in bin 'single_byte' of Coverpoint 'cp_wstrb'. It is invalid and will be ignored.
#    Time: 0 ns  Iteration: 7  Process: /uvm_pkg::uvm_phase::m_run_phases/#FORK#1847_7fefec4648d File: ../env/axi_coverage.sv Line: 72
# ** Warning: (vsim-8549) After dropping the illegal, ignore or invalid values, the values list associated with scalar bin 'single_byte' in Coverpoint 'cp_wstrb' of Covergroup instance '\/axi_env_pkg::axi_coverage::write_cov ' has converged to empty list. The bin will be taken out of coverage calculation.
#    Time: 0 ns  Iteration: 7  Region: /uvm_pkg::uvm_phase::m_run_phases
# ** Warning: (vsim-8474) A higher value '15' is found in bin 'all_bytes' of Coverpoint 'cp_wstrb'. It is invalid and will be ignored.
#    Time: 0 ns  Iteration: 7  Process: /uvm_pkg::uvm_phase::m_run_phases/#FORK#1847_7fefec4648d File: ../env/axi_coverage.sv Line: 73
# ** Warning: (vsim-8549) After dropping the illegal, ignore or invalid values, the values list associated with scalar bin 'all_bytes' in Coverpoint 'cp_wstrb' of Covergroup instance '\/axi_env_pkg::axi_coverage::write_cov ' has converged to empty list. The bin will be taken out of coverage calculation.
#    Time: 0 ns  Iteration: 7  Region: /uvm_pkg::uvm_phase::m_run_phases
# ** Warning: (vsim-8554) The expression 'binsof(cp_wstrb.single_byte)' inside the select expression of Bin 'invalid_wrap' of Cross 'STRB_CP' in Covergroup instance '\/axi_env_pkg::axi_coverage::write_cov ' is an empty user bin. The binsof expression will result in an empty set.
#    Time: 0 ns  Iteration: 7  Region: /uvm_pkg::uvm_phase::m_run_phases
# UVM_INFO ../env/s_agent/axi_s_seqr.sv(25) @ 0: uvm_test_top.env_h.s_uvc_h.s_agent_h[0].s_seqr_h [Data in s seqr] Data got in slave seqr
# UVM_INFO @ 0: reporter [UVMTOP] UVM testbench topology:
# --------------------------------------------------------------------------------
# Name                             Type                                Size  Value
# --------------------------------------------------------------------------------
# uvm_test_top                     axi_fixed_test                      -     @479 
#   env_h                          axi_env                             -     @491 
#     m_uvc_h                      uvm_agent                           -     @513 
#       m_agent_h[0]               uvm_agent                           -     @693 
#         m_drv_h                  uvm_driver #(REQ,RSP)               -     @814 
#           rsp_port               uvm_analysis_port                   -     @829 
#           seq_item_port          uvm_seq_item_pull_port              -     @821 
#         m_mon_h                  axi_m_mon#(ADDR_WIDTH, DATA_WIDTH)  -     @837 
#           s_port                 uvm_analysis_port                   -     @844 
#         m_seqr_h                 uvm_sequencer                       -     @705 
#           rsp_export             uvm_analysis_export                 -     @712 
#           seq_item_export        uvm_seq_item_pull_imp               -     @806 
#           arbitration_queue      array                               0     -    
#           lock_queue             array                               0     -    
#           num_last_reqs          integral                            32    'd1  
#           num_last_rsps          integral                            32    'd1  
#     ref_model_h                  axi_ref_model                       -     @558 
#       mon_imp                    uvm_analysis_imp                    -     @565 
#       sb_imp                     uvm_analysis_port                   -     @573 
#     s_uvc_h                      uvm_agent                           -     @520 
#       s_agent_h[0]               uvm_agent                           -     @860 
#         s_drv_h                  uvm_driver #(REQ,RSP)               -     @1036
#           rsp_port               uvm_analysis_port                   -     @1051
#           seq_item_port          uvm_seq_item_pull_port              -     @1043
#         s_mon_h                  axi_s_mon#(ADDR_WIDTH, DATA_WIDTH)  -     @1059
#           s_port                 uvm_analysis_port                   -     @1066
#         s_seqr_h                 uvm_sequencer                       -     @872 
#           item_collected_export  uvm_analysis_export                 -     @981 
#           item_req_fifo          uvm_tlm_analysis_fifo #(T)          -     @989 
#             analysis_export      uvm_analysis_imp                    -     @1028
#             get_ap               uvm_analysis_port                   -     @1020
#             get_peek_export      uvm_get_peek_imp                    -     @1004
#             put_ap               uvm_analysis_port                   -     @1012
#             put_export           uvm_put_imp                         -     @996 
#           rsp_export             uvm_analysis_export                 -     @879 
#           seq_item_export        uvm_seq_item_pull_imp               -     @973 
#           arbitration_queue      array                               0     -    
#           lock_queue             array                               0     -    
#           num_last_reqs          integral                            32    'd1  
#           num_last_rsps          integral                            32    'd1  
#     sb_h                         axi_sb                              -     @527 
#       anl_imp_m                  uvm_analysis_imp_m                  -     @534 
#       anl_imp_ref                uvm_analysis_imp_ref                -     @542 
#     vseqr_h                      axi_virtual_seqr                    -     @581 
#       rsp_export                 uvm_analysis_export                 -     @588 
#       seq_item_export            uvm_seq_item_pull_imp               -     @682 
#       arbitration_queue          array                               0     -    
#       lock_queue                 array                               0     -    
#       num_last_reqs              integral                            32    'd1  
#       num_last_rsps              integral                            32    'd1  
# --------------------------------------------------------------------------------
# 
# UVM_INFO ../env/axi_sb.sv(80) @ 0: uvm_test_top.env_h.sb_h [before event in sb] aaaa
# UVM_INFO ../env/m_agent/axi_m_mon.sv(28) @ 0: uvm_test_top.env_h.m_uvc_h.m_agent_h[0].m_mon_h [M MON RUN PHASE before] Inside master mon run phase
# UVM_INFO ../env/m_agent/axi_m_mon.sv(36) @ 0: uvm_test_top.env_h.m_uvc_h.m_agent_h[0].m_mon_h [M MON run PHASE after] Inside master mon
# UVM_INFO ../env/m_agent/axi_m_mon.sv(41) @ 0: uvm_test_top.env_h.m_uvc_h.m_agent_h[0].m_mon_h [M MON write addr PHASE before] Inside master mon
# UVM_INFO ../env/m_agent/axi_m_mon.sv(60) @ 0: uvm_test_top.env_h.m_uvc_h.m_agent_h[0].m_mon_h [M MON write data PHASE before] Inside master mon
# UVM_INFO ../env/m_agent/axi_m_mon.sv(99) @ 0: uvm_test_top.env_h.m_uvc_h.m_agent_h[0].m_mon_h [M MON read addr PHASE before] Inside master mon
# UVM_INFO ../env/m_agent/axi_m_mon.sv(118) @ 0: uvm_test_top.env_h.m_uvc_h.m_agent_h[0].m_mon_h [M MON read data PHASE before] Inside master mon
# Before AW CHANNEL
# Before W CHANNEL
# Before AR CHANNEL
# Before R CHANNEL
# AWLEN IN M DRV:3
# cnt : 1
# AWLEN IN M DRV:7
# cnt : 2
# AWLEN IN M DRV:3
# cnt : 3
# AWLEN IN M DRV:13
# cnt : 4
# AWLEN IN M DRV:3
# cnt : 5
# AWLEN IN M DRV:8
# cnt : 6
# AWLEN IN M DRV:3
# cnt : 7
# AWLEN IN M DRV:1
# cnt : 8
# AWLEN IN M DRV:3
# cnt : 9
# AWLEN IN M DRV:7
# cnt : 10
# AWLEN IN M DRV:3
# cnt : 11
# AWLEN IN M DRV:0
# cnt : 12
# AWLEN IN M DRV:3
# cnt : 13
# AWLEN IN M DRV:0
# cnt : 14
# AWLEN IN M DRV:3
# cnt : 15
# AWLEN IN M DRV:9
# cnt : 16
# AWLEN IN M DRV:3
# cnt : 17
# AWLEN IN M DRV:9
# cnt : 18
# AWLEN IN M DRV:3
# cnt : 19
# AWLEN IN M DRV:0
# cnt : 20
# AWLEN IN M DRV:3
# cnt : 21
# AWLEN IN M DRV:3
# cnt : 22
# AWLEN IN M DRV:3
# cnt : 23
# AWLEN IN M DRV:10
# cnt : 24
# AWLEN IN M DRV:3
# cnt : 25
# AWLEN IN M DRV:14
# cnt : 26
# AWLEN IN M DRV:3
# cnt : 27
# AWLEN IN M DRV:0
# cnt : 28
# AWLEN IN M DRV:3
# cnt : 29
# AWLEN IN M DRV:14
# cnt : 30
# AWLEN IN M DRV:3
# cnt : 31
# AWLEN IN M DRV:4
# cnt : 32
# AWLEN IN M DRV:3
# cnt : 33
# AWLEN IN M DRV:3
# cnt : 34
# AWLEN IN M DRV:3
# cnt : 35
# AWLEN IN M DRV:6
# cnt : 36
# AWLEN IN M DRV:3
# cnt : 37
# AWLEN IN M DRV:8
# cnt : 38
# AWLEN IN M DRV:3
# cnt : 39
# AWLEN IN M DRV:9
# cnt : 40
# AWLEN IN M DRV:3
# cnt : 41
# AWLEN IN M DRV:3
# cnt : 42
# AWLEN IN M DRV:3
# cnt : 43
# AWLEN IN M DRV:1
# cnt : 44
# AWLEN IN M DRV:3
# cnt : 45
# AWLEN IN M DRV:6
# cnt : 46
# AWLEN IN M DRV:3
# cnt : 47
# AWLEN IN M DRV:3
# cnt : 48
# AWLEN IN M DRV:3
# cnt : 49
# AWLEN IN M DRV:7
# cnt : 50
# AWLEN IN M DRV:3
# cnt : 51
# AWLEN IN M DRV:1
# cnt : 52
# AWLEN IN M DRV:3
# cnt : 53
# AWLEN IN M DRV:4
# cnt : 54
# AWLEN IN M DRV:3
# cnt : 55
# AWLEN IN M DRV:3
# cnt : 56
# AWLEN IN M DRV:3
# cnt : 57
# AWLEN IN M DRV:5
# cnt : 58
# AWLEN IN M DRV:3
# cnt : 59
# AWLEN IN M DRV:7
# cnt : 60
# AWLEN IN M DRV:3
# cnt : 61
# AWLEN IN M DRV:3
# cnt : 62
# AWLEN IN M DRV:3
# cnt : 63
# AWLEN IN M DRV:0
# cnt : 64
# AWLEN IN M DRV:3
# cnt : 65
# AWLEN IN M DRV:1
# cnt : 66
# AWLEN IN M DRV:3
# cnt : 67
# AWLEN IN M DRV:6
# cnt : 68
# AWLEN IN M DRV:3
# cnt : 69
# AWLEN IN M DRV:4
# cnt : 70
# AWLEN IN M DRV:3
# cnt : 71
# AWLEN IN M DRV:13
# cnt : 72
# AWLEN IN M DRV:3
# cnt : 73
# AWLEN IN M DRV:4
# cnt : 74
# AWLEN IN M DRV:3
# cnt : 75
# AWLEN IN M DRV:12
# cnt : 76
# AWLEN IN M DRV:3
# cnt : 77
# AWLEN IN M DRV:11
# cnt : 78
# AWLEN IN M DRV:3
# cnt : 79
# AWLEN IN M DRV:7
# cnt : 80
# AWLEN IN M DRV:3
# cnt : 81
# AWLEN IN M DRV:11
# cnt : 82
# AWLEN IN M DRV:3
# cnt : 83
# AWLEN IN M DRV:14
# cnt : 84
# AWLEN IN M DRV:3
# cnt : 85
# AWLEN IN M DRV:5
# cnt : 86
# AWLEN IN M DRV:3
# cnt : 87
# AWLEN IN M DRV:8
# cnt : 88
# AWLEN IN M DRV:3
# cnt : 89
# AWLEN IN M DRV:0
# cnt : 90
# AWLEN IN M DRV:3
# cnt : 91
# AWLEN IN M DRV:6
# cnt : 92
# AWLEN IN M DRV:3
# cnt : 93
# AWLEN IN M DRV:15
# cnt : 94
# AWLEN IN M DRV:3
# cnt : 95
# AWLEN IN M DRV:8
# cnt : 96
# AWLEN IN M DRV:3
# cnt : 97
# AWLEN IN M DRV:4
# cnt : 98
# AWLEN IN M DRV:3
# cnt : 99
# AWLEN IN M DRV:3
# cnt : 100
# INIDE_SLAVE_MON_CTR=1
# arid in s mon : 60203
# m mon ar id : eb2b
# INIDE_SLAVE_MON_CTR=2
# arid in s mon : 59707
# m mon ar id : e93b
# abc : 1
# ref model mem : 384
# abc : 2
# ref model mem : 385
# abc : 3
# ref model mem : 386
# abc : 4
# ref model mem : 387
# xyz : 1
# xyz : 2
# xyz : 3
# xyz : 4
# AR ADDR IN SB : 17f
# INIDE_SLAVE_MON_CTR=3
# arid in s mon : 59859
# AFFTER W CHANNEL
# m mon ar id : e9d3
# match arid : 0 , rid : 0
# UVM_INFO ../env/s_agent/axi_s_drv.sv(31) @ 45: uvm_test_top.env_h.s_uvc_h.s_agent_h[0].s_drv_h [ID MATCH] aaaaa
# s seqs arid : 60203
# INIDE_SLAVE_SEQ_CTR=1
# match arid : eb2b , rid : eb2b
# UVM_INFO ../env/s_agent/axi_s_drv.sv(31) @ 45: uvm_test_top.env_h.s_uvc_h.s_agent_h[0].s_drv_h [ID MATCH] aaaaa
# rd data in s drv: e1000000 , len : 3 , last:0 , valid : 1
# INIDE_SLAVE_MON_CTR=4
# arid in s mon : 10426
# m mon ar id : 28ba
# m mon rid : eb2b
# rd data in s drv: 5ade4b3 , len : 3 , last:0 , valid : 1
# INIDE_SLAVE_MON_CTR=5
# arid in s mon : 61524
# m mon rid : eb2b
# m mon ar id : f054
# req wid : 48469 , bid:48469
# UVM_INFO ../env/m_agent/axi_base_m_seqs.sv(26) @ 65: uvm_test_top.env_h.m_uvc_h.m_agent_h[0].m_seqr_h@@vseqs_h.m_wseqs_h [IN V SEQS] Got B-channel response from driver
# rd data in s drv: 55d992b7 , len : 3 , last:0 , valid : 1
# INIDE_SLAVE_MON_CTR=6
# arid in s mon : 26459
# m mon ar id : 675b
# m mon rid : eb2b
# rd data in s drv: edb2c52b , len : 3 , last:1 , valid : 1
# abc : 1
# ref model mem : 681
# abc : 2
# ref model mem : 682
# abc : 3
# ref model mem : 683
# abc : 4
# ref model mem : 684
# xyz : 1
# xyz : 2
# xyz : 3
# xyz : 4
# AR ADDR IN SB : 2a8
# INIDE_SLAVE_MON_CTR=7
# arid in s mon : 22357
# AFFTER W CHANNEL
# req kind : READ
# INSIDE BEORE SAMPLE
# ---------------------------------------------------
# Name            Type               Size  Value     
# ---------------------------------------------------
# axi_m_seq_item  uvm_sequence_item  -     @1598     
#   AWID          integral           16    'h0       
#   AWADDR        integral           32    'h0       
#   AWLEN         integral           8     'd0       
#   AWSIZE        integral           3     'd0       
#   AWBURST       integral           2     'd0       
#   WID           integral           16    'h0       
#   WDATA         da(integral)       0     -         
#   WSTRB         da(integral)       0     -         
#   WLAST         integral           1     'd0       
#   BID           integral           16    'h0       
#   BRESP         integral           2     'd0       
#   ARID          integral           16    'heb2b    
#   ARADDR        integral           32    'h17f     
#   ARLEN         integral           8     'd3       
#   ARSIZE        integral           3     'd2       
#   ARBURST       integral           2     'd0       
#   RID           integral           16    'heb2b    
#   RDATA         da(integral)       4     -         
#     [0]         integral           32    'he1000000
#     [1]         integral           32    'h5ade4b3 
#     [2]         integral           32    'h55d992b7
#     [3]         integral           32    'hedb2c52b
#   RRESP         integral           2     'd0       
#   RLAST         integral           1     'd0       
#   burst_kind_e  burst_kind         2     FIXED     
#   kind_e        trans_kind         2     READ      
# ---------------------------------------------------
# RDATa IN SB : 3774873600 95282355 1440322231 3987916075
# m mon rid : eb2b
# m mon ar id : 5755
# UVM_INFO ../env/axi_sb.sv(82) @ 85: uvm_test_top.env_h.sb_h [after event in sb] aaaa
# UVM_INFO ../env/axi_sb.sv(80) @ 85: uvm_test_top.env_h.sb_h [before event in sb] aaaa
# match arid : 0 , rid : 0
# UVM_INFO ../env/s_agent/axi_s_drv.sv(31) @ 85: uvm_test_top.env_h.s_uvc_h.s_agent_h[0].s_drv_h [ID MATCH] aaaaa
# s seqs arid : 59707
# INIDE_SLAVE_SEQ_CTR=2
# match arid : e93b , rid : e93b
# UVM_INFO ../env/s_agent/axi_s_drv.sv(31) @ 85: uvm_test_top.env_h.s_uvc_h.s_agent_h[0].s_drv_h [ID MATCH] aaaaa
# rd data in s drv: 766d2096 , len : 3 , last:0 , valid : 1
# INIDE_SLAVE_MON_CTR=8
# arid in s mon : 58966
# m mon ar id : e656
# m mon rid : e93b
# rd data in s drv: c6d5f5ef , len : 3 , last:0 , valid : 1
# INIDE_SLAVE_MON_CTR=9
# arid in s mon : 64759
# m mon rid : e93b
# m mon ar id : fcf7
# req wid : 48924 , bid:48924
# UVM_INFO ../env/m_agent/axi_base_m_seqs.sv(26) @ 105: uvm_test_top.env_h.m_uvc_h.m_agent_h[0].m_seqr_h@@vseqs_h.m_wseqs_h [IN V SEQS] Got B-channel response from driver
# rd data in s drv: b8665e42 , len : 3 , last:0 , valid : 1
# INIDE_SLAVE_MON_CTR=10
# arid in s mon : 43156
# m mon ar id : a894
# m mon rid : e93b
# rd data in s drv: eaba05fa , len : 3 , last:1 , valid : 1
# abc : 1
# ref model mem : 903
# abc : 2
# ref model mem : 904
# abc : 3
# ref model mem : 905
# abc : 4
# ref model mem : 906
# xyz : 1
# xyz : 2
# xyz : 3
# xyz : 4
# AR ADDR IN SB : 386
# INIDE_SLAVE_MON_CTR=11
# arid in s mon : 52439
# AFFTER W CHANNEL
# req kind : READ
# INSIDE BEORE SAMPLE
# ---------------------------------------------------
# Name            Type               Size  Value     
# ---------------------------------------------------
# axi_m_seq_item  uvm_sequence_item  -     @1618     
#   AWID          integral           16    'h0       
#   AWADDR        integral           32    'h0       
#   AWLEN         integral           8     'd0       
#   AWSIZE        integral           3     'd0       
#   AWBURST       integral           2     'd0       
#   WID           integral           16    'h0       
#   WDATA         da(integral)       0     -         
#   WSTRB         da(integral)       0     -         
#   WLAST         integral           1     'd0       
#   BID           integral           16    'h0       
#   BRESP         integral           2     'd0       
#   ARID          integral           16    'he93b    
#   ARADDR        integral           32    'h2a8     
#   ARLEN         integral           8     'd3       
#   ARSIZE        integral           3     'd2       
#   ARBURST       integral           2     'd0       
#   RID           integral           16    'he93b    
#   RDATA         da(integral)       4     -         
#     [0]         integral           32    'h766d2096
#     [1]         integral           32    'hc6d5f5ef
#     [2]         integral           32    'hb8665e42
#     [3]         integral           32    'heaba05fa
#   RRESP         integral           2     'd0       
#   RLAST         integral           1     'd0       
#   burst_kind_e  burst_kind         2     FIXED     
#   kind_e        trans_kind         2     READ      
# ---------------------------------------------------
# RDATa IN SB : 1986863254 3335910895 3093716546 3938059770
# m mon rid : e93b
# m mon ar id : ccd7
# UVM_INFO ../env/axi_sb.sv(82) @ 125: uvm_test_top.env_h.sb_h [after event in sb] aaaa
# UVM_INFO ../env/axi_sb.sv(80) @ 125: uvm_test_top.env_h.sb_h [before event in sb] aaaa
# match arid : 0 , rid : 0
# UVM_INFO ../env/s_agent/axi_s_drv.sv(31) @ 125: uvm_test_top.env_h.s_uvc_h.s_agent_h[0].s_drv_h [ID MATCH] aaaaa
# s seqs arid : 59859
# INIDE_SLAVE_SEQ_CTR=3
# match arid : e9d3 , rid : e9d3
# UVM_INFO ../env/s_agent/axi_s_drv.sv(31) @ 125: uvm_test_top.env_h.s_uvc_h.s_agent_h[0].s_drv_h [ID MATCH] aaaaa
# rd data in s drv: 45420000 , len : 3 , last:0 , valid : 1
# INIDE_SLAVE_MON_CTR=12
# arid in s mon : 4905
# m mon ar id : 1329
# m mon rid : e9d3
# rd data in s drv: 3b27ee47 , len : 3 , last:0 , valid : 1
# INIDE_SLAVE_MON_CTR=13
# arid in s mon : 35577
# m mon rid : e9d3
# m mon ar id : 8af9
# req wid : 11091 , bid:11091
# UVM_INFO ../env/m_agent/axi_base_m_seqs.sv(26) @ 145: uvm_test_top.env_h.m_uvc_h.m_agent_h[0].m_seqr_h@@vseqs_h.m_wseqs_h [IN V SEQS] Got B-channel response from driver
# rd data in s drv: 549c6744 , len : 3 , last:0 , valid : 1
# INIDE_SLAVE_MON_CTR=14
# arid in s mon : 25219
# m mon ar id : 6283
# m mon rid : e9d3
# rd data in s drv: 1bc5235 , len : 3 , last:1 , valid : 1
# abc : 1
# ref model mem : 221
# abc : 2
# ref model mem : 222
# abc : 3
# ref model mem : 223
# abc : 4
# ref model mem : 224
# xyz : 1
# xyz : 2
# xyz : 3
# xyz : 4
# AR ADDR IN SB : dc
# INIDE_SLAVE_MON_CTR=15
# arid in s mon : 47995
# AFFTER W CHANNEL
# req kind : READ
# INSIDE BEORE SAMPLE
# ---------------------------------------------------
# Name            Type               Size  Value     
# ---------------------------------------------------
# axi_m_seq_item  uvm_sequence_item  -     @1654     
#   AWID          integral           16    'h0       
#   AWADDR        integral           32    'h0       
#   AWLEN         integral           8     'd0       
#   AWSIZE        integral           3     'd0       
#   AWBURST       integral           2     'd0       
#   WID           integral           16    'h0       
#   WDATA         da(integral)       0     -         
#   WSTRB         da(integral)       0     -         
#   WLAST         integral           1     'd0       
#   BID           integral           16    'h0       
#   BRESP         integral           2     'd0       
#   ARID          integral           16    'he9d3    
#   ARADDR        integral           32    'h386     
#   ARLEN         integral           8     'd3       
#   ARSIZE        integral           3     'd2       
#   ARBURST       integral           2     'd0       
#   RID           integral           16    'he9d3    
#   RDATA         da(integral)       4     -         
#     [0]         integral           32    'h45420000
#     [1]         integral           32    'h3b27ee47
#     [2]         integral           32    'h549c6744
#     [3]         integral           32    'h1bc5235 
#   RRESP         integral           2     'd0       
#   RLAST         integral           1     'd0       
#   burst_kind_e  burst_kind         2     FIXED     
#   kind_e        trans_kind         2     READ      
# ---------------------------------------------------
# RDATa IN SB : 1161953280 992472647 1419536196 29119029
# m mon rid : e9d3
# m mon ar id : bb7b
# UVM_INFO ../env/axi_sb.sv(82) @ 165: uvm_test_top.env_h.sb_h [after event in sb] aaaa
# UVM_INFO ../env/axi_sb.sv(80) @ 165: uvm_test_top.env_h.sb_h [before event in sb] aaaa
# match arid : 0 , rid : 0
# UVM_INFO ../env/s_agent/axi_s_drv.sv(31) @ 165: uvm_test_top.env_h.s_uvc_h.s_agent_h[0].s_drv_h [ID MATCH] aaaaa
# s seqs arid : 10426
# INIDE_SLAVE_SEQ_CTR=4
# match arid : 28ba , rid : 28ba
# UVM_INFO ../env/s_agent/axi_s_drv.sv(31) @ 165: uvm_test_top.env_h.s_uvc_h.s_agent_h[0].s_drv_h [ID MATCH] aaaaa
# rd data in s drv: 7ef31ad8 , len : 3 , last:0 , valid : 1
# INIDE_SLAVE_MON_CTR=16
# arid in s mon : 51276
# m mon ar id : c84c
# m mon rid : 28ba
# rd data in s drv: 400041b1 , len : 3 , last:0 , valid : 1
# INIDE_SLAVE_MON_CTR=17
# arid in s mon : 44353
# m mon rid : 28ba
# m mon ar id : ad41
# req wid : 42546 , bid:42546
# UVM_INFO ../env/m_agent/axi_base_m_seqs.sv(26) @ 185: uvm_test_top.env_h.m_uvc_h.m_agent_h[0].m_seqr_h@@vseqs_h.m_wseqs_h [IN V SEQS] Got B-channel response from driver
# rd data in s drv: 6f3347d9 , len : 3 , last:0 , valid : 1
# INIDE_SLAVE_MON_CTR=18
# arid in s mon : 34273
# m mon ar id : 85e1
# m mon rid : 28ba
# rd data in s drv: 761402a3 , len : 3 , last:1 , valid : 1
# abc : 1
# ref model mem : 235
# abc : 2
# ref model mem : 236
# abc : 3
# ref model mem : 237
# abc : 4
# ref model mem : 238
# xyz : 1
# xyz : 2
# xyz : 3
# xyz : 4
# AR ADDR IN SB : ea
# INIDE_SLAVE_MON_CTR=19
# arid in s mon : 40878
# AFFTER W CHANNEL
# req kind : READ
# INSIDE BEORE SAMPLE
# ---------------------------------------------------
# Name            Type               Size  Value     
# ---------------------------------------------------
# axi_m_seq_item  uvm_sequence_item  -     @1683     
#   AWID          integral           16    'h0       
#   AWADDR        integral           32    'h0       
#   AWLEN         integral           8     'd0       
#   AWSIZE        integral           3     'd0       
#   AWBURST       integral           2     'd0       
#   WID           integral           16    'h0       
#   WDATA         da(integral)       0     -         
#   WSTRB         da(integral)       0     -         
#   WLAST         integral           1     'd0       
#   BID           integral           16    'h0       
#   BRESP         integral           2     'd0       
#   ARID          integral           16    'h28ba    
#   ARADDR        integral           32    'hdc      
#   ARLEN         integral           8     'd3       
#   ARSIZE        integral           3     'd2       
#   ARBURST       integral           2     'd0       
#   RID           integral           16    'h28ba    
#   RDATA         da(integral)       4     -         
#     [0]         integral           32    'h7ef31ad8
#     [1]         integral           32    'h400041b1
#     [2]         integral           32    'h6f3347d9
#     [3]         integral           32    'h761402a3
#   RRESP         integral           2     'd0       
#   RLAST         integral           1     'd0       
#   burst_kind_e  burst_kind         2     FIXED     
#   kind_e        trans_kind         2     READ      
# ---------------------------------------------------
# RDATa IN SB : 2129861336 1073758641 1865631705 1981022883
# m mon rid : 28ba
# m mon ar id : 9fae
# UVM_INFO ../env/axi_sb.sv(82) @ 205: uvm_test_top.env_h.sb_h [after event in sb] aaaa
# UVM_INFO ../env/axi_sb.sv(80) @ 205: uvm_test_top.env_h.sb_h [before event in sb] aaaa
# match arid : 0 , rid : 0
# UVM_INFO ../env/s_agent/axi_s_drv.sv(31) @ 205: uvm_test_top.env_h.s_uvc_h.s_agent_h[0].s_drv_h [ID MATCH] aaaaa
# s seqs arid : 61524
# INIDE_SLAVE_SEQ_CTR=5
# match arid : f054 , rid : f054
# UVM_INFO ../env/s_agent/axi_s_drv.sv(31) @ 205: uvm_test_top.env_h.s_uvc_h.s_agent_h[0].s_drv_h [ID MATCH] aaaaa
# rd data in s drv: 90e40000 , len : 3 , last:0 , valid : 1
# INIDE_SLAVE_MON_CTR=20
# arid in s mon : 65033
# m mon ar id : fe09
# m mon rid : f054
# rd data in s drv: 7c5cf680 , len : 3 , last:0 , valid : 1
# INIDE_SLAVE_MON_CTR=21
# arid in s mon : 39064
# m mon rid : f054
# m mon ar id : 9898
# req wid : 32817 , bid:32817
# UVM_INFO ../env/m_agent/axi_base_m_seqs.sv(26) @ 225: uvm_test_top.env_h.m_uvc_h.m_agent_h[0].m_seqr_h@@vseqs_h.m_wseqs_h [IN V SEQS] Got B-channel response from driver
# rd data in s drv: cdcb11b4 , len : 3 , last:0 , valid : 1
# INIDE_SLAVE_MON_CTR=22
# arid in s mon : 62773
# m mon ar id : f535
# m mon rid : f054
# rd data in s drv: e77068cf , len : 3 , last:1 , valid : 1
# abc : 1
# ref model mem : 158
# abc : 2
# ref model mem : 159
# abc : 3
# ref model mem : 160
# abc : 4
# ref model mem : 161
# xyz : 1
# xyz : 2
# xyz : 3
# xyz : 4
# AR ADDR IN SB : 9d
# INIDE_SLAVE_MON_CTR=23
# arid in s mon : 60350
# AFFTER W CHANNEL
# req kind : READ
# INSIDE BEORE SAMPLE
# ---------------------------------------------------
# Name            Type               Size  Value     
# ---------------------------------------------------
# axi_m_seq_item  uvm_sequence_item  -     @1723     
#   AWID          integral           16    'h0       
#   AWADDR        integral           32    'h0       
#   AWLEN         integral           8     'd0       
#   AWSIZE        integral           3     'd0       
#   AWBURST       integral           2     'd0       
#   WID           integral           16    'h0       
#   WDATA         da(integral)       0     -         
#   WSTRB         da(integral)       0     -         
#   WLAST         integral           1     'd0       
#   BID           integral           16    'h0       
#   BRESP         integral           2     'd0       
#   ARID          integral           16    'hf054    
#   ARADDR        integral           32    'hea      
#   ARLEN         integral           8     'd3       
#   ARSIZE        integral           3     'd2       
#   ARBURST       integral           2     'd0       
#   RID           integral           16    'hf054    
#   RDATA         da(integral)       4     -         
#     [0]         integral           32    'h90e40000
#     [1]         integral           32    'h7c5cf680
#     [2]         integral           32    'hcdcb11b4
#     [3]         integral           32    'he77068cf
#   RRESP         integral           2     'd0       
#   RLAST         integral           1     'd0       
#   burst_kind_e  burst_kind         2     FIXED     
#   kind_e        trans_kind         2     READ      
# ---------------------------------------------------
# RDATa IN SB : 2430861312 2086467200 3452637620 3882903759
# m mon rid : f054
# m mon ar id : ebbe
# UVM_INFO ../env/axi_sb.sv(82) @ 245: uvm_test_top.env_h.sb_h [after event in sb] aaaa
# UVM_INFO ../env/axi_sb.sv(80) @ 245: uvm_test_top.env_h.sb_h [before event in sb] aaaa
# match arid : 0 , rid : 0
# UVM_INFO ../env/s_agent/axi_s_drv.sv(31) @ 245: uvm_test_top.env_h.s_uvc_h.s_agent_h[0].s_drv_h [ID MATCH] aaaaa
# s seqs arid : 26459
# INIDE_SLAVE_SEQ_CTR=6
# match arid : 675b , rid : 675b
# UVM_INFO ../env/s_agent/axi_s_drv.sv(31) @ 245: uvm_test_top.env_h.s_uvc_h.s_agent_h[0].s_drv_h [ID MATCH] aaaaa
# rd data in s drv: e692a900 , len : 3 , last:0 , valid : 1
# INIDE_SLAVE_MON_CTR=24
# arid in s mon : 45043
# m mon ar id : aff3
# m mon rid : 675b
# rd data in s drv: 5e5d6ae8 , len : 3 , last:0 , valid : 1
# INIDE_SLAVE_MON_CTR=25
# arid in s mon : 15796
# m mon rid : 675b
# m mon ar id : 3db4
# req wid : 64272 , bid:64272
# UVM_INFO ../env/m_agent/axi_base_m_seqs.sv(26) @ 265: uvm_test_top.env_h.m_uvc_h.m_agent_h[0].m_seqr_h@@vseqs_h.m_wseqs_h [IN V SEQS] Got B-channel response from driver
# rd data in s drv: 2e5cdf84 , len : 3 , last:0 , valid : 1
# INIDE_SLAVE_MON_CTR=26
# arid in s mon : 64427
# m mon ar id : fbab
# m mon rid : 675b
# rd data in s drv: 85dca7b4 , len : 3 , last:1 , valid : 1
# abc : 1
# ref model mem : 135
# abc : 2
# ref model mem : 136
# abc : 3
# ref model mem : 137
# abc : 4
# ref model mem : 138
# xyz : 1
# xyz : 2
# xyz : 3
# xyz : 4
# AR ADDR IN SB : 86
# INIDE_SLAVE_MON_CTR=27
# arid in s mon : 15132
# AFFTER W CHANNEL
# req kind : READ
# INSIDE BEORE SAMPLE
# ---------------------------------------------------
# Name            Type               Size  Value     
# ---------------------------------------------------
# axi_m_seq_item  uvm_sequence_item  -     @1755     
#   AWID          integral           16    'h0       
#   AWADDR        integral           32    'h0       
#   AWLEN         integral           8     'd0       
#   AWSIZE        integral           3     'd0       
#   AWBURST       integral           2     'd0       
#   WID           integral           16    'h0       
#   WDATA         da(integral)       0     -         
#   WSTRB         da(integral)       0     -         
#   WLAST         integral           1     'd0       
#   BID           integral           16    'h0       
#   BRESP         integral           2     'd0       
#   ARID          integral           16    'h675b    
#   ARADDR        integral           32    'h9d      
#   ARLEN         integral           8     'd3       
#   ARSIZE        integral           3     'd2       
#   ARBURST       integral           2     'd0       
#   RID           integral           16    'h675b    
#   RDATA         da(integral)       4     -         
#     [0]         integral           32    'he692a900
#     [1]         integral           32    'h5e5d6ae8
#     [2]         integral           32    'h2e5cdf84
#     [3]         integral           32    'h85dca7b4
#   RRESP         integral           2     'd0       
#   RLAST         integral           1     'd0       
#   burst_kind_e  burst_kind         2     FIXED     
#   kind_e        trans_kind         2     READ      
# ---------------------------------------------------
# RDATa IN SB : 3868371200 1583180520 777838468 2245830580
# m mon rid : 675b
# m mon ar id : 3b1c
# UVM_INFO ../env/axi_sb.sv(82) @ 285: uvm_test_top.env_h.sb_h [after event in sb] aaaa
# UVM_INFO ../env/axi_sb.sv(80) @ 285: uvm_test_top.env_h.sb_h [before event in sb] aaaa
# match arid : 0 , rid : 0
# UVM_INFO ../env/s_agent/axi_s_drv.sv(31) @ 285: uvm_test_top.env_h.s_uvc_h.s_agent_h[0].s_drv_h [ID MATCH] aaaaa
# s seqs arid : 22357
# INIDE_SLAVE_SEQ_CTR=7
# match arid : 5755 , rid : 5755
# UVM_INFO ../env/s_agent/axi_s_drv.sv(31) @ 285: uvm_test_top.env_h.s_uvc_h.s_agent_h[0].s_drv_h [ID MATCH] aaaaa
# rd data in s drv: 2b20000 , len : 3 , last:0 , valid : 1
# INIDE_SLAVE_MON_CTR=28
# arid in s mon : 25003
# m mon ar id : 61ab
# m mon rid : 5755
# rd data in s drv: 372f0987 , len : 3 , last:0 , valid : 1
# INIDE_SLAVE_MON_CTR=29
# arid in s mon : 51408
# m mon rid : 5755
# m mon ar id : c8d0
# req wid : 48097 , bid:48097
# UVM_INFO ../env/m_agent/axi_base_m_seqs.sv(26) @ 305: uvm_test_top.env_h.m_uvc_h.m_agent_h[0].m_seqr_h@@vseqs_h.m_wseqs_h [IN V SEQS] Got B-channel response from driver
# rd data in s drv: 4ab7d9f9 , len : 3 , last:0 , valid : 1
# INIDE_SLAVE_MON_CTR=30
# arid in s mon : 29970
# m mon ar id : 7512
# m mon rid : 5755
# rd data in s drv: 293074ef , len : 3 , last:1 , valid : 1
# abc : 1
# ref model mem : 204
# abc : 2
# ref model mem : 205
# abc : 3
# ref model mem : 206
# abc : 4
# ref model mem : 207
# xyz : 1
# xyz : 2
# xyz : 3
# xyz : 4
# AR ADDR IN SB : cb
# INIDE_SLAVE_MON_CTR=31
# arid in s mon : 11395
# AFFTER W CHANNEL
# req kind : READ
# INSIDE BEORE SAMPLE
# ---------------------------------------------------
# Name            Type               Size  Value     
# ---------------------------------------------------
# axi_m_seq_item  uvm_sequence_item  -     @1803     
#   AWID          integral           16    'h0       
#   AWADDR        integral           32    'h0       
#   AWLEN         integral           8     'd0       
#   AWSIZE        integral           3     'd0       
#   AWBURST       integral           2     'd0       
#   WID           integral           16    'h0       
#   WDATA         da(integral)       0     -         
#   WSTRB         da(integral)       0     -         
#   WLAST         integral           1     'd0       
#   BID           integral           16    'h0       
#   BRESP         integral           2     'd0       
#   ARID          integral           16    'h5755    
#   ARADDR        integral           32    'h86      
#   ARLEN         integral           8     'd3       
#   ARSIZE        integral           3     'd2       
#   ARBURST       integral           2     'd0       
#   RID           integral           16    'h5755    
#   RDATA         da(integral)       4     -         
#     [0]         integral           32    'h2b20000 
#     [1]         integral           32    'h372f0987
#     [2]         integral           32    'h4ab7d9f9
#     [3]         integral           32    'h293074ef
#   RRESP         integral           2     'd0       
#   RLAST         integral           1     'd0       
#   burst_kind_e  burst_kind         2     FIXED     
#   kind_e        trans_kind         2     READ      
# ---------------------------------------------------
# RDATa IN SB : 45219840 925829511 1253562873 691041519
# m mon rid : 5755
# m mon ar id : 2c83
# UVM_INFO ../env/axi_sb.sv(82) @ 325: uvm_test_top.env_h.sb_h [after event in sb] aaaa
# UVM_INFO ../env/axi_sb.sv(80) @ 325: uvm_test_top.env_h.sb_h [before event in sb] aaaa
# match arid : 0 , rid : 0
# UVM_INFO ../env/s_agent/axi_s_drv.sv(31) @ 325: uvm_test_top.env_h.s_uvc_h.s_agent_h[0].s_drv_h [ID MATCH] aaaaa
# s seqs arid : 58966
# INIDE_SLAVE_SEQ_CTR=8
# match arid : e656 , rid : e656
# UVM_INFO ../env/s_agent/axi_s_drv.sv(31) @ 325: uvm_test_top.env_h.s_uvc_h.s_agent_h[0].s_drv_h [ID MATCH] aaaaa
# rd data in s drv: d7000000 , len : 3 , last:0 , valid : 1
# INIDE_SLAVE_MON_CTR=32
# arid in s mon : 43166
# m mon ar id : a89e
# m mon rid : e656
# rd data in s drv: baee7d8 , len : 3 , last:0 , valid : 1
# INIDE_SLAVE_MON_CTR=33
# arid in s mon : 11187
# m mon rid : e656
# m mon ar id : 2bb3
# req wid : 48149 , bid:48149
# UVM_INFO ../env/m_agent/axi_base_m_seqs.sv(26) @ 345: uvm_test_top.env_h.m_uvc_h.m_agent_h[0].m_seqr_h@@vseqs_h.m_wseqs_h [IN V SEQS] Got B-channel response from driver
# rd data in s drv: e174315a , len : 3 , last:0 , valid : 1
# INIDE_SLAVE_MON_CTR=34
# arid in s mon : 5180
# m mon ar id : 143c
# m mon rid : e656
# rd data in s drv: 502c68b6 , len : 3 , last:1 , valid : 1
# abc : 1
# ref model mem : 456
# abc : 2
# ref model mem : 457
# abc : 3
# ref model mem : 458
# abc : 4
# ref model mem : 459
# xyz : 1
# xyz : 2
# xyz : 3
# xyz : 4
# AR ADDR IN SB : 1c7
# INIDE_SLAVE_MON_CTR=35
# arid in s mon : 33047
# AFFTER W CHANNEL
# req kind : READ
# INSIDE BEORE SAMPLE
# ---------------------------------------------------
# Name            Type               Size  Value     
# ---------------------------------------------------
# axi_m_seq_item  uvm_sequence_item  -     @1855     
#   AWID          integral           16    'h0       
#   AWADDR        integral           32    'h0       
#   AWLEN         integral           8     'd0       
#   AWSIZE        integral           3     'd0       
#   AWBURST       integral           2     'd0       
#   WID           integral           16    'h0       
#   WDATA         da(integral)       0     -         
#   WSTRB         da(integral)       0     -         
#   WLAST         integral           1     'd0       
#   BID           integral           16    'h0       
#   BRESP         integral           2     'd0       
#   ARID          integral           16    'he656    
#   ARADDR        integral           32    'hcb      
#   ARLEN         integral           8     'd3       
#   ARSIZE        integral           3     'd2       
#   ARBURST       integral           2     'd0       
#   RID           integral           16    'he656    
#   RDATA         da(integral)       4     -         
#     [0]         integral           32    'hd7000000
#     [1]         integral           32    'hbaee7d8 
#     [2]         integral           32    'he174315a
#     [3]         integral           32    'h502c68b6
#   RRESP         integral           2     'd0       
#   RLAST         integral           1     'd0       
#   burst_kind_e  burst_kind         2     FIXED     
#   kind_e        trans_kind         2     READ      
# ---------------------------------------------------
# RDATa IN SB : 3607101440 196011992 3782488410 1345087670
# m mon rid : e656
# m mon ar id : 8117
# UVM_INFO ../env/axi_sb.sv(82) @ 365: uvm_test_top.env_h.sb_h [after event in sb] aaaa
# UVM_INFO ../env/axi_sb.sv(80) @ 365: uvm_test_top.env_h.sb_h [before event in sb] aaaa
# match arid : 0 , rid : 0
# UVM_INFO ../env/s_agent/axi_s_drv.sv(31) @ 365: uvm_test_top.env_h.s_uvc_h.s_agent_h[0].s_drv_h [ID MATCH] aaaaa
# s seqs arid : 64759
# INIDE_SLAVE_SEQ_CTR=9
# match arid : fcf7 , rid : fcf7
# UVM_INFO ../env/s_agent/axi_s_drv.sv(31) @ 365: uvm_test_top.env_h.s_uvc_h.s_agent_h[0].s_drv_h [ID MATCH] aaaaa
# rd data in s drv: 8a000000 , len : 3 , last:0 , valid : 1
# INIDE_SLAVE_MON_CTR=36
# arid in s mon : 41870
# m mon ar id : a38e
# m mon rid : fcf7
# rd data in s drv: 316470ff , len : 3 , last:0 , valid : 1
# INIDE_SLAVE_MON_CTR=37
# arid in s mon : 14176
# m mon rid : fcf7
# m mon ar id : 3760
# req wid : 23496 , bid:23496
# UVM_INFO ../env/m_agent/axi_base_m_seqs.sv(26) @ 385: uvm_test_top.env_h.m_uvc_h.m_agent_h[0].m_seqr_h@@vseqs_h.m_wseqs_h [IN V SEQS] Got B-channel response from driver
# rd data in s drv: 28dd5745 , len : 3 , last:0 , valid : 1
# INIDE_SLAVE_MON_CTR=38
# arid in s mon : 15499
# xyz : 1
# xyz : 2
# xyz : 3
# ** Warning: (vsim-3829) Non-existent associative array entry. Returning default value.
#    Time: 395 ns  Iteration: 2  Process: /axi_s_agent_pkg::axi_s_mon #(32, 32)::monitor/#FORK#35_7fefec2ac52 File: ../env/axi_ref_model.sv Line: 79
# xyz : 4
# AR ADDR IN SB : cc
# m mon ar id : 3c8b
# m mon rid : fcf7
# ** Warning: (vsim-3829) Non-existent associative array entry. Returning default value.
#    Time: 395 ns  Iteration: 3  Process: /uvm_pkg::uvm_sequence_base::start/#FORK#294_7fefec2a94c File: ../env/s_agent/axi_base_s_seqs.sv Line: 103
# s seqs arid : 15499
# INIDE_SLAVE_SEQ_CTR=10
# match arid : 3c8b , rid : 3c8b
# UVM_INFO ../env/s_agent/axi_s_drv.sv(31) @ 395: uvm_test_top.env_h.s_uvc_h.s_agent_h[0].s_drv_h [ID MATCH] aaaaa
# rd data in s drv: 8092a68c , len : 3 , last:1 , valid : 1
# abc : 1
# ref model mem : 131
# abc : 2
# ref model mem : 132
# abc : 3
# ref model mem : 133
# abc : 4
# ref model mem : 134
# xyz : 1
# xyz : 2
# xyz : 3
# xyz : 4
# AR ADDR IN SB : 82
# INIDE_SLAVE_MON_CTR=39
# arid in s mon : 29379
# AFFTER W CHANNEL
# req kind : READ
# INSIDE BEORE SAMPLE
# ---------------------------------------------------
# Name            Type               Size  Value     
# ---------------------------------------------------
# axi_m_seq_item  uvm_sequence_item  -     @1907     
#   AWID          integral           16    'h0       
#   AWADDR        integral           32    'h0       
#   AWLEN         integral           8     'd0       
#   AWSIZE        integral           3     'd0       
#   AWBURST       integral           2     'd0       
#   WID           integral           16    'h0       
#   WDATA         da(integral)       0     -         
#   WSTRB         da(integral)       0     -         
#   WLAST         integral           1     'd0       
#   BID           integral           16    'h0       
#   BRESP         integral           2     'd0       
#   ARID          integral           16    'hfcf7    
#   ARADDR        integral           32    'h1c7     
#   ARLEN         integral           8     'd3       
#   ARSIZE        integral           3     'd2       
#   ARBURST       integral           2     'd0       
#   RID           integral           16    'hfcf7    
#   RDATA         da(integral)       4     -         
#     [0]         integral           32    'h8a000000
#     [1]         integral           32    'h316470ff
#     [2]         integral           32    'h28dd5745
#     [3]         integral           32    'h8092a68c
#   RRESP         integral           2     'd0       
#   RLAST         integral           1     'd0       
#   burst_kind_e  burst_kind         2     FIXED     
#   kind_e        trans_kind         2     READ      
# ---------------------------------------------------
# RDATa IN SB : 2315255808 828666111 685594437 2157094540
# m mon rid : fcf7
# m mon ar id : 72c3
# UVM_INFO ../env/axi_sb.sv(82) @ 405: uvm_test_top.env_h.sb_h [after event in sb] aaaa
# UVM_INFO ../env/axi_sb.sv(80) @ 405: uvm_test_top.env_h.sb_h [before event in sb] aaaa
# match arid : 0 , rid : 0
# UVM_INFO ../env/s_agent/axi_s_drv.sv(31) @ 405: uvm_test_top.env_h.s_uvc_h.s_agent_h[0].s_drv_h [ID MATCH] aaaaa
# s seqs arid : 43156
# INIDE_SLAVE_SEQ_CTR=11
# match arid : a894 , rid : a894
# UVM_INFO ../env/s_agent/axi_s_drv.sv(31) @ 405: uvm_test_top.env_h.s_uvc_h.s_agent_h[0].s_drv_h [ID MATCH] aaaaa
# rd data in s drv: baee7d8 , len : 3 , last:0 , valid : 1
# INIDE_SLAVE_MON_CTR=40
# arid in s mon : 11568
# m mon ar id : 2d30
# m mon rid : 3c8b
# rd data in s drv: e174315a , len : 3 , last:0 , valid : 1
# INIDE_SLAVE_MON_CTR=41
# arid in s mon : 16179
# m mon rid : 3c8b
# m mon ar id : 3f33
# req wid : 53607 , bid:53607
# UVM_INFO ../env/m_agent/axi_base_m_seqs.sv(26) @ 425: uvm_test_top.env_h.m_uvc_h.m_agent_h[0].m_seqr_h@@vseqs_h.m_wseqs_h [IN V SEQS] Got B-channel response from driver
# rd data in s drv: 502c68b6 , len : 3 , last:0 , valid : 1
# INIDE_SLAVE_MON_CTR=42
# arid in s mon : 60092
# m mon ar id : eabc
# m mon rid : 3c8b
# rd data in s drv: 0 , len : 3 , last:1 , valid : 1
# abc : 1
# ref model mem : 752
# abc : 2
# ref model mem : 753
# abc : 3
# ref model mem : 754
# abc : 4
# ref model mem : 755
# xyz : 1
# xyz : 2
# xyz : 3
# xyz : 4
# AR ADDR IN SB : 2ef
# INIDE_SLAVE_MON_CTR=43
# arid in s mon : 36315
# xyz : 1
# xyz : 2
# ** Warning: (vsim-3829) Non-existent associative array entry. Returning default value.
#    Time: 445 ns  Iteration: 2  Process: /axi_s_agent_pkg::axi_s_mon #(32, 32)::monitor/#FORK#35_7fefec2ac52 File: ../env/axi_ref_model.sv Line: 79
# xyz : 3
# ** Warning: (vsim-3829) Non-existent associative array entry. Returning default value.
#    Time: 445 ns  Iteration: 2  Process: /axi_s_agent_pkg::axi_s_mon #(32, 32)::monitor/#FORK#35_7fefec2ac52 File: ../env/axi_ref_model.sv Line: 79
# xyz : 4
# AR ADDR IN SB : 181
# AFFTER W CHANNEL
# req kind : READ
# INSIDE BEORE SAMPLE
# ---------------------------------------------------
# Name            Type               Size  Value     
# ---------------------------------------------------
# axi_m_seq_item  uvm_sequence_item  -     @5003     
#   AWID          integral           16    'h0       
#   AWADDR        integral           32    'h0       
#   AWLEN         integral           8     'd0       
#   AWSIZE        integral           3     'd0       
#   AWBURST       integral           2     'd0       
#   WID           integral           16    'h0       
#   WDATA         da(integral)       0     -         
#   WSTRB         da(integral)       0     -         
#   WLAST         integral           1     'd0       
#   BID           integral           16    'h0       
#   BRESP         integral           2     'd0       
#   ARID          integral           16    'h3c8b    
#   ARADDR        integral           32    'hcc      
#   ARLEN         integral           8     'd3       
#   ARSIZE        integral           3     'd2       
#   ARBURST       integral           2     'd0       
#   RID           integral           16    'h3c8b    
#   RDATA         da(integral)       4     -         
#     [0]         integral           32    'hbaee7d8 
#     [1]         integral           32    'he174315a
#     [2]         integral           32    'h502c68b6
#     [3]         integral           32    'h0       
#   RRESP         integral           2     'd0       
#   RLAST         integral           1     'd0       
#   burst_kind_e  burst_kind         2     FIXED     
#   kind_e        trans_kind         2     READ      
# ---------------------------------------------------
# RDATa IN SB : 196011992 3782488410 1345087670 0
# m mon rid : 3c8b
# m mon ar id : 8ddb
# UVM_INFO ../env/axi_sb.sv(82) @ 445: uvm_test_top.env_h.sb_h [after event in sb] aaaa
# UVM_INFO ../env/axi_sb.sv(80) @ 445: uvm_test_top.env_h.sb_h [before event in sb] aaaa
# match arid : 0 , rid : 0
# UVM_INFO ../env/s_agent/axi_s_drv.sv(31) @ 445: uvm_test_top.env_h.s_uvc_h.s_agent_h[0].s_drv_h [ID MATCH] aaaaa
# s seqs arid : 52439
# INIDE_SLAVE_SEQ_CTR=12
# match arid : ccd7 , rid : ccd7
# UVM_INFO ../env/s_agent/axi_s_drv.sv(31) @ 445: uvm_test_top.env_h.s_uvc_h.s_agent_h[0].s_drv_h [ID MATCH] aaaaa
# ** Warning: (vsim-3829) Non-existent associative array entry. Returning default value.
#    Time: 445 ns  Iteration: 12  Process: /uvm_pkg::uvm_sequence_base::start/#FORK#294_7fefec2a94c File: ../env/s_agent/axi_base_s_seqs.sv Line: 103
# ** Warning: (vsim-3829) Non-existent associative array entry. Returning default value.
#    Time: 445 ns  Iteration: 12  Process: /uvm_pkg::uvm_sequence_base::start/#FORK#294_7fefec2a94c File: ../env/s_agent/axi_base_s_seqs.sv Line: 103
# s seqs arid : 36315
# INIDE_SLAVE_SEQ_CTR=13
# match arid : 8ddb , rid : 8ddb
# UVM_INFO ../env/s_agent/axi_s_drv.sv(31) @ 445: uvm_test_top.env_h.s_uvc_h.s_agent_h[0].s_drv_h [ID MATCH] aaaaa
# rd data in s drv: b3f50000 , len : 3 , last:0 , valid : 1
# INIDE_SLAVE_MON_CTR=44
# arid in s mon : 5087
# m mon ar id : 13df
# m mon rid : a894
# rd data in s drv: b5c5d03b , len : 3 , last:0 , valid : 1
# INIDE_SLAVE_MON_CTR=45
# arid in s mon : 47476
# m mon rid : a894
# m mon ar id : b974
# req wid : 17367 , bid:17367
# UVM_INFO ../env/m_agent/axi_base_m_seqs.sv(26) @ 465: uvm_test_top.env_h.m_uvc_h.m_agent_h[0].m_seqr_h@@vseqs_h.m_wseqs_h [IN V SEQS] Got B-channel response from driver
# rd data in s drv: 869f0c8e , len : 3 , last:0 , valid : 1
# INIDE_SLAVE_MON_CTR=46
# arid in s mon : 36504
# m mon ar id : 8e98
# m mon rid : a894
# rd data in s drv: af45646f , len : 3 , last:1 , valid : 1
# abc : 1
# ref model mem : 369
# abc : 2
# ref model mem : 370
# abc : 3
# ref model mem : 371
# abc : 4
# ref model mem : 372
# xyz : 1
# xyz : 2
# xyz : 3
# xyz : 4
# AR ADDR IN SB : 170
# xyz : 5
# xyz : 6
# xyz : 7
# xyz : 8
# AR ADDR IN SB : 170
# INIDE_SLAVE_MON_CTR=47
# arid in s mon : 22723
# AFFTER W CHANNEL
# req kind : READ
# INSIDE BEORE SAMPLE
# ---------------------------------------------------
# Name            Type               Size  Value     
# ---------------------------------------------------
# axi_m_seq_item  uvm_sequence_item  -     @1951     
#   AWID          integral           16    'h0       
#   AWADDR        integral           32    'h0       
#   AWLEN         integral           8     'd0       
#   AWSIZE        integral           3     'd0       
#   AWBURST       integral           2     'd0       
#   WID           integral           16    'h0       
#   WDATA         da(integral)       0     -         
#   WSTRB         da(integral)       0     -         
#   WLAST         integral           1     'd0       
#   BID           integral           16    'h0       
#   BRESP         integral           2     'd0       
#   ARID          integral           16    'ha894    
#   ARADDR        integral           32    'h82      
#   ARLEN         integral           8     'd3       
#   ARSIZE        integral           3     'd2       
#   ARBURST       integral           2     'd0       
#   RID           integral           16    'ha894    
#   RDATA         da(integral)       4     -         
#     [0]         integral           32    'hb3f50000
#     [1]         integral           32    'hb5c5d03b
#     [2]         integral           32    'h869f0c8e
#     [3]         integral           32    'haf45646f
#   RRESP         integral           2     'd0       
#   RLAST         integral           1     'd0       
#   burst_kind_e  burst_kind         2     FIXED     
#   kind_e        trans_kind         2     READ      
# ---------------------------------------------------
# RDATa IN SB : 3019177984 3049639995 2258570382 2940560495
# m mon rid : a894
# m mon ar id : 58c3
# UVM_INFO ../env/axi_sb.sv(82) @ 485: uvm_test_top.env_h.sb_h [after event in sb] aaaa
# UVM_INFO ../env/axi_sb.sv(80) @ 485: uvm_test_top.env_h.sb_h [before event in sb] aaaa
# match arid : 0 , rid : 0
# UVM_INFO ../env/s_agent/axi_s_drv.sv(31) @ 485: uvm_test_top.env_h.s_uvc_h.s_agent_h[0].s_drv_h [ID MATCH] aaaaa
# s seqs arid : 4905
# INIDE_SLAVE_SEQ_CTR=14
# match arid : 1329 , rid : 1329
# UVM_INFO ../env/s_agent/axi_s_drv.sv(31) @ 485: uvm_test_top.env_h.s_uvc_h.s_agent_h[0].s_drv_h [ID MATCH] aaaaa
# s seqs arid : 65033
# INIDE_SLAVE_SEQ_CTR=15
# match arid : fe09 , rid : fe09
# UVM_INFO ../env/s_agent/axi_s_drv.sv(31) @ 485: uvm_test_top.env_h.s_uvc_h.s_agent_h[0].s_drv_h [ID MATCH] aaaaa
# rd data in s drv: a1000000 , len : 3 , last:0 , valid : 1
# INIDE_SLAVE_MON_CTR=48
# arid in s mon : 50465
# m mon ar id : c521
# m mon rid : ccd7
# rd data in s drv: 9bd541f3 , len : 3 , last:0 , valid : 1
# INIDE_SLAVE_MON_CTR=49
# arid in s mon : 9563
# m mon rid : ccd7
# m mon ar id : 255b
# req wid : 23008 , bid:23008
# UVM_INFO ../env/m_agent/axi_base_m_seqs.sv(26) @ 505: uvm_test_top.env_h.m_uvc_h.m_agent_h[0].m_seqr_h@@vseqs_h.m_wseqs_h [IN V SEQS] Got B-channel response from driver
# rd data in s drv: eb2a1de0 , len : 3 , last:0 , valid : 1
# INIDE_SLAVE_MON_CTR=50
# arid in s mon : 12754
# m mon ar id : 31d2
# m mon rid : ccd7
# rd data in s drv: b51a296e , len : 3 , last:1 , valid : 1
# abc : 1
# ref model mem : 114
# abc : 2
# ref model mem : 115
# abc : 3
# ref model mem : 116
# abc : 4
# ref model mem : 117
# xyz : 1
# xyz : 2
# xyz : 3
# xyz : 4
# AR ADDR IN SB : 71
# AFFTER W CHANNEL
# req kind : READ
# INSIDE BEORE SAMPLE
# ---------------------------------------------------
# Name            Type               Size  Value     
# ---------------------------------------------------
# axi_m_seq_item  uvm_sequence_item  -     @2011     
#   AWID          integral           16    'h0       
#   AWADDR        integral           32    'h0       
#   AWLEN         integral           8     'd0       
#   AWSIZE        integral           3     'd0       
#   AWBURST       integral           2     'd0       
#   WID           integral           16    'h0       
#   WDATA         da(integral)       0     -         
#   WSTRB         da(integral)       0     -         
#   WLAST         integral           1     'd0       
#   BID           integral           16    'h0       
#   BRESP         integral           2     'd0       
#   ARID          integral           16    'hccd7    
#   ARADDR        integral           32    'h2ef     
#   ARLEN         integral           8     'd3       
#   ARSIZE        integral           3     'd2       
#   ARBURST       integral           2     'd0       
#   RID           integral           16    'hccd7    
#   RDATA         da(integral)       4     -         
#     [0]         integral           32    'ha1000000
#     [1]         integral           32    'h9bd541f3
#     [2]         integral           32    'heb2a1de0
#     [3]         integral           32    'hb51a296e
#   RRESP         integral           2     'd0       
#   RLAST         integral           1     'd0       
#   burst_kind_e  burst_kind         2     FIXED     
#   kind_e        trans_kind         2     READ      
# ---------------------------------------------------
# RDATa IN SB : 2701131776 2614444531 3945405920 3038390638
# m mon rid : ccd7
# UVM_INFO ../env/axi_sb.sv(82) @ 525: uvm_test_top.env_h.sb_h [after event in sb] aaaa
# UVM_INFO ../env/axi_sb.sv(80) @ 525: uvm_test_top.env_h.sb_h [before event in sb] aaaa
# match arid : 0 , rid : 0
# UVM_INFO ../env/s_agent/axi_s_drv.sv(31) @ 525: uvm_test_top.env_h.s_uvc_h.s_agent_h[0].s_drv_h [ID MATCH] aaaaa
# s seqs arid : 35577
# INIDE_SLAVE_SEQ_CTR=16
# match arid : 8af9 , rid : 8af9
# UVM_INFO ../env/s_agent/axi_s_drv.sv(31) @ 525: uvm_test_top.env_h.s_uvc_h.s_agent_h[0].s_drv_h [ID MATCH] aaaaa
# rd data in s drv: 55d992b7 , len : 3 , last:0 , valid : 1
# m mon rid : 8ddb
# rd data in s drv: edb2c52b , len : 3 , last:0 , valid : 1
# m mon rid : 8ddb
# req wid : 32031 , bid:32031
# UVM_INFO ../env/m_agent/axi_base_m_seqs.sv(26) @ 545: uvm_test_top.env_h.m_uvc_h.m_agent_h[0].m_seqr_h@@vseqs_h.m_wseqs_h [IN V SEQS] Got B-channel response from driver
# rd data in s drv: 0 , len : 3 , last:0 , valid : 1
# m mon rid : 8ddb
# rd data in s drv: 0 , len : 3 , last:1 , valid : 1
# abc : 1
# ref model mem : 534
# abc : 2
# ref model mem : 535
# abc : 3
# ref model mem : 536
# abc : 4
# ref model mem : 537
# xyz : 1
# xyz : 2
# xyz : 3
# xyz : 4
# AR ADDR IN SB : 215
# AFFTER W CHANNEL
# req kind : READ
# INSIDE BEORE SAMPLE
# ---------------------------------------------------
# Name            Type               Size  Value     
# ---------------------------------------------------
# axi_m_seq_item  uvm_sequence_item  -     @5815     
#   AWID          integral           16    'h0       
#   AWADDR        integral           32    'h0       
#   AWLEN         integral           8     'd0       
#   AWSIZE        integral           3     'd0       
#   AWBURST       integral           2     'd0       
#   WID           integral           16    'h0       
#   WDATA         da(integral)       0     -         
#   WSTRB         da(integral)       0     -         
#   WLAST         integral           1     'd0       
#   BID           integral           16    'h0       
#   BRESP         integral           2     'd0       
#   ARID          integral           16    'h8ddb    
#   ARADDR        integral           32    'h181     
#   ARLEN         integral           8     'd3       
#   ARSIZE        integral           3     'd2       
#   ARBURST       integral           2     'd0       
#   RID           integral           16    'h8ddb    
#   RDATA         da(integral)       4     -         
#     [0]         integral           32    'h55d992b7
#     [1]         integral           32    'hedb2c52b
#     [2]         integral           32    'h0       
#     [3]         integral           32    'h0       
#   RRESP         integral           2     'd0       
#   RLAST         integral           1     'd0       
#   burst_kind_e  burst_kind         2     FIXED     
#   kind_e        trans_kind         2     READ      
# ---------------------------------------------------
# RDATa IN SB : 1440322231 3987916075 0 0
# m mon rid : 8ddb
# UVM_INFO ../env/axi_sb.sv(82) @ 565: uvm_test_top.env_h.sb_h [after event in sb] aaaa
# UVM_INFO ../env/axi_sb.sv(80) @ 565: uvm_test_top.env_h.sb_h [before event in sb] aaaa
# match arid : 0 , rid : 0
# UVM_INFO ../env/s_agent/axi_s_drv.sv(31) @ 565: uvm_test_top.env_h.s_uvc_h.s_agent_h[0].s_drv_h [ID MATCH] aaaaa
# s seqs arid : 25219
# INIDE_SLAVE_SEQ_CTR=17
# match arid : 6283 , rid : 6283
# UVM_INFO ../env/s_agent/axi_s_drv.sv(31) @ 565: uvm_test_top.env_h.s_uvc_h.s_agent_h[0].s_drv_h [ID MATCH] aaaaa
# rd data in s drv: a93a1366 , len : 3 , last:0 , valid : 1
# m mon rid : 1329
# rd data in s drv: f1c9ee1 , len : 3 , last:0 , valid : 1
# m mon rid : 1329
# req wid : 12673 , bid:12673
# UVM_INFO ../env/m_agent/axi_base_m_seqs.sv(26) @ 585: uvm_test_top.env_h.m_uvc_h.m_agent_h[0].m_seqr_h@@vseqs_h.m_wseqs_h [IN V SEQS] Got B-channel response from driver
# rd data in s drv: b95e5aa2 , len : 3 , last:0 , valid : 1
# m mon rid : 1329
# rd data in s drv: 27a31541 , len : 3 , last:1 , valid : 1
# abc : 1
# ref model mem : 652
# abc : 2
# ref model mem : 653
# abc : 3
# ref model mem : 654
# abc : 4
# ref model mem : 655
# xyz : 1
# xyz : 2
# xyz : 3
# xyz : 4
# AR ADDR IN SB : 28b
# AFFTER W CHANNEL
# req kind : READ
# INSIDE BEORE SAMPLE
# ---------------------------------------------------
# Name            Type               Size  Value     
# ---------------------------------------------------
# axi_m_seq_item  uvm_sequence_item  -     @2087     
#   AWID          integral           16    'h0       
#   AWADDR        integral           32    'h0       
#   AWLEN         integral           8     'd0       
#   AWSIZE        integral           3     'd0       
#   AWBURST       integral           2     'd0       
#   WID           integral           16    'h0       
#   WDATA         da(integral)       0     -         
#   WSTRB         da(integral)       0     -         
#   WLAST         integral           1     'd0       
#   BID           integral           16    'h0       
#   BRESP         integral           2     'd0       
#   ARID          integral           16    'h1329    
#   ARADDR        integral           32    'h170     
#   ARLEN         integral           8     'd3       
#   ARSIZE        integral           3     'd2       
#   ARBURST       integral           2     'd0       
#   RID           integral           16    'h1329    
#   RDATA         da(integral)       4     -         
#     [0]         integral           32    'ha93a1366
#     [1]         integral           32    'hf1c9ee1 
#     [2]         integral           32    'hb95e5aa2
#     [3]         integral           32    'h27a31541
#   RRESP         integral           2     'd0       
#   RLAST         integral           1     'd0       
#   burst_kind_e  burst_kind         2     FIXED     
#   kind_e        trans_kind         2     READ      
# ---------------------------------------------------
# RDATa IN SB : 2839155558 253533921 3109968546 664999233
# m mon rid : 1329
# UVM_INFO ../env/axi_sb.sv(82) @ 605: uvm_test_top.env_h.sb_h [after event in sb] aaaa
# UVM_INFO ../env/axi_sb.sv(80) @ 605: uvm_test_top.env_h.sb_h [before event in sb] aaaa
# match arid : 0 , rid : 0
# UVM_INFO ../env/s_agent/axi_s_drv.sv(31) @ 605: uvm_test_top.env_h.s_uvc_h.s_agent_h[0].s_drv_h [ID MATCH] aaaaa
# s seqs arid : 47995
# INIDE_SLAVE_SEQ_CTR=18
# match arid : bb7b , rid : bb7b
# UVM_INFO ../env/s_agent/axi_s_drv.sv(31) @ 605: uvm_test_top.env_h.s_uvc_h.s_agent_h[0].s_drv_h [ID MATCH] aaaaa
# rd data in s drv: a93a1366 , len : 3 , last:0 , valid : 1
# m mon rid : fe09
# rd data in s drv: f1c9ee1 , len : 3 , last:0 , valid : 1
# m mon rid : fe09
# req wid : 40425 , bid:40425
# UVM_INFO ../env/m_agent/axi_base_m_seqs.sv(26) @ 625: uvm_test_top.env_h.m_uvc_h.m_agent_h[0].m_seqr_h@@vseqs_h.m_wseqs_h [IN V SEQS] Got B-channel response from driver
# rd data in s drv: b95e5aa2 , len : 3 , last:0 , valid : 1
# m mon rid : fe09
# rd data in s drv: 27a31541 , len : 3 , last:1 , valid : 1
# abc : 1
# ref model mem : 771
# abc : 2
# ref model mem : 772
# abc : 3
# ref model mem : 773
# abc : 4
# ref model mem : 774
# xyz : 1
# xyz : 2
# xyz : 3
# xyz : 4
# AR ADDR IN SB : 302
# xyz : 5
# xyz : 6
# ** Warning: (vsim-3829) Non-existent associative array entry. Returning default value.
#    Time: 645 ns  Iteration: 2  Process: /axi_s_agent_pkg::axi_s_mon #(32, 32)::monitor/#FORK#34_7fefec2ac2a File: ../env/axi_ref_model.sv Line: 79
# xyz : 7
# ** Warning: (vsim-3829) Non-existent associative array entry. Returning default value.
#    Time: 645 ns  Iteration: 2  Process: /axi_s_agent_pkg::axi_s_mon #(32, 32)::monitor/#FORK#34_7fefec2ac2a File: ../env/axi_ref_model.sv Line: 79
# xyz : 8
# AR ADDR IN SB : 304
# AFFTER W CHANNEL
# req kind : READ
# INSIDE BEORE SAMPLE
# ---------------------------------------------------
# Name            Type               Size  Value     
# ---------------------------------------------------
# axi_m_seq_item  uvm_sequence_item  -     @2731     
#   AWID          integral           16    'h0       
#   AWADDR        integral           32    'h0       
#   AWLEN         integral           8     'd0       
#   AWSIZE        integral           3     'd0       
#   AWBURST       integral           2     'd0       
#   WID           integral           16    'h0       
#   WDATA         da(integral)       0     -         
#   WSTRB         da(integral)       0     -         
#   WLAST         integral           1     'd0       
#   BID           integral           16    'h0       
#   BRESP         integral           2     'd0       
#   ARID          integral           16    'hfe09    
#   ARADDR        integral           32    'h170     
#   ARLEN         integral           8     'd3       
#   ARSIZE        integral           3     'd2       
#   ARBURST       integral           2     'd0       
#   RID           integral           16    'hfe09    
#   RDATA         da(integral)       4     -         
#     [0]         integral           32    'ha93a1366
#     [1]         integral           32    'hf1c9ee1 
#     [2]         integral           32    'hb95e5aa2
#     [3]         integral           32    'h27a31541
#   RRESP         integral           2     'd0       
#   RLAST         integral           1     'd0       
#   burst_kind_e  burst_kind         2     FIXED     
#   kind_e        trans_kind         2     READ      
# ---------------------------------------------------
# RDATa IN SB : 2839155558 253533921 3109968546 664999233
# m mon rid : fe09
# UVM_INFO ../env/axi_sb.sv(82) @ 645: uvm_test_top.env_h.sb_h [after event in sb] aaaa
# UVM_INFO ../env/axi_sb.sv(80) @ 645: uvm_test_top.env_h.sb_h [before event in sb] aaaa
# match arid : 0 , rid : 0
# UVM_INFO ../env/s_agent/axi_s_drv.sv(31) @ 645: uvm_test_top.env_h.s_uvc_h.s_agent_h[0].s_drv_h [ID MATCH] aaaaa
# s seqs arid : 51276
# INIDE_SLAVE_SEQ_CTR=19
# match arid : c84c , rid : c84c
# UVM_INFO ../env/s_agent/axi_s_drv.sv(31) @ 645: uvm_test_top.env_h.s_uvc_h.s_agent_h[0].s_drv_h [ID MATCH] aaaaa
# ** Warning: (vsim-3829) Non-existent associative array entry. Returning default value.
#    Time: 645 ns  Iteration: 12  Process: /uvm_pkg::uvm_sequence_base::start/#FORK#294_7fefec2a94c File: ../env/s_agent/axi_base_s_seqs.sv Line: 103
# ** Warning: (vsim-3829) Non-existent associative array entry. Returning default value.
#    Time: 645 ns  Iteration: 12  Process: /uvm_pkg::uvm_sequence_base::start/#FORK#294_7fefec2a94c File: ../env/s_agent/axi_base_s_seqs.sv Line: 103
# s seqs arid : 14176
# INIDE_SLAVE_SEQ_CTR=20
# match arid : 3760 , rid : 3760
# UVM_INFO ../env/s_agent/axi_s_drv.sv(31) @ 645: uvm_test_top.env_h.s_uvc_h.s_agent_h[0].s_drv_h [ID MATCH] aaaaa
# rd data in s drv: 67135d00 , len : 3 , last:0 , valid : 1
# m mon rid : 8af9
# rd data in s drv: 63ae97a9 , len : 3 , last:0 , valid : 1
# m mon rid : 8af9
# req wid : 34571 , bid:34571
# UVM_INFO ../env/m_agent/axi_base_m_seqs.sv(26) @ 665: uvm_test_top.env_h.m_uvc_h.m_agent_h[0].m_seqr_h@@vseqs_h.m_wseqs_h [IN V SEQS] Got B-channel response from driver
# rd data in s drv: 1bda4650 , len : 3 , last:0 , valid : 1
# m mon rid : 8af9
# rd data in s drv: 22dc21c3 , len : 3 , last:1 , valid : 1
# abc : 1
# ref model mem : 508
# abc : 2
# ref model mem : 509
# abc : 3
# ref model mem : 510
# abc : 4
# ref model mem : 511
# xyz : 1
# xyz : 2
# xyz : 3
# xyz : 4
# AR ADDR IN SB : 1fb
# AFFTER W CHANNEL
# req kind : READ
# INSIDE BEORE SAMPLE
# ---------------------------------------------------
# Name            Type               Size  Value     
# ---------------------------------------------------
# axi_m_seq_item  uvm_sequence_item  -     @2151     
#   AWID          integral           16    'h0       
#   AWADDR        integral           32    'h0       
#   AWLEN         integral           8     'd0       
#   AWSIZE        integral           3     'd0       
#   AWBURST       integral           2     'd0       
#   WID           integral           16    'h0       
#   WDATA         da(integral)       0     -         
#   WSTRB         da(integral)       0     -         
#   WLAST         integral           1     'd0       
#   BID           integral           16    'h0       
#   BRESP         integral           2     'd0       
#   ARID          integral           16    'h8af9    
#   ARADDR        integral           32    'h71      
#   ARLEN         integral           8     'd3       
#   ARSIZE        integral           3     'd2       
#   ARBURST       integral           2     'd0       
#   RID           integral           16    'h8af9    
#   RDATA         da(integral)       4     -         
#     [0]         integral           32    'h67135d00
#     [1]         integral           32    'h63ae97a9
#     [2]         integral           32    'h1bda4650
#     [3]         integral           32    'h22dc21c3
#   RRESP         integral           2     'd0       
#   RLAST         integral           1     'd0       
#   burst_kind_e  burst_kind         2     FIXED     
#   kind_e        trans_kind         2     READ      
# ---------------------------------------------------
# RDATa IN SB : 1729322240 1672386473 467289680 584851907
# m mon rid : 8af9
# UVM_INFO ../env/axi_sb.sv(82) @ 685: uvm_test_top.env_h.sb_h [after event in sb] aaaa
# UVM_INFO ../env/axi_sb.sv(80) @ 685: uvm_test_top.env_h.sb_h [before event in sb] aaaa
# match arid : 0 , rid : 0
# UVM_INFO ../env/s_agent/axi_s_drv.sv(31) @ 685: uvm_test_top.env_h.s_uvc_h.s_agent_h[0].s_drv_h [ID MATCH] aaaaa
# s seqs arid : 44353
# INIDE_SLAVE_SEQ_CTR=21
# match arid : ad41 , rid : ad41
# UVM_INFO ../env/s_agent/axi_s_drv.sv(31) @ 685: uvm_test_top.env_h.s_uvc_h.s_agent_h[0].s_drv_h [ID MATCH] aaaaa
# rd data in s drv: 1caf3200 , len : 3 , last:0 , valid : 1
# m mon rid : 6283
# rd data in s drv: 62b68558 , len : 3 , last:0 , valid : 1
# m mon rid : 6283
# req wid : 3557 , bid:3557
# UVM_INFO ../env/m_agent/axi_base_m_seqs.sv(26) @ 705: uvm_test_top.env_h.m_uvc_h.m_agent_h[0].m_seqr_h@@vseqs_h.m_wseqs_h [IN V SEQS] Got B-channel response from driver
# rd data in s drv: 346f872e , len : 3 , last:0 , valid : 1
# m mon rid : 6283
# rd data in s drv: 5172b9cc , len : 3 , last:1 , valid : 1
# abc : 1
# ref model mem : 499
# abc : 2
# ref model mem : 500
# abc : 3
# ref model mem : 501
# abc : 4
# ref model mem : 502
# xyz : 1
# xyz : 2
# xyz : 3
# xyz : 4
# AR ADDR IN SB : 1f2
# AFFTER W CHANNEL
# req kind : READ
# INSIDE BEORE SAMPLE
# ---------------------------------------------------
# Name            Type               Size  Value     
# ---------------------------------------------------
# axi_m_seq_item  uvm_sequence_item  -     @2207     
#   AWID          integral           16    'h0       
#   AWADDR        integral           32    'h0       
#   AWLEN         integral           8     'd0       
#   AWSIZE        integral           3     'd0       
#   AWBURST       integral           2     'd0       
#   WID           integral           16    'h0       
#   WDATA         da(integral)       0     -         
#   WSTRB         da(integral)       0     -         
#   WLAST         integral           1     'd0       
#   BID           integral           16    'h0       
#   BRESP         integral           2     'd0       
#   ARID          integral           16    'h6283    
#   ARADDR        integral           32    'h215     
#   ARLEN         integral           8     'd3       
#   ARSIZE        integral           3     'd2       
#   ARBURST       integral           2     'd0       
#   RID           integral           16    'h6283    
#   RDATA         da(integral)       4     -         
#     [0]         integral           32    'h1caf3200
#     [1]         integral           32    'h62b68558
#     [2]         integral           32    'h346f872e
#     [3]         integral           32    'h5172b9cc
#   RRESP         integral           2     'd0       
#   RLAST         integral           1     'd0       
#   burst_kind_e  burst_kind         2     FIXED     
#   kind_e        trans_kind         2     READ      
# ---------------------------------------------------
# RDATa IN SB : 481243648 1656128856 879724334 1366473164
# m mon rid : 6283
# UVM_INFO ../env/axi_sb.sv(82) @ 725: uvm_test_top.env_h.sb_h [after event in sb] aaaa
# UVM_INFO ../env/axi_sb.sv(80) @ 725: uvm_test_top.env_h.sb_h [before event in sb] aaaa
# match arid : 0 , rid : 0
# UVM_INFO ../env/s_agent/axi_s_drv.sv(31) @ 725: uvm_test_top.env_h.s_uvc_h.s_agent_h[0].s_drv_h [ID MATCH] aaaaa
# s seqs arid : 34273
# INIDE_SLAVE_SEQ_CTR=22
# match arid : 85e1 , rid : 85e1
# UVM_INFO ../env/s_agent/axi_s_drv.sv(31) @ 725: uvm_test_top.env_h.s_uvc_h.s_agent_h[0].s_drv_h [ID MATCH] aaaaa
# rd data in s drv: 9e000000 , len : 3 , last:0 , valid : 1
# m mon rid : bb7b
# rd data in s drv: 29347435 , len : 3 , last:0 , valid : 1
# m mon rid : bb7b
# req wid : 13717 , bid:13717
# UVM_INFO ../env/m_agent/axi_base_m_seqs.sv(26) @ 745: uvm_test_top.env_h.m_uvc_h.m_agent_h[0].m_seqr_h@@vseqs_h.m_wseqs_h [IN V SEQS] Got B-channel response from driver
# rd data in s drv: 43b9fe37 , len : 3 , last:0 , valid : 1
# m mon rid : bb7b
# rd data in s drv: 3be473 , len : 3 , last:1 , valid : 1
# abc : 1
# ref model mem : 710
# abc : 2
# ref model mem : 711
# abc : 3
# ref model mem : 712
# abc : 4
# ref model mem : 713
# xyz : 1
# xyz : 2
# xyz : 3
# xyz : 4
# AR ADDR IN SB : 2c5
# AFFTER W CHANNEL
# req kind : READ
# INSIDE BEORE SAMPLE
# ---------------------------------------------------
# Name            Type               Size  Value     
# ---------------------------------------------------
# axi_m_seq_item  uvm_sequence_item  -     @2279     
#   AWID          integral           16    'h0       
#   AWADDR        integral           32    'h0       
#   AWLEN         integral           8     'd0       
#   AWSIZE        integral           3     'd0       
#   AWBURST       integral           2     'd0       
#   WID           integral           16    'h0       
#   WDATA         da(integral)       0     -         
#   WSTRB         da(integral)       0     -         
#   WLAST         integral           1     'd0       
#   BID           integral           16    'h0       
#   BRESP         integral           2     'd0       
#   ARID          integral           16    'hbb7b    
#   ARADDR        integral           32    'h28b     
#   ARLEN         integral           8     'd3       
#   ARSIZE        integral           3     'd2       
#   ARBURST       integral           2     'd0       
#   RID           integral           16    'hbb7b    
#   RDATA         da(integral)       4     -         
#     [0]         integral           32    'h9e000000
#     [1]         integral           32    'h29347435
#     [2]         integral           32    'h43b9fe37
#     [3]         integral           32    'h3be473  
#   RRESP         integral           2     'd0       
#   RLAST         integral           1     'd0       
#   burst_kind_e  burst_kind         2     FIXED     
#   kind_e        trans_kind         2     READ      
# ---------------------------------------------------
# RDATa IN SB : 2650800128 691303477 1136262711 3925107
# m mon rid : bb7b
# UVM_INFO ../env/axi_sb.sv(82) @ 765: uvm_test_top.env_h.sb_h [after event in sb] aaaa
# UVM_INFO ../env/axi_sb.sv(80) @ 765: uvm_test_top.env_h.sb_h [before event in sb] aaaa
# match arid : 0 , rid : 0
# UVM_INFO ../env/s_agent/axi_s_drv.sv(31) @ 765: uvm_test_top.env_h.s_uvc_h.s_agent_h[0].s_drv_h [ID MATCH] aaaaa
# s seqs arid : 40878
# INIDE_SLAVE_SEQ_CTR=23
# match arid : 9fae , rid : 9fae
# UVM_INFO ../env/s_agent/axi_s_drv.sv(31) @ 765: uvm_test_top.env_h.s_uvc_h.s_agent_h[0].s_drv_h [ID MATCH] aaaaa
# rd data in s drv: 8fa30000 , len : 3 , last:0 , valid : 1
# m mon rid : c84c
# rd data in s drv: 167e33ce , len : 3 , last:0 , valid : 1
# m mon rid : c84c
# req wid : 8568 , bid:8568
# UVM_INFO ../env/m_agent/axi_base_m_seqs.sv(26) @ 785: uvm_test_top.env_h.m_uvc_h.m_agent_h[0].m_seqr_h@@vseqs_h.m_wseqs_h [IN V SEQS] Got B-channel response from driver
# rd data in s drv: c98d86f4 , len : 3 , last:0 , valid : 1
# m mon rid : c84c
# rd data in s drv: 2e2e080d , len : 3 , last:1 , valid : 1
# abc : 1
# ref model mem : 369
# abc : 2
# ref model mem : 370
# abc : 3
# ref model mem : 371
# abc : 4
# ref model mem : 372
# AFFTER W CHANNEL
# req kind : READ
# INSIDE BEORE SAMPLE
# ---------------------------------------------------
# Name            Type               Size  Value     
# ---------------------------------------------------
# axi_m_seq_item  uvm_sequence_item  -     @2379     
#   AWID          integral           16    'h0       
#   AWADDR        integral           32    'h0       
#   AWLEN         integral           8     'd0       
#   AWSIZE        integral           3     'd0       
#   AWBURST       integral           2     'd0       
#   WID           integral           16    'h0       
#   WDATA         da(integral)       0     -         
#   WSTRB         da(integral)       0     -         
#   WLAST         integral           1     'd0       
#   BID           integral           16    'h0       
#   BRESP         integral           2     'd0       
#   ARID          integral           16    'hc84c    
#   ARADDR        integral           32    'h302     
#   ARLEN         integral           8     'd3       
#   ARSIZE        integral           3     'd2       
#   ARBURST       integral           2     'd0       
#   RID           integral           16    'hc84c    
#   RDATA         da(integral)       4     -         
#     [0]         integral           32    'h8fa30000
#     [1]         integral           32    'h167e33ce
#     [2]         integral           32    'hc98d86f4
#     [3]         integral           32    'h2e2e080d
#   RRESP         integral           2     'd0       
#   RLAST         integral           1     'd0       
#   burst_kind_e  burst_kind         2     FIXED     
#   kind_e        trans_kind         2     READ      
# ---------------------------------------------------
# RDATa IN SB : 2409824256 377369550 3381495540 774768653
# m mon rid : c84c
# UVM_INFO ../env/axi_sb.sv(82) @ 805: uvm_test_top.env_h.sb_h [after event in sb] aaaa
# UVM_INFO ../env/axi_sb.sv(80) @ 805: uvm_test_top.env_h.sb_h [before event in sb] aaaa
# match arid : 0 , rid : 0
# UVM_INFO ../env/s_agent/axi_s_drv.sv(31) @ 805: uvm_test_top.env_h.s_uvc_h.s_agent_h[0].s_drv_h [ID MATCH] aaaaa
# rd data in s drv: c98d86f4 , len : 3 , last:0 , valid : 1
# m mon rid : 3760
# rd data in s drv: 2e2e080d , len : 3 , last:0 , valid : 1
# m mon rid : 3760
# req wid : 44422 , bid:44422
# UVM_INFO ../env/m_agent/axi_base_m_seqs.sv(26) @ 825: uvm_test_top.env_h.m_uvc_h.m_agent_h[0].m_seqr_h@@vseqs_h.m_wseqs_h [IN V SEQS] Got B-channel response from driver
# rd data in s drv: 0 , len : 3 , last:0 , valid : 1
# m mon rid : 3760
# rd data in s drv: 0 , len : 3 , last:1 , valid : 1
# abc : 1
# ref model mem : 22
# abc : 2
# ref model mem : 23
# abc : 3
# ref model mem : 24
# abc : 4
# ref model mem : 25
# xyz : 1
# xyz : 2
# xyz : 3
# xyz : 4
# AR ADDR IN SB : 15
# AFFTER W CHANNEL
# req kind : READ
# INSIDE BEORE SAMPLE
# ---------------------------------------------------
# Name            Type               Size  Value     
# ---------------------------------------------------
# axi_m_seq_item  uvm_sequence_item  -     @4875     
#   AWID          integral           16    'h0       
#   AWADDR        integral           32    'h0       
#   AWLEN         integral           8     'd0       
#   AWSIZE        integral           3     'd0       
#   AWBURST       integral           2     'd0       
#   WID           integral           16    'h0       
#   WDATA         da(integral)       0     -         
#   WSTRB         da(integral)       0     -         
#   WLAST         integral           1     'd0       
#   BID           integral           16    'h0       
#   BRESP         integral           2     'd0       
#   ARID          integral           16    'h3760    
#   ARADDR        integral           32    'h304     
#   ARLEN         integral           8     'd3       
#   ARSIZE        integral           3     'd2       
#   ARBURST       integral           2     'd0       
#   RID           integral           16    'h3760    
#   RDATA         da(integral)       4     -         
#     [0]         integral           32    'hc98d86f4
#     [1]         integral           32    'h2e2e080d
#     [2]         integral           32    'h0       
#     [3]         integral           32    'h0       
#   RRESP         integral           2     'd0       
#   RLAST         integral           1     'd0       
#   burst_kind_e  burst_kind         2     FIXED     
#   kind_e        trans_kind         2     READ      
# ---------------------------------------------------
# RDATa IN SB : 3381495540 774768653 0 0
# m mon rid : 3760
# UVM_INFO ../env/axi_sb.sv(82) @ 845: uvm_test_top.env_h.sb_h [after event in sb] aaaa
# UVM_INFO ../env/axi_sb.sv(80) @ 845: uvm_test_top.env_h.sb_h [before event in sb] aaaa
# match arid : 0 , rid : 0
# UVM_INFO ../env/s_agent/axi_s_drv.sv(31) @ 845: uvm_test_top.env_h.s_uvc_h.s_agent_h[0].s_drv_h [ID MATCH] aaaaa
# s seqs arid : 39064
# INIDE_SLAVE_SEQ_CTR=24
# match arid : 9898 , rid : 9898
# UVM_INFO ../env/s_agent/axi_s_drv.sv(31) @ 845: uvm_test_top.env_h.s_uvc_h.s_agent_h[0].s_drv_h [ID MATCH] aaaaa
# rd data in s drv: f8000000 , len : 3 , last:0 , valid : 1
# m mon rid : ad41
# rd data in s drv: c2374bc8 , len : 3 , last:0 , valid : 1
# m mon rid : ad41
# req wid : 65129 , bid:65129
# UVM_INFO ../env/m_agent/axi_base_m_seqs.sv(26) @ 865: uvm_test_top.env_h.m_uvc_h.m_agent_h[0].m_seqr_h@@vseqs_h.m_wseqs_h [IN V SEQS] Got B-channel response from driver
# rd data in s drv: 38d4c252 , len : 3 , last:0 , valid : 1
# m mon rid : ad41
# rd data in s drv: d10bfa61 , len : 3 , last:1 , valid : 1
# abc : 1
# ref model mem : 87
# abc : 2
# ref model mem : 88
# abc : 3
# ref model mem : 89
# abc : 4
# ref model mem : 90
# xyz : 1
# xyz : 2
# xyz : 3
# xyz : 4
# AR ADDR IN SB : 56
# AFFTER W CHANNEL
# req kind : READ
# INSIDE BEORE SAMPLE
# ---------------------------------------------------
# Name            Type               Size  Value     
# ---------------------------------------------------
# axi_m_seq_item  uvm_sequence_item  -     @2455     
#   AWID          integral           16    'h0       
#   AWADDR        integral           32    'h0       
#   AWLEN         integral           8     'd0       
#   AWSIZE        integral           3     'd0       
#   AWBURST       integral           2     'd0       
#   WID           integral           16    'h0       
#   WDATA         da(integral)       0     -         
#   WSTRB         da(integral)       0     -         
#   WLAST         integral           1     'd0       
#   BID           integral           16    'h0       
#   BRESP         integral           2     'd0       
#   ARID          integral           16    'had41    
#   ARADDR        integral           32    'h1fb     
#   ARLEN         integral           8     'd3       
#   ARSIZE        integral           3     'd2       
#   ARBURST       integral           2     'd0       
#   RID           integral           16    'had41    
#   RDATA         da(integral)       4     -         
#     [0]         integral           32    'hf8000000
#     [1]         integral           32    'hc2374bc8
#     [2]         integral           32    'h38d4c252
#     [3]         integral           32    'hd10bfa61
#   RRESP         integral           2     'd0       
#   RLAST         integral           1     'd0       
#   burst_kind_e  burst_kind         2     FIXED     
#   kind_e        trans_kind         2     READ      
# ---------------------------------------------------
# RDATa IN SB : 4160749568 3258403784 953467474 3507223137
# m mon rid : ad41
# UVM_INFO ../env/axi_sb.sv(82) @ 885: uvm_test_top.env_h.sb_h [after event in sb] aaaa
# UVM_INFO ../env/axi_sb.sv(80) @ 885: uvm_test_top.env_h.sb_h [before event in sb] aaaa
# match arid : 0 , rid : 0
# UVM_INFO ../env/s_agent/axi_s_drv.sv(31) @ 885: uvm_test_top.env_h.s_uvc_h.s_agent_h[0].s_drv_h [ID MATCH] aaaaa
# s seqs arid : 62773
# INIDE_SLAVE_SEQ_CTR=25
# match arid : f535 , rid : f535
# UVM_INFO ../env/s_agent/axi_s_drv.sv(31) @ 885: uvm_test_top.env_h.s_uvc_h.s_agent_h[0].s_drv_h [ID MATCH] aaaaa
# rd data in s drv: 194e0000 , len : 3 , last:0 , valid : 1
# m mon rid : 85e1
# rd data in s drv: 55ae3a3a , len : 3 , last:0 , valid : 1
# m mon rid : 85e1
# req wid : 6012 , bid:6012
# UVM_INFO ../env/m_agent/axi_base_m_seqs.sv(26) @ 905: uvm_test_top.env_h.m_uvc_h.m_agent_h[0].m_seqr_h@@vseqs_h.m_wseqs_h [IN V SEQS] Got B-channel response from driver
# rd data in s drv: 98339ceb , len : 3 , last:0 , valid : 1
# m mon rid : 85e1
# rd data in s drv: 2bbfbc60 , len : 3 , last:1 , valid : 1
# abc : 1
# ref model mem : 297
# abc : 2
# ref model mem : 298
# abc : 3
# ref model mem : 299
# abc : 4
# ref model mem : 300
# xyz : 1
# xyz : 2
# xyz : 3
# xyz : 4
# AR ADDR IN SB : 128
# AFFTER W CHANNEL
# req kind : READ
# INSIDE BEORE SAMPLE
# ---------------------------------------------------
# Name            Type               Size  Value     
# ---------------------------------------------------
# axi_m_seq_item  uvm_sequence_item  -     @2523     
#   AWID          integral           16    'h0       
#   AWADDR        integral           32    'h0       
#   AWLEN         integral           8     'd0       
#   AWSIZE        integral           3     'd0       
#   AWBURST       integral           2     'd0       
#   WID           integral           16    'h0       
#   WDATA         da(integral)       0     -         
#   WSTRB         da(integral)       0     -         
#   WLAST         integral           1     'd0       
#   BID           integral           16    'h0       
#   BRESP         integral           2     'd0       
#   ARID          integral           16    'h85e1    
#   ARADDR        integral           32    'h1f2     
#   ARLEN         integral           8     'd3       
#   ARSIZE        integral           3     'd2       
#   ARBURST       integral           2     'd0       
#   RID           integral           16    'h85e1    
#   RDATA         da(integral)       4     -         
#     [0]         integral           32    'h194e0000
#     [1]         integral           32    'h55ae3a3a
#     [2]         integral           32    'h98339ceb
#     [3]         integral           32    'h2bbfbc60
#   RRESP         integral           2     'd0       
#   RLAST         integral           1     'd0       
#   burst_kind_e  burst_kind         2     FIXED     
#   kind_e        trans_kind         2     READ      
# ---------------------------------------------------
# RDATa IN SB : 424542208 1437481530 2553519339 733985888
# m mon rid : 85e1
# UVM_INFO ../env/axi_sb.sv(82) @ 925: uvm_test_top.env_h.sb_h [after event in sb] aaaa
# UVM_INFO ../env/axi_sb.sv(80) @ 925: uvm_test_top.env_h.sb_h [before event in sb] aaaa
# match arid : 0 , rid : 0
# UVM_INFO ../env/s_agent/axi_s_drv.sv(31) @ 925: uvm_test_top.env_h.s_uvc_h.s_agent_h[0].s_drv_h [ID MATCH] aaaaa
# s seqs arid : 60350
# INIDE_SLAVE_SEQ_CTR=26
# match arid : ebbe , rid : ebbe
# UVM_INFO ../env/s_agent/axi_s_drv.sv(31) @ 925: uvm_test_top.env_h.s_uvc_h.s_agent_h[0].s_drv_h [ID MATCH] aaaaa
# rd data in s drv: efe6ee00 , len : 3 , last:0 , valid : 1
# m mon rid : 9fae
# rd data in s drv: 83d11aa2 , len : 3 , last:0 , valid : 1
# m mon rid : 9fae
# req wid : 26141 , bid:26141
# UVM_INFO ../env/m_agent/axi_base_m_seqs.sv(26) @ 945: uvm_test_top.env_h.m_uvc_h.m_agent_h[0].m_seqr_h@@vseqs_h.m_wseqs_h [IN V SEQS] Got B-channel response from driver
# rd data in s drv: 489eab56 , len : 3 , last:0 , valid : 1
# m mon rid : 9fae
# rd data in s drv: e3dafdae , len : 3 , last:1 , valid : 1
# abc : 1
# ref model mem : 917
# abc : 2
# ref model mem : 918
# abc : 3
# ref model mem : 919
# abc : 4
# ref model mem : 920
# xyz : 1
# xyz : 2
# xyz : 3
# xyz : 4
# AR ADDR IN SB : 394
# AFFTER W CHANNEL
# req kind : READ
# INSIDE BEORE SAMPLE
# ---------------------------------------------------
# Name            Type               Size  Value     
# ---------------------------------------------------
# axi_m_seq_item  uvm_sequence_item  -     @2607     
#   AWID          integral           16    'h0       
#   AWADDR        integral           32    'h0       
#   AWLEN         integral           8     'd0       
#   AWSIZE        integral           3     'd0       
#   AWBURST       integral           2     'd0       
#   WID           integral           16    'h0       
#   WDATA         da(integral)       0     -         
#   WSTRB         da(integral)       0     -         
#   WLAST         integral           1     'd0       
#   BID           integral           16    'h0       
#   BRESP         integral           2     'd0       
#   ARID          integral           16    'h9fae    
#   ARADDR        integral           32    'h2c5     
#   ARLEN         integral           8     'd3       
#   ARSIZE        integral           3     'd2       
#   ARBURST       integral           2     'd0       
#   RID           integral           16    'h9fae    
#   RDATA         da(integral)       4     -         
#     [0]         integral           32    'hefe6ee00
#     [1]         integral           32    'h83d11aa2
#     [2]         integral           32    'h489eab56
#     [3]         integral           32    'he3dafdae
#   RRESP         integral           2     'd0       
#   RLAST         integral           1     'd0       
#   burst_kind_e  burst_kind         2     FIXED     
#   kind_e        trans_kind         2     READ      
# ---------------------------------------------------
# RDATa IN SB : 4024888832 2211519138 1218358102 3822779822
# m mon rid : 9fae
# UVM_INFO ../env/axi_sb.sv(82) @ 965: uvm_test_top.env_h.sb_h [after event in sb] aaaa
# UVM_INFO ../env/axi_sb.sv(80) @ 965: uvm_test_top.env_h.sb_h [before event in sb] aaaa
# match arid : 0 , rid : 0
# UVM_INFO ../env/s_agent/axi_s_drv.sv(31) @ 965: uvm_test_top.env_h.s_uvc_h.s_agent_h[0].s_drv_h [ID MATCH] aaaaa
# s seqs arid : 45043
# INIDE_SLAVE_SEQ_CTR=27
# match arid : aff3 , rid : aff3
# UVM_INFO ../env/s_agent/axi_s_drv.sv(31) @ 965: uvm_test_top.env_h.s_uvc_h.s_agent_h[0].s_drv_h [ID MATCH] aaaaa
# rd data in s drv: d48e2600 , len : 3 , last:0 , valid : 1
# m mon rid : 9898
# rd data in s drv: 8fdf6496 , len : 3 , last:0 , valid : 1
# m mon rid : 9898
# req wid : 59295 , bid:59295
# UVM_INFO ../env/m_agent/axi_base_m_seqs.sv(26) @ 985: uvm_test_top.env_h.m_uvc_h.m_agent_h[0].m_seqr_h@@vseqs_h.m_wseqs_h [IN V SEQS] Got B-channel response from driver
# rd data in s drv: 948f84bc , len : 3 , last:0 , valid : 1
# m mon rid : 9898
# rd data in s drv: d1fa8698 , len : 3 , last:1 , valid : 1
# abc : 1
# ref model mem : 764
# abc : 2
# ref model mem : 765
# abc : 3
# ref model mem : 766
# abc : 4
# ref model mem : 767
# xyz : 1
# xyz : 2
# xyz : 3
# xyz : 4
# AR ADDR IN SB : 2fb
# AFFTER W CHANNEL
# req kind : READ
# INSIDE BEORE SAMPLE
# ---------------------------------------------------
# Name            Type               Size  Value     
# ---------------------------------------------------
# axi_m_seq_item  uvm_sequence_item  -     @2819     
#   AWID          integral           16    'h0       
#   AWADDR        integral           32    'h0       
#   AWLEN         integral           8     'd0       
#   AWSIZE        integral           3     'd0       
#   AWBURST       integral           2     'd0       
#   WID           integral           16    'h0       
#   WDATA         da(integral)       0     -         
#   WSTRB         da(integral)       0     -         
#   WLAST         integral           1     'd0       
#   BID           integral           16    'h0       
#   BRESP         integral           2     'd0       
#   ARID          integral           16    'h9898    
#   ARADDR        integral           32    'h15      
#   ARLEN         integral           8     'd3       
#   ARSIZE        integral           3     'd2       
#   ARBURST       integral           2     'd0       
#   RID           integral           16    'h9898    
#   RDATA         da(integral)       4     -         
#     [0]         integral           32    'hd48e2600
#     [1]         integral           32    'h8fdf6496
#     [2]         integral           32    'h948f84bc
#     [3]         integral           32    'hd1fa8698
#   RRESP         integral           2     'd0       
#   RLAST         integral           1     'd0       
#   burst_kind_e  burst_kind         2     FIXED     
#   kind_e        trans_kind         2     READ      
# ---------------------------------------------------
# RDATa IN SB : 3566085632 2413782166 2492433596 3522856600
# m mon rid : 9898
# UVM_INFO ../env/axi_sb.sv(82) @ 1005: uvm_test_top.env_h.sb_h [after event in sb] aaaa
# UVM_INFO ../env/axi_sb.sv(80) @ 1005: uvm_test_top.env_h.sb_h [before event in sb] aaaa
# match arid : 0 , rid : 0
# UVM_INFO ../env/s_agent/axi_s_drv.sv(31) @ 1005: uvm_test_top.env_h.s_uvc_h.s_agent_h[0].s_drv_h [ID MATCH] aaaaa
# s seqs arid : 15796
# INIDE_SLAVE_SEQ_CTR=28
# match arid : 3db4 , rid : 3db4
# UVM_INFO ../env/s_agent/axi_s_drv.sv(31) @ 1005: uvm_test_top.env_h.s_uvc_h.s_agent_h[0].s_drv_h [ID MATCH] aaaaa
# rd data in s drv: 8e20000 , len : 3 , last:0 , valid : 1
# m mon rid : f535
# rd data in s drv: e2de1c47 , len : 3 , last:0 , valid : 1
# m mon rid : f535
# req wid : 23954 , bid:23954
# UVM_INFO ../env/m_agent/axi_base_m_seqs.sv(26) @ 1025: uvm_test_top.env_h.m_uvc_h.m_agent_h[0].m_seqr_h@@vseqs_h.m_wseqs_h [IN V SEQS] Got B-channel response from driver
# rd data in s drv: db900cc0 , len : 3 , last:0 , valid : 1
# m mon rid : f535
# rd data in s drv: 50435ffc , len : 3 , last:1 , valid : 1
# abc : 1
# ref model mem : 583
# abc : 2
# ref model mem : 584
# abc : 3
# ref model mem : 585
# abc : 4
# ref model mem : 586
# xyz : 1
# xyz : 2
# xyz : 3
# xyz : 4
# AR ADDR IN SB : 246
# AFFTER W CHANNEL
# req kind : READ
# INSIDE BEORE SAMPLE
# ---------------------------------------------------
# Name            Type               Size  Value     
# ---------------------------------------------------
# axi_m_seq_item  uvm_sequence_item  -     @2899     
#   AWID          integral           16    'h0       
#   AWADDR        integral           32    'h0       
#   AWLEN         integral           8     'd0       
#   AWSIZE        integral           3     'd0       
#   AWBURST       integral           2     'd0       
#   WID           integral           16    'h0       
#   WDATA         da(integral)       0     -         
#   WSTRB         da(integral)       0     -         
#   WLAST         integral           1     'd0       
#   BID           integral           16    'h0       
#   BRESP         integral           2     'd0       
#   ARID          integral           16    'hf535    
#   ARADDR        integral           32    'h56      
#   ARLEN         integral           8     'd3       
#   ARSIZE        integral           3     'd2       
#   ARBURST       integral           2     'd0       
#   RID           integral           16    'hf535    
#   RDATA         da(integral)       4     -         
#     [0]         integral           32    'h8e20000 
#     [1]         integral           32    'he2de1c47
#     [2]         integral           32    'hdb900cc0
#     [3]         integral           32    'h50435ffc
#   RRESP         integral           2     'd0       
#   RLAST         integral           1     'd0       
#   burst_kind_e  burst_kind         2     FIXED     
#   kind_e        trans_kind         2     READ      
# ---------------------------------------------------
# RDATa IN SB : 149028864 3806207047 3683650752 1346592764
# m mon rid : f535
