# vsim -coverage -voptargs="+acc" axi_tb_top -c -do "coverage save -onexit -directive -cvg -codeall axi_fixed_test.ucdb; run -all; exit" "+UVM_TESTNAME=axi_fixed_test" -l axi_fixed_test.log 
# Start time: 16:22:45 on May 06,2026
# ** Note: (vsim-8009) Loading existing optimized design _opt2
# //  Questa Sim-64
# //  Version 2023.4 linux_x86_64 Oct  9 2023
# //
# //  Copyright 1991-2023 Mentor Graphics Corporation
# //  All Rights Reserved.
# //
# //  QuestaSim and its associated documentation contain trade
# //  secrets and commercial or financial information that are the property of
# //  Mentor Graphics Corporation and are privileged, confidential,
# //  and exempt from disclosure under the Freedom of Information Act,
# //  5 U.S.C. Section 552. Furthermore, this information
# //  is prohibited from disclosure under the Trade Secrets Act,
# //  18 U.S.C. Section 1905.
# //
# Loading sv_std.std
# Loading work.axi_s_inf(fast)
# Loading work.axi_m_inf(fast)
# Loading mtiUvm.uvm_pkg(fast)
# Loading work.axi_s_agent_pkg(fast)
# Loading work.axi_m_agent_pkg(fast)
# Loading work.axi_env_pkg(fast)
# Loading work.axi_test_pkg(fast)
# Loading mtiUvm.questa_uvm_pkg(fast)
# Loading work.axi_tb_top(fast)
# Loading work.axi_m_inf(fast__2)
# Loading work.axi_s_inf(fast__2)
# ** Warning: (vsim-8441) Clocking block output s_vif.s_drv_cb.RDATA is not legal in this
# or another expression.
#    Time: 0 ns  Iteration: 0  Region: /axi_s_agent_pkg::axi_s_drv #(32, 32) File: ../env/s_agent/axi_s_drv.sv Line: 113
# ** Warning: (vsim-8441) Clocking block output s_vif.s_drv_cb.RVALID is not legal in this
# or another expression.
#    Time: 0 ns  Iteration: 0  Region: /axi_s_agent_pkg::axi_s_drv #(32, 32) File: ../env/s_agent/axi_s_drv.sv Line: 115
# ** Warning: (vsim-8441) Clocking block output s_vif.s_drv_cb.RLAST is not legal in this
# or another expression.
#    Time: 0 ns  Iteration: 0  Region: /axi_s_agent_pkg::axi_s_drv #(32, 32) File: ../env/s_agent/axi_s_drv.sv Line: 116
# ** Warning: (vsim-8441) Clocking block output s_vif.s_drv_cb.RDATA is not legal in this
# or another expression.
#    Time: 0 ns  Iteration: 0  Region: /axi_s_agent_pkg::axi_s_drv #(32, 32) File: ../env/s_agent/axi_s_drv.sv Line: 113
# ** Warning: (vsim-8441) Clocking block output s_vif.s_drv_cb.RLAST is not legal in this
# or another expression.
#    Time: 0 ns  Iteration: 0  Region: /axi_s_agent_pkg::axi_s_drv #(32, 32) File: ../env/s_agent/axi_s_drv.sv Line: 116
# ** Warning: (vsim-8441) Clocking block output s_vif.s_drv_cb.RVALID is not legal in this
# or another expression.
#    Time: 0 ns  Iteration: 0  Region: /axi_s_agent_pkg::axi_s_drv #(32, 32) File: ../env/s_agent/axi_s_drv.sv Line: 115
# ** Warning: (vsim-8441) Clocking block output s_vif.s_drv_cb.RVALID is not legal in this
# or another expression.
#    Time: 0 ns  Iteration: 0  Region: /axi_s_agent_pkg::axi_s_drv #(32, 32) File: ../env/s_agent/axi_s_drv.sv Line: 115
# ** Warning: (vsim-8441) Clocking block output s_vif.s_drv_cb.RLAST is not legal in this
# or another expression.
#    Time: 0 ns  Iteration: 0  Region: /axi_s_agent_pkg::axi_s_drv #(32, 32) File: ../env/s_agent/axi_s_drv.sv Line: 116
# ** Warning: (vsim-8441) Clocking block output m_vif.m_drv_cb.WID is not legal in this
# or another expression.
#    Time: 0 ns  Iteration: 0  Region: /axi_m_agent_pkg::axi_m_drv #(32, 32) File: ../env/m_agent/axi_m_drv.sv Line: 96
# ** Warning: (vsim-8441) Clocking block output m_vif.m_drv_cb.WID is not legal in this
# or another expression.
#    Time: 0 ns  Iteration: 0  Region: /axi_m_agent_pkg::axi_m_drv #(32, 32) File: ../env/m_agent/axi_m_drv.sv Line: 96
# ** Warning: (vsim-8441) Clocking block output m_vif.m_drv_cb.WLAST is not legal in this
# or another expression.
#    Time: 0 ns  Iteration: 0  Region: /axi_m_agent_pkg::axi_m_drv #(32, 32) File: ../env/m_agent/axi_m_drv.sv Line: 101
# ** Warning: (vsim-8441) Clocking block output m_vif.m_drv_cb.WLAST is not legal in this
# or another expression.
#    Time: 0 ns  Iteration: 0  Region: /axi_m_agent_pkg::axi_m_drv #(32, 32) File: ../env/m_agent/axi_m_drv.sv Line: 101
# ** Warning: (vsim-8441) Clocking block output m_vif.m_drv_cb.WLAST is not legal in this
# or another expression.
#    Time: 0 ns  Iteration: 0  Region: /axi_m_agent_pkg::axi_m_drv #(32, 32) File: ../env/m_agent/axi_m_drv.sv Line: 101
# ** Warning: (vsim-8441) Clocking block output m_vif.m_drv_cb.WLAST is not legal in this
# or another expression.
#    Time: 0 ns  Iteration: 0  Region: /axi_m_agent_pkg::axi_m_drv #(32, 32) File: ../env/m_agent/axi_m_drv.sv Line: 101
# Loading /tools/mentor/questa/2023.4/questasim/uvm-1.1d/linux_x86_64/uvm_dpi.so
# coverage save -onexit -directive -cvg -codeall axi_fixed_test.ucdb
#  run -all
# ----------------------------------------------------------------
# UVM-1.1d
# (C) 2007-2013 Mentor Graphics Corporation
# (C) 2007-2013 Cadence Design Systems, Inc.
# (C) 2006-2013 Synopsys, Inc.
# (C) 2011-2013 Cypress Semiconductor Corp.
# ----------------------------------------------------------------
# 
#   ***********       IMPORTANT RELEASE NOTES         ************
# 
#   You are using a version of the UVM library that has been compiled
#   with `UVM_NO_DEPRECATED undefined.
#   See http://www.eda.org/svdb/view.php?id=3313 for more details.
# 
#   You are using a version of the UVM library that has been compiled
#   with `UVM_OBJECT_MUST_HAVE_CONSTRUCTOR undefined.
#   See http://www.eda.org/svdb/view.php?id=3770 for more details.
# 
#       (Specify +UVM_NO_RELNOTES to turn off this notice)
# 
# UVM_INFO verilog_src/questa_uvm_pkg-1.2/src/questa_uvm_pkg.sv(277) @ 0: reporter [Questa UVM] QUESTA_UVM-1.2.3
# UVM_INFO verilog_src/questa_uvm_pkg-1.2/src/questa_uvm_pkg.sv(278) @ 0: reporter [Questa UVM]  questa_uvm::init(+struct)
# UVM_INFO @ 0: reporter [RNTST] Running test axi_fixed_test...
# ** Warning: (vsim-8474) A higher value '8' is found in bin 'single_byte' of Coverpoint 'cp_wstrb'. It is invalid and will be ignored.
#    Time: 0 ns  Iteration: 7  Process: /uvm_pkg::uvm_phase::m_run_phases/#FORK#1847_7fefec463f4 File: ../env/axi_coverage.sv Line: 56
# ** Warning: (vsim-8474) A higher value '12' is found in bin 'single_byte' of Coverpoint 'cp_wstrb'. It is invalid and will be ignored.
#    Time: 0 ns  Iteration: 7  Process: /uvm_pkg::uvm_phase::m_run_phases/#FORK#1847_7fefec463f4 File: ../env/axi_coverage.sv Line: 56
# ** Warning: (vsim-8474) A higher value '14' is found in bin 'single_byte' of Coverpoint 'cp_wstrb'. It is invalid and will be ignored.
#    Time: 0 ns  Iteration: 7  Process: /uvm_pkg::uvm_phase::m_run_phases/#FORK#1847_7fefec463f4 File: ../env/axi_coverage.sv Line: 56
# ** Warning: (vsim-8549) After dropping the illegal, ignore or invalid values, the values list associated with scalar bin 'single_byte' in Coverpoint 'cp_wstrb' of Covergroup instance '\/axi_env_pkg::axi_coverage::write_cov ' has converged to empty list. The bin will be taken out of coverage calculation.
#    Time: 0 ns  Iteration: 7  Region: /uvm_pkg::uvm_phase::m_run_phases
# ** Warning: (vsim-8474) A higher value '15' is found in bin 'all_bytes' of Coverpoint 'cp_wstrb'. It is invalid and will be ignored.
#    Time: 0 ns  Iteration: 7  Process: /uvm_pkg::uvm_phase::m_run_phases/#FORK#1847_7fefec463f4 File: ../env/axi_coverage.sv Line: 57
# ** Warning: (vsim-8549) After dropping the illegal, ignore or invalid values, the values list associated with scalar bin 'all_bytes' in Coverpoint 'cp_wstrb' of Covergroup instance '\/axi_env_pkg::axi_coverage::write_cov ' has converged to empty list. The bin will be taken out of coverage calculation.
#    Time: 0 ns  Iteration: 7  Region: /uvm_pkg::uvm_phase::m_run_phases
# UVM_INFO ../env/s_agent/axi_s_seqr.sv(25) @ 0: uvm_test_top.env_h.s_uvc_h.s_agent_h[0].s_seqr_h [Data in s seqr] Data got in slave seqr
# UVM_INFO @ 0: reporter [UVMTOP] UVM testbench topology:
# --------------------------------------------------------------------------------
# Name                             Type                                Size  Value
# --------------------------------------------------------------------------------
# uvm_test_top                     axi_fixed_test                      -     @479 
#   env_h                          axi_env                             -     @491 
#     m_uvc_h                      uvm_agent                           -     @513 
#       m_agent_h[0]               uvm_agent                           -     @693 
#         m_drv_h                  uvm_driver #(REQ,RSP)               -     @814 
#           rsp_port               uvm_analysis_port                   -     @829 
#           seq_item_port          uvm_seq_item_pull_port              -     @821 
#         m_mon_h                  axi_m_mon#(ADDR_WIDTH, DATA_WIDTH)  -     @837 
#           s_port                 uvm_analysis_port                   -     @844 
#         m_seqr_h                 uvm_sequencer                       -     @705 
#           rsp_export             uvm_analysis_export                 -     @712 
#           seq_item_export        uvm_seq_item_pull_imp               -     @806 
#           arbitration_queue      array                               0     -    
#           lock_queue             array                               0     -    
#           num_last_reqs          integral                            32    'd1  
#           num_last_rsps          integral                            32    'd1  
#     ref_model_h                  axi_ref_model                       -     @558 
#       mon_imp                    uvm_analysis_imp                    -     @565 
#       sb_imp                     uvm_analysis_port                   -     @573 
#     s_uvc_h                      uvm_agent                           -     @520 
#       s_agent_h[0]               uvm_agent                           -     @860 
#         s_drv_h                  uvm_driver #(REQ,RSP)               -     @1036
#           rsp_port               uvm_analysis_port                   -     @1051
#           seq_item_port          uvm_seq_item_pull_port              -     @1043
#         s_mon_h                  axi_s_mon#(ADDR_WIDTH, DATA_WIDTH)  -     @1059
#           s_port                 uvm_analysis_port                   -     @1066
#         s_seqr_h                 uvm_sequencer                       -     @872 
#           item_collected_export  uvm_analysis_export                 -     @981 
#           item_req_fifo          uvm_tlm_analysis_fifo #(T)          -     @989 
#             analysis_export      uvm_analysis_imp                    -     @1028
#             get_ap               uvm_analysis_port                   -     @1020
#             get_peek_export      uvm_get_peek_imp                    -     @1004
#             put_ap               uvm_analysis_port                   -     @1012
#             put_export           uvm_put_imp                         -     @996 
#           rsp_export             uvm_analysis_export                 -     @879 
#           seq_item_export        uvm_seq_item_pull_imp               -     @973 
#           arbitration_queue      array                               0     -    
#           lock_queue             array                               0     -    
#           num_last_reqs          integral                            32    'd1  
#           num_last_rsps          integral                            32    'd1  
#     sb_h                         axi_sb                              -     @527 
#       anl_imp_m                  uvm_analysis_imp_m                  -     @534 
#       anl_imp_ref                uvm_analysis_imp_ref                -     @542 
#     vseqr_h                      axi_virtual_seqr                    -     @581 
#       rsp_export                 uvm_analysis_export                 -     @588 
#       seq_item_export            uvm_seq_item_pull_imp               -     @682 
#       arbitration_queue          array                               0     -    
#       lock_queue                 array                               0     -    
#       num_last_reqs              integral                            32    'd1  
#       num_last_rsps              integral                            32    'd1  
# --------------------------------------------------------------------------------
# 
# UVM_INFO ../env/axi_sb.sv(65) @ 0: uvm_test_top.env_h.sb_h [before event in sb] aaaa
# UVM_INFO ../env/m_agent/axi_m_mon.sv(29) @ 0: uvm_test_top.env_h.m_uvc_h.m_agent_h[0].m_mon_h [M MON RUN PHASE before] Inside master mon run phase
# UVM_INFO ../env/m_agent/axi_m_mon.sv(36) @ 0: uvm_test_top.env_h.m_uvc_h.m_agent_h[0].m_mon_h [M MON run PHASE after] Inside master mon
# UVM_INFO ../env/m_agent/axi_m_mon.sv(41) @ 0: uvm_test_top.env_h.m_uvc_h.m_agent_h[0].m_mon_h [M MON write addr PHASE before] Inside master mon
# UVM_INFO ../env/m_agent/axi_m_mon.sv(61) @ 0: uvm_test_top.env_h.m_uvc_h.m_agent_h[0].m_mon_h [M MON write data PHASE before] Inside master mon
# UVM_INFO ../env/m_agent/axi_m_mon.sv(86) @ 0: uvm_test_top.env_h.m_uvc_h.m_agent_h[0].m_mon_h [M MON read addr PHASE before] Inside master mon
# UVM_INFO ../env/m_agent/axi_m_mon.sv(108) @ 0: uvm_test_top.env_h.m_uvc_h.m_agent_h[0].m_mon_h [M MON read data PHASE before] Inside master mon
# Before AW CHANNEL
# Before W CHANNEL
# Before AR CHANNEL
# Before R CHANNEL
# AWLEN IN M DRV:3
# cnt : 1
# AWLEN IN M DRV:7
# cnt : 2
# AWLEN IN M DRV:3
# cnt : 3
# AWLEN IN M DRV:13
# cnt : 4
# AWLEN IN M DRV:3
# cnt : 5
# AWLEN IN M DRV:8
# cnt : 6
# AWLEN IN M DRV:3
# cnt : 7
# AWLEN IN M DRV:1
# cnt : 8
# AWLEN IN M DRV:3
# cnt : 9
# AWLEN IN M DRV:7
# cnt : 10
# AWLEN IN M DRV:3
# cnt : 11
# AWLEN IN M DRV:0
# cnt : 12
# AWLEN IN M DRV:3
# cnt : 13
# AWLEN IN M DRV:0
# cnt : 14
# AWLEN IN M DRV:3
# cnt : 15
# AWLEN IN M DRV:9
# cnt : 16
# AWLEN IN M DRV:3
# cnt : 17
# AWLEN IN M DRV:9
# cnt : 18
# AWLEN IN M DRV:3
# cnt : 19
# AWLEN IN M DRV:0
# cnt : 20
# AWLEN IN M DRV:3
# cnt : 21
# AWLEN IN M DRV:3
# cnt : 22
# AWLEN IN M DRV:3
# cnt : 23
# AWLEN IN M DRV:10
# cnt : 24
# AWLEN IN M DRV:3
# cnt : 25
# AWLEN IN M DRV:14
# cnt : 26
# AWLEN IN M DRV:3
# cnt : 27
# AWLEN IN M DRV:0
# cnt : 28
# AWLEN IN M DRV:3
# cnt : 29
# AWLEN IN M DRV:14
# cnt : 30
# AWLEN IN M DRV:3
# cnt : 31
# AWLEN IN M DRV:4
# cnt : 32
# AWLEN IN M DRV:3
# cnt : 33
# AWLEN IN M DRV:3
# cnt : 34
# AWLEN IN M DRV:3
# cnt : 35
# AWLEN IN M DRV:6
# cnt : 36
# AWLEN IN M DRV:3
# cnt : 37
# AWLEN IN M DRV:8
# cnt : 38
# AWLEN IN M DRV:3
# cnt : 39
# AWLEN IN M DRV:9
# cnt : 40
# AWLEN IN M DRV:3
# cnt : 41
# AWLEN IN M DRV:3
# cnt : 42
# AWLEN IN M DRV:3
# cnt : 43
# AWLEN IN M DRV:1
# cnt : 44
# AWLEN IN M DRV:3
# cnt : 45
# AWLEN IN M DRV:6
# cnt : 46
# AWLEN IN M DRV:3
# cnt : 47
# AWLEN IN M DRV:3
# cnt : 48
# AWLEN IN M DRV:3
# cnt : 49
# AWLEN IN M DRV:7
# cnt : 50
# AWLEN IN M DRV:3
# cnt : 51
# AWLEN IN M DRV:1
# cnt : 52
# AWLEN IN M DRV:3
# cnt : 53
# AWLEN IN M DRV:4
# cnt : 54
# AWLEN IN M DRV:3
# cnt : 55
# AWLEN IN M DRV:3
# cnt : 56
# AWLEN IN M DRV:3
# cnt : 57
# AWLEN IN M DRV:5
# cnt : 58
# AWLEN IN M DRV:3
# cnt : 59
# AWLEN IN M DRV:7
# cnt : 60
# AWLEN IN M DRV:3
# cnt : 61
# AWLEN IN M DRV:3
# cnt : 62
# AWLEN IN M DRV:3
# cnt : 63
# AWLEN IN M DRV:0
# cnt : 64
# AWLEN IN M DRV:3
# cnt : 65
# AWLEN IN M DRV:1
# cnt : 66
# AWLEN IN M DRV:3
# cnt : 67
# AWLEN IN M DRV:6
# cnt : 68
# AWLEN IN M DRV:3
# cnt : 69
# AWLEN IN M DRV:4
# cnt : 70
# AWLEN IN M DRV:3
# cnt : 71
# AWLEN IN M DRV:13
# cnt : 72
# AWLEN IN M DRV:3
# cnt : 73
# AWLEN IN M DRV:4
# cnt : 74
# AWLEN IN M DRV:3
# cnt : 75
# AWLEN IN M DRV:12
# cnt : 76
# AWLEN IN M DRV:3
# cnt : 77
# AWLEN IN M DRV:11
# cnt : 78
# AWLEN IN M DRV:3
# cnt : 79
# AWLEN IN M DRV:7
# cnt : 80
# AWLEN IN M DRV:3
# cnt : 81
# AWLEN IN M DRV:11
# cnt : 82
# AWLEN IN M DRV:3
# cnt : 83
# AWLEN IN M DRV:14
# cnt : 84
# AWLEN IN M DRV:3
# cnt : 85
# AWLEN IN M DRV:5
# cnt : 86
# AWLEN IN M DRV:3
# cnt : 87
# AWLEN IN M DRV:8
# cnt : 88
# AWLEN IN M DRV:3
# cnt : 89
# AWLEN IN M DRV:0
# cnt : 90
# AWLEN IN M DRV:3
# cnt : 91
# AWLEN IN M DRV:6
# cnt : 92
# AWLEN IN M DRV:3
# cnt : 93
# AWLEN IN M DRV:15
# cnt : 94
# AWLEN IN M DRV:3
# cnt : 95
# AWLEN IN M DRV:8
# cnt : 96
# AWLEN IN M DRV:3
# cnt : 97
# AWLEN IN M DRV:4
# cnt : 98
# AWLEN IN M DRV:3
# cnt : 99
# AWLEN IN M DRV:3
# cnt : 100
# WID: 48469 , AWID : 48469
# burst in s mon : 0
# awid in s mon : bd55 , awaddr : 17f
#                   15wlast : 0
# WID: 48469 , AWID : 48469
# burst in s mon : 0
# awid in s mon : bf1c , awaddr : 2a8
# INIDE_SLAVE_MON_CTR=1
# arid in s mon : 60203
#                   25wlast : 0
# WID: 48469 , AWID : 48469
# m mon ar id : eb2b
# INIDE_SLAVE_MON_CTR=2
# arid in s mon : 59707
# burst in s mon : 0
# awid in s mon : 2b53 , awaddr : 386
#                   35wlast : 0
# WID: 48469 , AWID : 48469
# m mon ar id : e93b
# abc : 1
# ref model mem : 384
# abc : 2
# ref model mem : 385
# abc : 3
# ref model mem : 386
# abc : 4
# ref model mem : 387
# xyz : 1
# xyz : 2
# xyz : 3
# xyz : 4
# burst in s mon : 0
# awid in s mon : a632 , awaddr : dc
# INIDE_SLAVE_MON_CTR=3
# arid in s mon : 59859
#                   45wlast : 1
# AFFTER W CHANNEL
# WID: 48924 , AWID : 48924
# req kind_e : WRITE
# m mon ar id : e9d3
# match arid : 0 , rid : 0
# UVM_INFO ../env/s_agent/axi_s_drv.sv(31) @ 45: uvm_test_top.env_h.s_uvc_h.s_agent_h[0].s_drv_h [ID MATCH] aaaaa
# s seqs arid : 60203
# INIDE_SLAVE_SEQ_CTR=1
# match arid : eb2b , rid : eb2b
# UVM_INFO ../env/s_agent/axi_s_drv.sv(31) @ 45: uvm_test_top.env_h.s_uvc_h.s_agent_h[0].s_drv_h [ID MATCH] aaaaa
# rd data in s drv: e1000000 , len : 3 , last:0 , valid : 1
# INIDE_SLAVE_MON_CTR=4
# arid in s mon : 10426
# burst in s mon : 0
# awid in s mon : 8031 , awaddr : ea
#                   55wlast : 0
# WID: 48924 , AWID : 48924
# m mon ar id : 28ba
# m mon rid : eb2b
# rd data in s drv: 5ade4b3 , len : 3 , last:0 , valid : 1
# burst in s mon : 0
# awid in s mon : fb10 , awaddr : 9d
# INIDE_SLAVE_MON_CTR=5
# arid in s mon : 61524
#                   65wlast : 0
# WID: 48924 , AWID : 48924
# m mon rid : eb2b
# m mon ar id : f054
# UVM_INFO ../env/m_agent/axi_base_m_seqs.sv(26) @ 65: uvm_test_top.env_h.m_uvc_h.m_agent_h[0].m_seqr_h@@vseqs_h.m_wseqs_h [IN V SEQS] Got B-channel response from driver
# rd data in s drv: 55d992b7 , len : 3 , last:0 , valid : 1
# INIDE_SLAVE_MON_CTR=6
# arid in s mon : 26459
# burst in s mon : 0
# awid in s mon : bbe1 , awaddr : 86
#                   75wlast : 0
# WID: 48924 , AWID : 48924
# m mon ar id : 675b
# m mon rid : eb2b
# rd data in s drv: edb2c52b , len : 3 , last:1 , valid : 1
# abc : 1
# ref model mem : 681
# abc : 2
# ref model mem : 682
# abc : 3
# ref model mem : 683
# abc : 4
# ref model mem : 684
# xyz : 1
# xyz : 2
# xyz : 3
# xyz : 4
# burst in s mon : 0
# awid in s mon : bc15 , awaddr : cb
# INIDE_SLAVE_MON_CTR=7
# arid in s mon : 22357
#                   85wlast : 1
# AFFTER W CHANNEL
# WID: 11091 , AWID : 11091
# req kind : READ
# m mon rid : eb2b
# req kind_e : WRITE
# m mon ar id : 5755
# UVM_INFO ../env/axi_sb.sv(67) @ 85: uvm_test_top.env_h.sb_h [after event in sb] aaaa
# UVM_INFO ../env/axi_sb.sv(65) @ 85: uvm_test_top.env_h.sb_h [before event in sb] aaaa
# match arid : 0 , rid : 0
# UVM_INFO ../env/s_agent/axi_s_drv.sv(31) @ 85: uvm_test_top.env_h.s_uvc_h.s_agent_h[0].s_drv_h [ID MATCH] aaaaa
# s seqs arid : 59707
# INIDE_SLAVE_SEQ_CTR=2
# match arid : e93b , rid : e93b
# UVM_INFO ../env/s_agent/axi_s_drv.sv(31) @ 85: uvm_test_top.env_h.s_uvc_h.s_agent_h[0].s_drv_h [ID MATCH] aaaaa
# rd data in s drv: 766d2096 , len : 3 , last:0 , valid : 1
# INIDE_SLAVE_MON_CTR=8
# arid in s mon : 58966
# burst in s mon : 0
# awid in s mon : 5bc8 , awaddr : 1c7
#                   95wlast : 0
# WID: 11091 , AWID : 11091
# m mon ar id : e656
# m mon rid : e93b
# rd data in s drv: c6d5f5ef , len : 3 , last:0 , valid : 1
# burst in s mon : 0
# awid in s mon : d167 , awaddr : 82
# INIDE_SLAVE_MON_CTR=9
# arid in s mon : 64759
#                  105wlast : 0
# WID: 11091 , AWID : 11091
# m mon rid : e93b
# m mon ar id : fcf7
# UVM_INFO ../env/m_agent/axi_base_m_seqs.sv(26) @ 105: uvm_test_top.env_h.m_uvc_h.m_agent_h[0].m_seqr_h@@vseqs_h.m_wseqs_h [IN V SEQS] Got B-channel response from driver
# rd data in s drv: b8665e42 , len : 3 , last:0 , valid : 1
# INIDE_SLAVE_MON_CTR=10
# arid in s mon : 43156
# burst in s mon : 0
# awid in s mon : 43d7 , awaddr : 2ef
#                  115wlast : 0
# WID: 11091 , AWID : 11091
# m mon ar id : a894
# m mon rid : e93b
# rd data in s drv: eaba05fa , len : 3 , last:1 , valid : 1
# abc : 1
# ref model mem : 903
# abc : 2
# ref model mem : 904
# abc : 3
# ref model mem : 905
# abc : 4
# ref model mem : 906
# xyz : 1
# xyz : 2
# xyz : 3
# xyz : 4
# burst in s mon : 0
# awid in s mon : 59e0 , awaddr : 170
# INIDE_SLAVE_MON_CTR=11
# arid in s mon : 52439
#                  125wlast : 1
# AFFTER W CHANNEL
# WID: 42546 , AWID : 42546
# req kind : READ
# m mon rid : e93b
# req kind_e : WRITE
# m mon ar id : ccd7
# UVM_INFO ../env/axi_sb.sv(67) @ 125: uvm_test_top.env_h.sb_h [after event in sb] aaaa
# UVM_INFO ../env/axi_sb.sv(65) @ 125: uvm_test_top.env_h.sb_h [before event in sb] aaaa
# match arid : 0 , rid : 0
# UVM_INFO ../env/s_agent/axi_s_drv.sv(31) @ 125: uvm_test_top.env_h.s_uvc_h.s_agent_h[0].s_drv_h [ID MATCH] aaaaa
# s seqs arid : 59859
# INIDE_SLAVE_SEQ_CTR=3
# match arid : e9d3 , rid : e9d3
# UVM_INFO ../env/s_agent/axi_s_drv.sv(31) @ 125: uvm_test_top.env_h.s_uvc_h.s_agent_h[0].s_drv_h [ID MATCH] aaaaa
# rd data in s drv: 45420000 , len : 3 , last:0 , valid : 1
# INIDE_SLAVE_MON_CTR=12
# arid in s mon : 4905
# burst in s mon : 0
# awid in s mon : 7d1f , awaddr : 71
#                  135wlast : 0
# WID: 42546 , AWID : 42546
# m mon ar id : 1329
# m mon rid : e9d3
# rd data in s drv: 3b27ee47 , len : 3 , last:0 , valid : 1
# burst in s mon : 0
# awid in s mon : 3181 , awaddr : 215
# INIDE_SLAVE_MON_CTR=13
# arid in s mon : 35577
#                  145wlast : 0
# WID: 42546 , AWID : 42546
# m mon rid : e9d3
# m mon ar id : 8af9
# UVM_INFO ../env/m_agent/axi_base_m_seqs.sv(26) @ 145: uvm_test_top.env_h.m_uvc_h.m_agent_h[0].m_seqr_h@@vseqs_h.m_wseqs_h [IN V SEQS] Got B-channel response from driver
# rd data in s drv: 549c6744 , len : 3 , last:0 , valid : 1
# INIDE_SLAVE_MON_CTR=14
# arid in s mon : 25219
# burst in s mon : 0
# awid in s mon : 9de9 , awaddr : 28b
#                  155wlast : 0
# WID: 42546 , AWID : 42546
# m mon ar id : 6283
# m mon rid : e9d3
# rd data in s drv: 1bc5235 , len : 3 , last:1 , valid : 1
# abc : 1
# ref model mem : 221
# abc : 2
# ref model mem : 222
# abc : 3
# ref model mem : 223
# abc : 4
# ref model mem : 224
# xyz : 1
# xyz : 2
# xyz : 3
# xyz : 4
# burst in s mon : 0
# awid in s mon : 870b , awaddr : 302
# INIDE_SLAVE_MON_CTR=15
# arid in s mon : 47995
#                  165wlast : 1
# AFFTER W CHANNEL
# WID: 32817 , AWID : 32817
# req kind : READ
# m mon rid : e9d3
# req kind_e : WRITE
# m mon ar id : bb7b
# UVM_INFO ../env/axi_sb.sv(67) @ 165: uvm_test_top.env_h.sb_h [after event in sb] aaaa
# UVM_INFO ../env/axi_sb.sv(65) @ 165: uvm_test_top.env_h.sb_h [before event in sb] aaaa
# match arid : 0 , rid : 0
# UVM_INFO ../env/s_agent/axi_s_drv.sv(31) @ 165: uvm_test_top.env_h.s_uvc_h.s_agent_h[0].s_drv_h [ID MATCH] aaaaa
# s seqs arid : 10426
# INIDE_SLAVE_SEQ_CTR=4
# match arid : 28ba , rid : 28ba
# UVM_INFO ../env/s_agent/axi_s_drv.sv(31) @ 165: uvm_test_top.env_h.s_uvc_h.s_agent_h[0].s_drv_h [ID MATCH] aaaaa
# rd data in s drv: 7ef31ad8 , len : 3 , last:0 , valid : 1
# INIDE_SLAVE_MON_CTR=16
# arid in s mon : 51276
# burst in s mon : 0
# awid in s mon : de5 , awaddr : 1fb
#                  175wlast : 0
# WID: 32817 , AWID : 32817
# m mon ar id : c84c
# m mon rid : 28ba
# rd data in s drv: 400041b1 , len : 3 , last:0 , valid : 1
# burst in s mon : 0
# awid in s mon : 3595 , awaddr : 1f2
# INIDE_SLAVE_MON_CTR=17
# arid in s mon : 44353
#                  185wlast : 0
# WID: 32817 , AWID : 32817
# m mon rid : 28ba
# m mon ar id : ad41
# UVM_INFO ../env/m_agent/axi_base_m_seqs.sv(26) @ 185: uvm_test_top.env_h.m_uvc_h.m_agent_h[0].m_seqr_h@@vseqs_h.m_wseqs_h [IN V SEQS] Got B-channel response from driver
# rd data in s drv: 6f3347d9 , len : 3 , last:0 , valid : 1
# INIDE_SLAVE_MON_CTR=18
# arid in s mon : 34273
# burst in s mon : 0
# awid in s mon : 2178 , awaddr : 2c5
#                  195wlast : 0
# WID: 32817 , AWID : 32817
# m mon ar id : 85e1
# m mon rid : 28ba
# rd data in s drv: 761402a3 , len : 3 , last:1 , valid : 1
# abc : 1
# ref model mem : 235
# abc : 2
# ref model mem : 236
# abc : 3
# ref model mem : 237
# abc : 4
# ref model mem : 238
# xyz : 1
# xyz : 2
# xyz : 3
# xyz : 4
# burst in s mon : 0
# awid in s mon : ad86 , awaddr : 170
# INIDE_SLAVE_MON_CTR=19
# arid in s mon : 40878
#                  205wlast : 1
# AFFTER W CHANNEL
# WID: 64272 , AWID : 64272
# req kind : READ
# m mon rid : 28ba
# req kind_e : WRITE
# m mon ar id : 9fae
# UVM_INFO ../env/axi_sb.sv(67) @ 205: uvm_test_top.env_h.sb_h [after event in sb] aaaa
# UVM_INFO ../env/axi_sb.sv(65) @ 205: uvm_test_top.env_h.sb_h [before event in sb] aaaa
# match arid : 0 , rid : 0
# UVM_INFO ../env/s_agent/axi_s_drv.sv(31) @ 205: uvm_test_top.env_h.s_uvc_h.s_agent_h[0].s_drv_h [ID MATCH] aaaaa
# s seqs arid : 61524
# INIDE_SLAVE_SEQ_CTR=5
# match arid : f054 , rid : f054
# UVM_INFO ../env/s_agent/axi_s_drv.sv(31) @ 205: uvm_test_top.env_h.s_uvc_h.s_agent_h[0].s_drv_h [ID MATCH] aaaaa
# rd data in s drv: 90e40000 , len : 3 , last:0 , valid : 1
# INIDE_SLAVE_MON_CTR=20
# arid in s mon : 65033
# burst in s mon : 0
# awid in s mon : fe69 , awaddr : 15
#                  215wlast : 0
# WID: 64272 , AWID : 64272
# m mon ar id : fe09
# m mon rid : f054
# rd data in s drv: 7c5cf680 , len : 3 , last:0 , valid : 1
# burst in s mon : 0
# awid in s mon : 177c , awaddr : 56
# INIDE_SLAVE_MON_CTR=21
# arid in s mon : 39064
#                  225wlast : 0
# WID: 64272 , AWID : 64272
# m mon rid : f054
# m mon ar id : 9898
# UVM_INFO ../env/m_agent/axi_base_m_seqs.sv(26) @ 225: uvm_test_top.env_h.m_uvc_h.m_agent_h[0].m_seqr_h@@vseqs_h.m_wseqs_h [IN V SEQS] Got B-channel response from driver
# rd data in s drv: cdcb11b4 , len : 3 , last:0 , valid : 1
# INIDE_SLAVE_MON_CTR=22
# arid in s mon : 62773
# burst in s mon : 0
# awid in s mon : 661d , awaddr : 128
#                  235wlast : 0
# WID: 64272 , AWID : 64272
# m mon ar id : f535
# m mon rid : f054
# rd data in s drv: e77068cf , len : 3 , last:1 , valid : 1
# abc : 1
# ref model mem : 158
# abc : 2
# ref model mem : 159
# abc : 3
# ref model mem : 160
# abc : 4
# ref model mem : 161
# xyz : 1
# xyz : 2
# xyz : 3
# xyz : 4
# burst in s mon : 0
# awid in s mon : e79f , awaddr : 394
# INIDE_SLAVE_MON_CTR=23
# arid in s mon : 60350
#                  245wlast : 1
# AFFTER W CHANNEL
# WID: 48097 , AWID : 48097
# req kind : READ
# m mon rid : f054
# req kind_e : WRITE
# m mon ar id : ebbe
# UVM_INFO ../env/axi_sb.sv(67) @ 245: uvm_test_top.env_h.sb_h [after event in sb] aaaa
# UVM_INFO ../env/axi_sb.sv(65) @ 245: uvm_test_top.env_h.sb_h [before event in sb] aaaa
# match arid : 0 , rid : 0
# UVM_INFO ../env/s_agent/axi_s_drv.sv(31) @ 245: uvm_test_top.env_h.s_uvc_h.s_agent_h[0].s_drv_h [ID MATCH] aaaaa
# s seqs arid : 26459
# INIDE_SLAVE_SEQ_CTR=6
# match arid : 675b , rid : 675b
# UVM_INFO ../env/s_agent/axi_s_drv.sv(31) @ 245: uvm_test_top.env_h.s_uvc_h.s_agent_h[0].s_drv_h [ID MATCH] aaaaa
# rd data in s drv: e692a900 , len : 3 , last:0 , valid : 1
# INIDE_SLAVE_MON_CTR=24
# arid in s mon : 45043
# burst in s mon : 0
# awid in s mon : 5d92 , awaddr : 2fb
#                  255wlast : 0
# WID: 48097 , AWID : 48097
# m mon ar id : aff3
# m mon rid : 675b
# rd data in s drv: 5e5d6ae8 , len : 3 , last:0 , valid : 1
# burst in s mon : 0
# awid in s mon : 74b6 , awaddr : 246
# INIDE_SLAVE_MON_CTR=25
# arid in s mon : 15796
#                  265wlast : 0
# WID: 48097 , AWID : 48097
# m mon rid : 675b
# m mon ar id : 3db4
# UVM_INFO ../env/m_agent/axi_base_m_seqs.sv(26) @ 265: uvm_test_top.env_h.m_uvc_h.m_agent_h[0].m_seqr_h@@vseqs_h.m_wseqs_h [IN V SEQS] Got B-channel response from driver
# rd data in s drv: 2e5cdf84 , len : 3 , last:0 , valid : 1
# INIDE_SLAVE_MON_CTR=26
# arid in s mon : 64427
# burst in s mon : 0
# awid in s mon : 2a80 , awaddr : 207
#                  275wlast : 0
# WID: 48097 , AWID : 48097
# m mon ar id : fbab
# m mon rid : 675b
# rd data in s drv: 85dca7b4 , len : 3 , last:1 , valid : 1
# abc : 1
# ref model mem : 135
# abc : 2
# ref model mem : 136
# abc : 3
# ref model mem : 137
# abc : 4
# ref model mem : 138
# xyz : 1
# xyz : 2
# xyz : 3
# xyz : 4
# burst in s mon : 0
# awid in s mon : 1ffb , awaddr : 2b
# INIDE_SLAVE_MON_CTR=27
# arid in s mon : 15132
#                  285wlast : 1
# AFFTER W CHANNEL
# WID: 48149 , AWID : 48149
# req kind : READ
# m mon rid : 675b
# req kind_e : WRITE
# m mon ar id : 3b1c
# UVM_INFO ../env/axi_sb.sv(67) @ 285: uvm_test_top.env_h.sb_h [after event in sb] aaaa
# UVM_INFO ../env/axi_sb.sv(65) @ 285: uvm_test_top.env_h.sb_h [before event in sb] aaaa
# match arid : 0 , rid : 0
# UVM_INFO ../env/s_agent/axi_s_drv.sv(31) @ 285: uvm_test_top.env_h.s_uvc_h.s_agent_h[0].s_drv_h [ID MATCH] aaaaa
# s seqs arid : 22357
# INIDE_SLAVE_SEQ_CTR=7
# match arid : 5755 , rid : 5755
# UVM_INFO ../env/s_agent/axi_s_drv.sv(31) @ 285: uvm_test_top.env_h.s_uvc_h.s_agent_h[0].s_drv_h [ID MATCH] aaaaa
# rd data in s drv: 2b20000 , len : 3 , last:0 , valid : 1
# INIDE_SLAVE_MON_CTR=28
# arid in s mon : 25003
# burst in s mon : 0
# awid in s mon : 4336 , awaddr : 226
#                  295wlast : 0
# WID: 48149 , AWID : 48149
# m mon ar id : 61ab
# m mon rid : 5755
# rd data in s drv: 372f0987 , len : 3 , last:0 , valid : 1
# burst in s mon : 0
# awid in s mon : 2877 , awaddr : 163
# INIDE_SLAVE_MON_CTR=29
# arid in s mon : 51408
#                  305wlast : 0
# WID: 48149 , AWID : 48149
# m mon rid : 5755
# m mon ar id : c8d0
# UVM_INFO ../env/m_agent/axi_base_m_seqs.sv(26) @ 305: uvm_test_top.env_h.m_uvc_h.m_agent_h[0].m_seqr_h@@vseqs_h.m_wseqs_h [IN V SEQS] Got B-channel response from driver
# rd data in s drv: 4ab7d9f9 , len : 3 , last:0 , valid : 1
# INIDE_SLAVE_MON_CTR=30
# arid in s mon : 29970
# burst in s mon : 0
# awid in s mon : 359 , awaddr : 21b
#                  315wlast : 0
# WID: 48149 , AWID : 48149
# m mon ar id : 7512
# m mon rid : 5755
# rd data in s drv: 293074ef , len : 3 , last:1 , valid : 1
# abc : 1
# ref model mem : 204
# abc : 2
# ref model mem : 205
# abc : 3
# ref model mem : 206
# abc : 4
# ref model mem : 207
# xyz : 1
# xyz : 2
# xyz : 3
# xyz : 4
# burst in s mon : 0
# awid in s mon : 36be , awaddr : 363
# INIDE_SLAVE_MON_CTR=31
# arid in s mon : 11395
#                  325wlast : 1
# AFFTER W CHANNEL
# WID: 23496 , AWID : 23496
# req kind : READ
# m mon rid : 5755
# req kind_e : WRITE
# m mon ar id : 2c83
# UVM_INFO ../env/axi_sb.sv(67) @ 325: uvm_test_top.env_h.sb_h [after event in sb] aaaa
# UVM_INFO ../env/axi_sb.sv(65) @ 325: uvm_test_top.env_h.sb_h [before event in sb] aaaa
# match arid : 0 , rid : 0
# UVM_INFO ../env/s_agent/axi_s_drv.sv(31) @ 325: uvm_test_top.env_h.s_uvc_h.s_agent_h[0].s_drv_h [ID MATCH] aaaaa
# s seqs arid : 58966
# INIDE_SLAVE_SEQ_CTR=8
# match arid : e656 , rid : e656
# UVM_INFO ../env/s_agent/axi_s_drv.sv(31) @ 325: uvm_test_top.env_h.s_uvc_h.s_agent_h[0].s_drv_h [ID MATCH] aaaaa
# rd data in s drv: d7000000 , len : 3 , last:0 , valid : 1
# INIDE_SLAVE_MON_CTR=32
# arid in s mon : 43166
# burst in s mon : 0
# awid in s mon : 3127 , awaddr : 3b2
#                  335wlast : 0
# WID: 23496 , AWID : 23496
# m mon ar id : a89e
# m mon rid : e656
# rd data in s drv: baee7d8 , len : 3 , last:0 , valid : 1
# burst in s mon : 0
# awid in s mon : 5250 , awaddr : 1b3
# INIDE_SLAVE_MON_CTR=33
# arid in s mon : 11187
#                  345wlast : 0
# WID: 23496 , AWID : 23496
# m mon rid : e656
# m mon ar id : 2bb3
# UVM_INFO ../env/m_agent/axi_base_m_seqs.sv(26) @ 345: uvm_test_top.env_h.m_uvc_h.m_agent_h[0].m_seqr_h@@vseqs_h.m_wseqs_h [IN V SEQS] Got B-channel response from driver
# rd data in s drv: e174315a , len : 3 , last:0 , valid : 1
# INIDE_SLAVE_MON_CTR=34
# arid in s mon : 5180
# burst in s mon : 0
# awid in s mon : 2eeb , awaddr : 1da
#                  355wlast : 0
# WID: 23496 , AWID : 23496
# m mon ar id : 143c
# m mon rid : e656
# rd data in s drv: 502c68b6 , len : 3 , last:1 , valid : 1
# abc : 1
# ref model mem : 456
# abc : 2
# ref model mem : 457
# abc : 3
# ref model mem : 458
# abc : 4
# ref model mem : 459
# xyz : 1
# xyz : 2
# xyz : 3
# xyz : 4
# burst in s mon : 0
# awid in s mon : 2c50 , awaddr : 147
# INIDE_SLAVE_MON_CTR=35
# arid in s mon : 33047
#                  365wlast : 1
# AFFTER W CHANNEL
# WID: 53607 , AWID : 53607
# req kind : READ
# m mon rid : e656
# req kind_e : WRITE
# m mon ar id : 8117
# UVM_INFO ../env/axi_sb.sv(67) @ 365: uvm_test_top.env_h.sb_h [after event in sb] aaaa
# UVM_INFO ../env/axi_sb.sv(65) @ 365: uvm_test_top.env_h.sb_h [before event in sb] aaaa
# match arid : 0 , rid : 0
# UVM_INFO ../env/s_agent/axi_s_drv.sv(31) @ 365: uvm_test_top.env_h.s_uvc_h.s_agent_h[0].s_drv_h [ID MATCH] aaaaa
# s seqs arid : 64759
# INIDE_SLAVE_SEQ_CTR=9
# match arid : fcf7 , rid : fcf7
# UVM_INFO ../env/s_agent/axi_s_drv.sv(31) @ 365: uvm_test_top.env_h.s_uvc_h.s_agent_h[0].s_drv_h [ID MATCH] aaaaa
# rd data in s drv: 8a000000 , len : 3 , last:0 , valid : 1
# INIDE_SLAVE_MON_CTR=36
# arid in s mon : 41870
# burst in s mon : 0
# awid in s mon : 810c , awaddr : 304
#                  375wlast : 0
# WID: 53607 , AWID : 53607
# m mon ar id : a38e
# m mon rid : fcf7
# rd data in s drv: 316470ff , len : 3 , last:0 , valid : 1
# burst in s mon : 0
# awid in s mon : cb7a , awaddr : cc
# INIDE_SLAVE_MON_CTR=37
# arid in s mon : 14176
#                  385wlast : 0
# WID: 53607 , AWID : 53607
# m mon rid : fcf7
# m mon ar id : 3760
# UVM_INFO ../env/m_agent/axi_base_m_seqs.sv(26) @ 385: uvm_test_top.env_h.m_uvc_h.m_agent_h[0].m_seqr_h@@vseqs_h.m_wseqs_h [IN V SEQS] Got B-channel response from driver
# rd data in s drv: 28dd5745 , len : 3 , last:0 , valid : 1
# INIDE_SLAVE_MON_CTR=38
# arid in s mon : 15499
# xyz : 1
# xyz : 2
# xyz : 3
# ** Warning: (vsim-3829) Non-existent associative array entry. Returning default value.
#    Time: 395 ns  Iteration: 2  Process: /axi_s_agent_pkg::axi_s_mon #(32, 32)::monitor/#FORK#35_7fefec26bb6 File: ../env/axi_ref_model.sv Line: 79
# xyz : 4
# burst in s mon : 0
# awid in s mon : 2afe , awaddr : 23a
#                  395wlast : 0
# WID: 53607 , AWID : 53607
# m mon ar id : 3c8b
# m mon rid : fcf7
# ** Warning: (vsim-3829) Non-existent associative array entry. Returning default value.
#    Time: 395 ns  Iteration: 3  Process: /uvm_pkg::uvm_sequence_base::start/#FORK#294_7fefec268bc File: ../env/s_agent/axi_base_s_seqs.sv Line: 103
# s seqs arid : 15499
# INIDE_SLAVE_SEQ_CTR=10
# match arid : 3c8b , rid : 3c8b
# UVM_INFO ../env/s_agent/axi_s_drv.sv(31) @ 395: uvm_test_top.env_h.s_uvc_h.s_agent_h[0].s_drv_h [ID MATCH] aaaaa
# rd data in s drv: 8092a68c , len : 3 , last:1 , valid : 1
# abc : 1
# ref model mem : 131
# abc : 2
# ref model mem : 132
# abc : 3
# ref model mem : 133
# abc : 4
# ref model mem : 134
# xyz : 1
# xyz : 2
# xyz : 3
# xyz : 4
# burst in s mon : 0
# awid in s mon : 90ac , awaddr : 2a5
# INIDE_SLAVE_MON_CTR=39
# arid in s mon : 29379
#                  405wlast : 1
# AFFTER W CHANNEL
# WID: 17367 , AWID : 17367
# req kind : READ
# m mon rid : fcf7
# req kind_e : WRITE
# m mon ar id : 72c3
# UVM_INFO ../env/axi_sb.sv(67) @ 405: uvm_test_top.env_h.sb_h [after event in sb] aaaa
# UVM_INFO ../env/axi_sb.sv(65) @ 405: uvm_test_top.env_h.sb_h [before event in sb] aaaa
# match arid : 0 , rid : 0
# UVM_INFO ../env/s_agent/axi_s_drv.sv(31) @ 405: uvm_test_top.env_h.s_uvc_h.s_agent_h[0].s_drv_h [ID MATCH] aaaaa
# s seqs arid : 43156
# INIDE_SLAVE_SEQ_CTR=11
# match arid : a894 , rid : a894
# UVM_INFO ../env/s_agent/axi_s_drv.sv(31) @ 405: uvm_test_top.env_h.s_uvc_h.s_agent_h[0].s_drv_h [ID MATCH] aaaaa
# rd data in s drv: baee7d8 , len : 3 , last:0 , valid : 1
# INIDE_SLAVE_MON_CTR=40
# arid in s mon : 11568
# burst in s mon : 0
# awid in s mon : b6ce , awaddr : 9
#                  415wlast : 0
# WID: 17367 , AWID : 17367
# m mon ar id : 2d30
# m mon rid : 3c8b
# rd data in s drv: e174315a , len : 3 , last:0 , valid : 1
# burst in s mon : 0
# awid in s mon : 6ad5 , awaddr : ac
# INIDE_SLAVE_MON_CTR=41
# arid in s mon : 16179
#                  425wlast : 0
# WID: 17367 , AWID : 17367
# m mon rid : 3c8b
# m mon ar id : 3f33
# UVM_INFO ../env/m_agent/axi_base_m_seqs.sv(26) @ 425: uvm_test_top.env_h.m_uvc_h.m_agent_h[0].m_seqr_h@@vseqs_h.m_wseqs_h [IN V SEQS] Got B-channel response from driver
# rd data in s drv: 502c68b6 , len : 3 , last:0 , valid : 1
# INIDE_SLAVE_MON_CTR=42
# arid in s mon : 60092
# burst in s mon : 0
# awid in s mon : c8cc , awaddr : 181
#                  435wlast : 0
# WID: 17367 , AWID : 17367
# m mon ar id : eabc
# m mon rid : 3c8b
# rd data in s drv: 0 , len : 3 , last:1 , valid : 1
# abc : 1
# ref model mem : 752
# abc : 2
# ref model mem : 753
# abc : 3
# ref model mem : 754
# abc : 4
# ref model mem : 755
# xyz : 1
# xyz : 2
# xyz : 3
# xyz : 4
# burst in s mon : 0
# awid in s mon : 13d6 , awaddr : 195
# INIDE_SLAVE_MON_CTR=43
# arid in s mon : 36315
# xyz : 1
# xyz : 2
# ** Warning: (vsim-3829) Non-existent associative array entry. Returning default value.
#    Time: 445 ns  Iteration: 2  Process: /axi_s_agent_pkg::axi_s_mon #(32, 32)::monitor/#FORK#35_7fefec26bb6 File: ../env/axi_ref_model.sv Line: 79
# xyz : 3
# ** Warning: (vsim-3829) Non-existent associative array entry. Returning default value.
#    Time: 445 ns  Iteration: 2  Process: /axi_s_agent_pkg::axi_s_mon #(32, 32)::monitor/#FORK#35_7fefec26bb6 File: ../env/axi_ref_model.sv Line: 79
# xyz : 4
#                  445wlast : 1
# AFFTER W CHANNEL
# WID: 23008 , AWID : 23008
# req kind : READ
# m mon rid : 3c8b
# req kind_e : WRITE
# m mon ar id : 8ddb
# UVM_INFO ../env/axi_sb.sv(67) @ 445: uvm_test_top.env_h.sb_h [after event in sb] aaaa
# UVM_INFO ../env/axi_sb.sv(65) @ 445: uvm_test_top.env_h.sb_h [before event in sb] aaaa
# match arid : 0 , rid : 0
# UVM_INFO ../env/s_agent/axi_s_drv.sv(31) @ 445: uvm_test_top.env_h.s_uvc_h.s_agent_h[0].s_drv_h [ID MATCH] aaaaa
# s seqs arid : 52439
# INIDE_SLAVE_SEQ_CTR=12
# match arid : ccd7 , rid : ccd7
# UVM_INFO ../env/s_agent/axi_s_drv.sv(31) @ 445: uvm_test_top.env_h.s_uvc_h.s_agent_h[0].s_drv_h [ID MATCH] aaaaa
# ** Warning: (vsim-3829) Non-existent associative array entry. Returning default value.
#    Time: 445 ns  Iteration: 12  Process: /uvm_pkg::uvm_sequence_base::start/#FORK#294_7fefec268bc File: ../env/s_agent/axi_base_s_seqs.sv Line: 103
# ** Warning: (vsim-3829) Non-existent associative array entry. Returning default value.
#    Time: 445 ns  Iteration: 12  Process: /uvm_pkg::uvm_sequence_base::start/#FORK#294_7fefec268bc File: ../env/s_agent/axi_base_s_seqs.sv Line: 103
# s seqs arid : 36315
# INIDE_SLAVE_SEQ_CTR=13
# match arid : 8ddb , rid : 8ddb
# UVM_INFO ../env/s_agent/axi_s_drv.sv(31) @ 445: uvm_test_top.env_h.s_uvc_h.s_agent_h[0].s_drv_h [ID MATCH] aaaaa
# rd data in s drv: b3f50000 , len : 3 , last:0 , valid : 1
# INIDE_SLAVE_MON_CTR=44
# arid in s mon : 5087
# burst in s mon : 0
# awid in s mon : 6a29 , awaddr : 28
#                  455wlast : 0
# WID: 23008 , AWID : 23008
# m mon ar id : 13df
# m mon rid : a894
# rd data in s drv: b5c5d03b , len : 3 , last:0 , valid : 1
# burst in s mon : 0
# awid in s mon : a989 , awaddr : 273
# INIDE_SLAVE_MON_CTR=45
# arid in s mon : 47476
#                  465wlast : 0
# WID: 23008 , AWID : 23008
# m mon rid : a894
# m mon ar id : b974
# UVM_INFO ../env/m_agent/axi_base_m_seqs.sv(26) @ 465: uvm_test_top.env_h.m_uvc_h.m_agent_h[0].m_seqr_h@@vseqs_h.m_wseqs_h [IN V SEQS] Got B-channel response from driver
# rd data in s drv: 869f0c8e , len : 3 , last:0 , valid : 1
# INIDE_SLAVE_MON_CTR=46
# arid in s mon : 36504
# burst in s mon : 0
# awid in s mon : 98df , awaddr : 2c0
#                  475wlast : 0
# WID: 23008 , AWID : 23008
# m mon ar id : 8e98
# m mon rid : a894
# rd data in s drv: af45646f , len : 3 , last:1 , valid : 1
# abc : 1
# ref model mem : 369
# abc : 2
# ref model mem : 370
# abc : 3
# ref model mem : 371
# abc : 4
# ref model mem : 372
# xyz : 1
# xyz : 2
# xyz : 3
# xyz : 4
# xyz : 5
# xyz : 6
# xyz : 7
# xyz : 8
# burst in s mon : 0
# awid in s mon : 4b94 , awaddr : 6a
# INIDE_SLAVE_MON_CTR=47
# arid in s mon : 22723
#                  485wlast : 1
# AFFTER W CHANNEL
# WID: 32031 , AWID : 32031
# req kind : READ
# m mon rid : a894
# req kind_e : WRITE
# m mon ar id : 58c3
# UVM_INFO ../env/axi_sb.sv(67) @ 485: uvm_test_top.env_h.sb_h [after event in sb] aaaa
# UVM_INFO ../env/axi_sb.sv(65) @ 485: uvm_test_top.env_h.sb_h [before event in sb] aaaa
# match arid : 0 , rid : 0
# UVM_INFO ../env/s_agent/axi_s_drv.sv(31) @ 485: uvm_test_top.env_h.s_uvc_h.s_agent_h[0].s_drv_h [ID MATCH] aaaaa
# s seqs arid : 4905
# INIDE_SLAVE_SEQ_CTR=14
# match arid : 1329 , rid : 1329
# UVM_INFO ../env/s_agent/axi_s_drv.sv(31) @ 485: uvm_test_top.env_h.s_uvc_h.s_agent_h[0].s_drv_h [ID MATCH] aaaaa
# s seqs arid : 65033
# INIDE_SLAVE_SEQ_CTR=15
# match arid : fe09 , rid : fe09
# UVM_INFO ../env/s_agent/axi_s_drv.sv(31) @ 485: uvm_test_top.env_h.s_uvc_h.s_agent_h[0].s_drv_h [ID MATCH] aaaaa
# rd data in s drv: a1000000 , len : 3 , last:0 , valid : 1
# INIDE_SLAVE_MON_CTR=48
# arid in s mon : 50465
# burst in s mon : 0
# awid in s mon : 4518 , awaddr : 3b3
#                  495wlast : 0
# WID: 32031 , AWID : 32031
# m mon ar id : c521
# m mon rid : ccd7
# rd data in s drv: 9bd541f3 , len : 3 , last:0 , valid : 1
# burst in s mon : 0
# awid in s mon : 4e73 , awaddr : 364
# INIDE_SLAVE_MON_CTR=49
# arid in s mon : 9563
#                  505wlast : 0
# WID: 32031 , AWID : 32031
# m mon rid : ccd7
# m mon ar id : 255b
# UVM_INFO ../env/m_agent/axi_base_m_seqs.sv(26) @ 505: uvm_test_top.env_h.m_uvc_h.m_agent_h[0].m_seqr_h@@vseqs_h.m_wseqs_h [IN V SEQS] Got B-channel response from driver
# rd data in s drv: eb2a1de0 , len : 3 , last:0 , valid : 1
# INIDE_SLAVE_MON_CTR=50
# arid in s mon : 12754
#                  515wlast : 0
# WID: 32031 , AWID : 32031
# m mon ar id : 31d2
# m mon rid : ccd7
# rd data in s drv: b51a296e , len : 3 , last:1 , valid : 1
# abc : 1
# ref model mem : 114
# abc : 2
# ref model mem : 115
# abc : 3
# ref model mem : 116
# abc : 4
# ref model mem : 117
# xyz : 1
# xyz : 2
# xyz : 3
# xyz : 4
#                  525wlast : 1
# AFFTER W CHANNEL
# WID: 12673 , AWID : 12673
# req kind : READ
# m mon rid : ccd7
# req kind_e : WRITE
# UVM_INFO ../env/axi_sb.sv(67) @ 525: uvm_test_top.env_h.sb_h [after event in sb] aaaa
# UVM_INFO ../env/axi_sb.sv(65) @ 525: uvm_test_top.env_h.sb_h [before event in sb] aaaa
# match arid : 0 , rid : 0
# UVM_INFO ../env/s_agent/axi_s_drv.sv(31) @ 525: uvm_test_top.env_h.s_uvc_h.s_agent_h[0].s_drv_h [ID MATCH] aaaaa
# s seqs arid : 35577
# INIDE_SLAVE_SEQ_CTR=16
# match arid : 8af9 , rid : 8af9
# UVM_INFO ../env/s_agent/axi_s_drv.sv(31) @ 525: uvm_test_top.env_h.s_uvc_h.s_agent_h[0].s_drv_h [ID MATCH] aaaaa
# rd data in s drv: 55d992b7 , len : 3 , last:0 , valid : 1
#                  535wlast : 0
# WID: 12673 , AWID : 12673
# m mon rid : 8ddb
# rd data in s drv: edb2c52b , len : 3 , last:0 , valid : 1
#                  545wlast : 0
# WID: 12673 , AWID : 12673
# m mon rid : 8ddb
# UVM_INFO ../env/m_agent/axi_base_m_seqs.sv(26) @ 545: uvm_test_top.env_h.m_uvc_h.m_agent_h[0].m_seqr_h@@vseqs_h.m_wseqs_h [IN V SEQS] Got B-channel response from driver
# rd data in s drv: 0 , len : 3 , last:0 , valid : 1
#                  555wlast : 0
# WID: 12673 , AWID : 12673
# m mon rid : 8ddb
# rd data in s drv: 0 , len : 3 , last:1 , valid : 1
# abc : 1
# ref model mem : 534
# abc : 2
# ref model mem : 535
# abc : 3
# ref model mem : 536
# abc : 4
# ref model mem : 537
# xyz : 1
# xyz : 2
# xyz : 3
# xyz : 4
#                  565wlast : 1
# AFFTER W CHANNEL
# WID: 40425 , AWID : 40425
# req kind : READ
# m mon rid : 8ddb
# req kind_e : WRITE
# UVM_INFO ../env/axi_sb.sv(67) @ 565: uvm_test_top.env_h.sb_h [after event in sb] aaaa
# UVM_INFO ../env/axi_sb.sv(65) @ 565: uvm_test_top.env_h.sb_h [before event in sb] aaaa
# match arid : 0 , rid : 0
# UVM_INFO ../env/s_agent/axi_s_drv.sv(31) @ 565: uvm_test_top.env_h.s_uvc_h.s_agent_h[0].s_drv_h [ID MATCH] aaaaa
# s seqs arid : 25219
# INIDE_SLAVE_SEQ_CTR=17
# match arid : 6283 , rid : 6283
# UVM_INFO ../env/s_agent/axi_s_drv.sv(31) @ 565: uvm_test_top.env_h.s_uvc_h.s_agent_h[0].s_drv_h [ID MATCH] aaaaa
# rd data in s drv: a93a1366 , len : 3 , last:0 , valid : 1
#                  575wlast : 0
# WID: 40425 , AWID : 40425
# m mon rid : 1329
# rd data in s drv: f1c9ee1 , len : 3 , last:0 , valid : 1
#                  585wlast : 0
# WID: 40425 , AWID : 40425
# m mon rid : 1329
# UVM_INFO ../env/m_agent/axi_base_m_seqs.sv(26) @ 585: uvm_test_top.env_h.m_uvc_h.m_agent_h[0].m_seqr_h@@vseqs_h.m_wseqs_h [IN V SEQS] Got B-channel response from driver
# rd data in s drv: b95e5aa2 , len : 3 , last:0 , valid : 1
#                  595wlast : 0
# WID: 40425 , AWID : 40425
# m mon rid : 1329
# rd data in s drv: 27a31541 , len : 3 , last:1 , valid : 1
# abc : 1
# ref model mem : 652
# abc : 2
# ref model mem : 653
# abc : 3
# ref model mem : 654
# abc : 4
# ref model mem : 655
# xyz : 1
# xyz : 2
# xyz : 3
# xyz : 4
#                  605wlast : 1
# AFFTER W CHANNEL
# WID: 34571 , AWID : 34571
# req kind : READ
# m mon rid : 1329
# req kind_e : WRITE
# UVM_INFO ../env/axi_sb.sv(67) @ 605: uvm_test_top.env_h.sb_h [after event in sb] aaaa
# UVM_INFO ../env/axi_sb.sv(65) @ 605: uvm_test_top.env_h.sb_h [before event in sb] aaaa
# match arid : 0 , rid : 0
# UVM_INFO ../env/s_agent/axi_s_drv.sv(31) @ 605: uvm_test_top.env_h.s_uvc_h.s_agent_h[0].s_drv_h [ID MATCH] aaaaa
# s seqs arid : 47995
# INIDE_SLAVE_SEQ_CTR=18
# match arid : bb7b , rid : bb7b
# UVM_INFO ../env/s_agent/axi_s_drv.sv(31) @ 605: uvm_test_top.env_h.s_uvc_h.s_agent_h[0].s_drv_h [ID MATCH] aaaaa
# rd data in s drv: a93a1366 , len : 3 , last:0 , valid : 1
#                  615wlast : 0
# WID: 34571 , AWID : 34571
# m mon rid : fe09
# rd data in s drv: f1c9ee1 , len : 3 , last:0 , valid : 1
#                  625wlast : 0
# WID: 34571 , AWID : 34571
# m mon rid : fe09
# UVM_INFO ../env/m_agent/axi_base_m_seqs.sv(26) @ 625: uvm_test_top.env_h.m_uvc_h.m_agent_h[0].m_seqr_h@@vseqs_h.m_wseqs_h [IN V SEQS] Got B-channel response from driver
# rd data in s drv: b95e5aa2 , len : 3 , last:0 , valid : 1
#                  635wlast : 0
# WID: 34571 , AWID : 34571
# m mon rid : fe09
# rd data in s drv: 27a31541 , len : 3 , last:1 , valid : 1
# abc : 1
# ref model mem : 771
# abc : 2
# ref model mem : 772
# abc : 3
# ref model mem : 773
# abc : 4
# ref model mem : 774
# xyz : 1
# xyz : 2
# xyz : 3
# xyz : 4
# xyz : 5
# xyz : 6
# ** Warning: (vsim-3829) Non-existent associative array entry. Returning default value.
#    Time: 645 ns  Iteration: 2  Process: /axi_s_agent_pkg::axi_s_mon #(32, 32)::monitor/#FORK#34_7fefec26b8e File: ../env/axi_ref_model.sv Line: 79
# xyz : 7
# ** Warning: (vsim-3829) Non-existent associative array entry. Returning default value.
#    Time: 645 ns  Iteration: 2  Process: /axi_s_agent_pkg::axi_s_mon #(32, 32)::monitor/#FORK#34_7fefec26b8e File: ../env/axi_ref_model.sv Line: 79
# xyz : 8
#                  645wlast : 1
# AFFTER W CHANNEL
# WID: 3557 , AWID : 3557
# req kind : READ
# m mon rid : fe09
# req kind_e : WRITE
# UVM_INFO ../env/axi_sb.sv(67) @ 645: uvm_test_top.env_h.sb_h [after event in sb] aaaa
# UVM_INFO ../env/axi_sb.sv(65) @ 645: uvm_test_top.env_h.sb_h [before event in sb] aaaa
# match arid : 0 , rid : 0
# UVM_INFO ../env/s_agent/axi_s_drv.sv(31) @ 645: uvm_test_top.env_h.s_uvc_h.s_agent_h[0].s_drv_h [ID MATCH] aaaaa
# s seqs arid : 51276
# INIDE_SLAVE_SEQ_CTR=19
# match arid : c84c , rid : c84c
# UVM_INFO ../env/s_agent/axi_s_drv.sv(31) @ 645: uvm_test_top.env_h.s_uvc_h.s_agent_h[0].s_drv_h [ID MATCH] aaaaa
# ** Warning: (vsim-3829) Non-existent associative array entry. Returning default value.
#    Time: 645 ns  Iteration: 12  Process: /uvm_pkg::uvm_sequence_base::start/#FORK#294_7fefec268bc File: ../env/s_agent/axi_base_s_seqs.sv Line: 103
# ** Warning: (vsim-3829) Non-existent associative array entry. Returning default value.
#    Time: 645 ns  Iteration: 12  Process: /uvm_pkg::uvm_sequence_base::start/#FORK#294_7fefec268bc File: ../env/s_agent/axi_base_s_seqs.sv Line: 103
# s seqs arid : 14176
# INIDE_SLAVE_SEQ_CTR=20
# match arid : 3760 , rid : 3760
# UVM_INFO ../env/s_agent/axi_s_drv.sv(31) @ 645: uvm_test_top.env_h.s_uvc_h.s_agent_h[0].s_drv_h [ID MATCH] aaaaa
# rd data in s drv: 67135d00 , len : 3 , last:0 , valid : 1
#                  655wlast : 0
# WID: 3557 , AWID : 3557
# m mon rid : 8af9
# rd data in s drv: 63ae97a9 , len : 3 , last:0 , valid : 1
#                  665wlast : 0
# WID: 3557 , AWID : 3557
# m mon rid : 8af9
# UVM_INFO ../env/m_agent/axi_base_m_seqs.sv(26) @ 665: uvm_test_top.env_h.m_uvc_h.m_agent_h[0].m_seqr_h@@vseqs_h.m_wseqs_h [IN V SEQS] Got B-channel response from driver
# rd data in s drv: 1bda4650 , len : 3 , last:0 , valid : 1
#                  675wlast : 0
# WID: 3557 , AWID : 3557
# m mon rid : 8af9
# rd data in s drv: 22dc21c3 , len : 3 , last:1 , valid : 1
# abc : 1
# ref model mem : 508
# abc : 2
# ref model mem : 509
# abc : 3
# ref model mem : 510
# abc : 4
# ref model mem : 511
# xyz : 1
# xyz : 2
# xyz : 3
# xyz : 4
#                  685wlast : 1
# AFFTER W CHANNEL
# WID: 13717 , AWID : 13717
# req kind : READ
# m mon rid : 8af9
# req kind_e : WRITE
# UVM_INFO ../env/axi_sb.sv(67) @ 685: uvm_test_top.env_h.sb_h [after event in sb] aaaa
# UVM_INFO ../env/axi_sb.sv(65) @ 685: uvm_test_top.env_h.sb_h [before event in sb] aaaa
# match arid : 0 , rid : 0
# UVM_INFO ../env/s_agent/axi_s_drv.sv(31) @ 685: uvm_test_top.env_h.s_uvc_h.s_agent_h[0].s_drv_h [ID MATCH] aaaaa
# s seqs arid : 44353
# INIDE_SLAVE_SEQ_CTR=21
# match arid : ad41 , rid : ad41
# UVM_INFO ../env/s_agent/axi_s_drv.sv(31) @ 685: uvm_test_top.env_h.s_uvc_h.s_agent_h[0].s_drv_h [ID MATCH] aaaaa
# rd data in s drv: 1caf3200 , len : 3 , last:0 , valid : 1
#                  695wlast : 0
# WID: 13717 , AWID : 13717
# m mon rid : 6283
# rd data in s drv: 62b68558 , len : 3 , last:0 , valid : 1
#                  705wlast : 0
# WID: 13717 , AWID : 13717
# m mon rid : 6283
# UVM_INFO ../env/m_agent/axi_base_m_seqs.sv(26) @ 705: uvm_test_top.env_h.m_uvc_h.m_agent_h[0].m_seqr_h@@vseqs_h.m_wseqs_h [IN V SEQS] Got B-channel response from driver
# rd data in s drv: 346f872e , len : 3 , last:0 , valid : 1
#                  715wlast : 0
# WID: 13717 , AWID : 13717
# m mon rid : 6283
# rd data in s drv: 5172b9cc , len : 3 , last:1 , valid : 1
# abc : 1
# ref model mem : 499
# abc : 2
# ref model mem : 500
# abc : 3
# ref model mem : 501
# abc : 4
# ref model mem : 502
# xyz : 1
# xyz : 2
# xyz : 3
# xyz : 4
#                  725wlast : 1
# AFFTER W CHANNEL
# WID: 8568 , AWID : 8568
# req kind : READ
# m mon rid : 6283
# req kind_e : WRITE
# UVM_INFO ../env/axi_sb.sv(67) @ 725: uvm_test_top.env_h.sb_h [after event in sb] aaaa
# UVM_INFO ../env/axi_sb.sv(65) @ 725: uvm_test_top.env_h.sb_h [before event in sb] aaaa
# match arid : 0 , rid : 0
# UVM_INFO ../env/s_agent/axi_s_drv.sv(31) @ 725: uvm_test_top.env_h.s_uvc_h.s_agent_h[0].s_drv_h [ID MATCH] aaaaa
# s seqs arid : 34273
# INIDE_SLAVE_SEQ_CTR=22
# match arid : 85e1 , rid : 85e1
# UVM_INFO ../env/s_agent/axi_s_drv.sv(31) @ 725: uvm_test_top.env_h.s_uvc_h.s_agent_h[0].s_drv_h [ID MATCH] aaaaa
# rd data in s drv: 9e000000 , len : 3 , last:0 , valid : 1
#                  735wlast : 0
# WID: 8568 , AWID : 8568
# m mon rid : bb7b
# rd data in s drv: 29347435 , len : 3 , last:0 , valid : 1
#                  745wlast : 0
# WID: 8568 , AWID : 8568
# m mon rid : bb7b
# UVM_INFO ../env/m_agent/axi_base_m_seqs.sv(26) @ 745: uvm_test_top.env_h.m_uvc_h.m_agent_h[0].m_seqr_h@@vseqs_h.m_wseqs_h [IN V SEQS] Got B-channel response from driver
# rd data in s drv: 43b9fe37 , len : 3 , last:0 , valid : 1
#                  755wlast : 0
# WID: 8568 , AWID : 8568
# m mon rid : bb7b
# rd data in s drv: 3be473 , len : 3 , last:1 , valid : 1
# abc : 1
# ref model mem : 710
# abc : 2
# ref model mem : 711
# abc : 3
# ref model mem : 712
# abc : 4
# ref model mem : 713
# xyz : 1
# xyz : 2
# xyz : 3
# xyz : 4
#                  765wlast : 1
# AFFTER W CHANNEL
# WID: 44422 , AWID : 44422
# req kind : READ
# m mon rid : bb7b
# req kind_e : WRITE
# UVM_INFO ../env/axi_sb.sv(67) @ 765: uvm_test_top.env_h.sb_h [after event in sb] aaaa
# UVM_INFO ../env/axi_sb.sv(65) @ 765: uvm_test_top.env_h.sb_h [before event in sb] aaaa
# match arid : 0 , rid : 0
# UVM_INFO ../env/s_agent/axi_s_drv.sv(31) @ 765: uvm_test_top.env_h.s_uvc_h.s_agent_h[0].s_drv_h [ID MATCH] aaaaa
# s seqs arid : 40878
# INIDE_SLAVE_SEQ_CTR=23
# match arid : 9fae , rid : 9fae
# UVM_INFO ../env/s_agent/axi_s_drv.sv(31) @ 765: uvm_test_top.env_h.s_uvc_h.s_agent_h[0].s_drv_h [ID MATCH] aaaaa
# rd data in s drv: 8fa30000 , len : 3 , last:0 , valid : 1
#                  775wlast : 0
# WID: 44422 , AWID : 44422
# m mon rid : c84c
# rd data in s drv: 167e33ce , len : 3 , last:0 , valid : 1
#                  785wlast : 0
# WID: 44422 , AWID : 44422
# m mon rid : c84c
# UVM_INFO ../env/m_agent/axi_base_m_seqs.sv(26) @ 785: uvm_test_top.env_h.m_uvc_h.m_agent_h[0].m_seqr_h@@vseqs_h.m_wseqs_h [IN V SEQS] Got B-channel response from driver
# rd data in s drv: c98d86f4 , len : 3 , last:0 , valid : 1
#                  795wlast : 0
# WID: 44422 , AWID : 44422
# m mon rid : c84c
# rd data in s drv: 2e2e080d , len : 3 , last:1 , valid : 1
# abc : 1
# ref model mem : 369
# abc : 2
# ref model mem : 370
# abc : 3
# ref model mem : 371
# abc : 4
# ref model mem : 372
#                  805wlast : 1
# AFFTER W CHANNEL
# WID: 65129 , AWID : 65129
# req kind : READ
# m mon rid : c84c
# req kind_e : WRITE
# UVM_INFO ../env/axi_sb.sv(67) @ 805: uvm_test_top.env_h.sb_h [after event in sb] aaaa
# UVM_INFO ../env/axi_sb.sv(65) @ 805: uvm_test_top.env_h.sb_h [before event in sb] aaaa
# match arid : 0 , rid : 0
# UVM_INFO ../env/s_agent/axi_s_drv.sv(31) @ 805: uvm_test_top.env_h.s_uvc_h.s_agent_h[0].s_drv_h [ID MATCH] aaaaa
# rd data in s drv: c98d86f4 , len : 3 , last:0 , valid : 1
#                  815wlast : 0
# WID: 65129 , AWID : 65129
# m mon rid : 3760
# rd data in s drv: 2e2e080d , len : 3 , last:0 , valid : 1
#                  825wlast : 0
# WID: 65129 , AWID : 65129
# m mon rid : 3760
# UVM_INFO ../env/m_agent/axi_base_m_seqs.sv(26) @ 825: uvm_test_top.env_h.m_uvc_h.m_agent_h[0].m_seqr_h@@vseqs_h.m_wseqs_h [IN V SEQS] Got B-channel response from driver
# rd data in s drv: 0 , len : 3 , last:0 , valid : 1
#                  835wlast : 0
# WID: 65129 , AWID : 65129
# m mon rid : 3760
# rd data in s drv: 0 , len : 3 , last:1 , valid : 1
# abc : 1
# ref model mem : 22
# abc : 2
# ref model mem : 23
# abc : 3
# ref model mem : 24
# abc : 4
# ref model mem : 25
# xyz : 1
# xyz : 2
# xyz : 3
# xyz : 4
#                  845wlast : 1
# AFFTER W CHANNEL
# WID: 6012 , AWID : 6012
# req kind : READ
# m mon rid : 3760
# req kind_e : WRITE
# UVM_INFO ../env/axi_sb.sv(67) @ 845: uvm_test_top.env_h.sb_h [after event in sb] aaaa
# UVM_INFO ../env/axi_sb.sv(65) @ 845: uvm_test_top.env_h.sb_h [before event in sb] aaaa
# match arid : 0 , rid : 0
# UVM_INFO ../env/s_agent/axi_s_drv.sv(31) @ 845: uvm_test_top.env_h.s_uvc_h.s_agent_h[0].s_drv_h [ID MATCH] aaaaa
# s seqs arid : 39064
# INIDE_SLAVE_SEQ_CTR=24
# match arid : 9898 , rid : 9898
# UVM_INFO ../env/s_agent/axi_s_drv.sv(31) @ 845: uvm_test_top.env_h.s_uvc_h.s_agent_h[0].s_drv_h [ID MATCH] aaaaa
# rd data in s drv: f8000000 , len : 3 , last:0 , valid : 1
#                  855wlast : 0
# WID: 6012 , AWID : 6012
# m mon rid : ad41
# rd data in s drv: c2374bc8 , len : 3 , last:0 , valid : 1
#                  865wlast : 0
# WID: 6012 , AWID : 6012
# m mon rid : ad41
# UVM_INFO ../env/m_agent/axi_base_m_seqs.sv(26) @ 865: uvm_test_top.env_h.m_uvc_h.m_agent_h[0].m_seqr_h@@vseqs_h.m_wseqs_h [IN V SEQS] Got B-channel response from driver
# rd data in s drv: 38d4c252 , len : 3 , last:0 , valid : 1
#                  875wlast : 0
# WID: 6012 , AWID : 6012
# m mon rid : ad41
# rd data in s drv: d10bfa61 , len : 3 , last:1 , valid : 1
# abc : 1
# ref model mem : 87
# abc : 2
# ref model mem : 88
# abc : 3
# ref model mem : 89
# abc : 4
# ref model mem : 90
# xyz : 1
# xyz : 2
# xyz : 3
# xyz : 4
#                  885wlast : 1
# AFFTER W CHANNEL
# WID: 26141 , AWID : 26141
# req kind : READ
# m mon rid : ad41
# req kind_e : WRITE
# UVM_INFO ../env/axi_sb.sv(67) @ 885: uvm_test_top.env_h.sb_h [after event in sb] aaaa
# UVM_INFO ../env/axi_sb.sv(65) @ 885: uvm_test_top.env_h.sb_h [before event in sb] aaaa
# match arid : 0 , rid : 0
# UVM_INFO ../env/s_agent/axi_s_drv.sv(31) @ 885: uvm_test_top.env_h.s_uvc_h.s_agent_h[0].s_drv_h [ID MATCH] aaaaa
# s seqs arid : 62773
# INIDE_SLAVE_SEQ_CTR=25
# match arid : f535 , rid : f535
# UVM_INFO ../env/s_agent/axi_s_drv.sv(31) @ 885: uvm_test_top.env_h.s_uvc_h.s_agent_h[0].s_drv_h [ID MATCH] aaaaa
# rd data in s drv: 194e0000 , len : 3 , last:0 , valid : 1
#                  895wlast : 0
# WID: 26141 , AWID : 26141
# m mon rid : 85e1
# rd data in s drv: 55ae3a3a , len : 3 , last:0 , valid : 1
#                  905wlast : 0
# WID: 26141 , AWID : 26141
# m mon rid : 85e1
# UVM_INFO ../env/m_agent/axi_base_m_seqs.sv(26) @ 905: uvm_test_top.env_h.m_uvc_h.m_agent_h[0].m_seqr_h@@vseqs_h.m_wseqs_h [IN V SEQS] Got B-channel response from driver
# rd data in s drv: 98339ceb , len : 3 , last:0 , valid : 1
#                  915wlast : 0
# WID: 26141 , AWID : 26141
# m mon rid : 85e1
# rd data in s drv: 2bbfbc60 , len : 3 , last:1 , valid : 1
# abc : 1
# ref model mem : 297
# abc : 2
# ref model mem : 298
# abc : 3
# ref model mem : 299
# abc : 4
# ref model mem : 300
# xyz : 1
# xyz : 2
# xyz : 3
# xyz : 4
#                  925wlast : 1
# AFFTER W CHANNEL
# WID: 59295 , AWID : 59295
# req kind : READ
# m mon rid : 85e1
# req kind_e : WRITE
# UVM_INFO ../env/axi_sb.sv(67) @ 925: uvm_test_top.env_h.sb_h [after event in sb] aaaa
# UVM_INFO ../env/axi_sb.sv(65) @ 925: uvm_test_top.env_h.sb_h [before event in sb] aaaa
# match arid : 0 , rid : 0
# UVM_INFO ../env/s_agent/axi_s_drv.sv(31) @ 925: uvm_test_top.env_h.s_uvc_h.s_agent_h[0].s_drv_h [ID MATCH] aaaaa
# s seqs arid : 60350
# INIDE_SLAVE_SEQ_CTR=26
# match arid : ebbe , rid : ebbe
# UVM_INFO ../env/s_agent/axi_s_drv.sv(31) @ 925: uvm_test_top.env_h.s_uvc_h.s_agent_h[0].s_drv_h [ID MATCH] aaaaa
# rd data in s drv: efe6ee00 , len : 3 , last:0 , valid : 1
#                  935wlast : 0
# WID: 59295 , AWID : 59295
# m mon rid : 9fae
# rd data in s drv: 83d11aa2 , len : 3 , last:0 , valid : 1
#                  945wlast : 0
# WID: 59295 , AWID : 59295
# m mon rid : 9fae
# UVM_INFO ../env/m_agent/axi_base_m_seqs.sv(26) @ 945: uvm_test_top.env_h.m_uvc_h.m_agent_h[0].m_seqr_h@@vseqs_h.m_wseqs_h [IN V SEQS] Got B-channel response from driver
# rd data in s drv: 489eab56 , len : 3 , last:0 , valid : 1
#                  955wlast : 0
# WID: 59295 , AWID : 59295
# m mon rid : 9fae
# rd data in s drv: e3dafdae , len : 3 , last:1 , valid : 1
# abc : 1
# ref model mem : 917
# abc : 2
# ref model mem : 918
# abc : 3
# ref model mem : 919
# abc : 4
# ref model mem : 920
# xyz : 1
# xyz : 2
# xyz : 3
# xyz : 4
#                  965wlast : 1
# AFFTER W CHANNEL
# WID: 23954 , AWID : 23954
# req kind : READ
# m mon rid : 9fae
# req kind_e : WRITE
# UVM_INFO ../env/axi_sb.sv(67) @ 965: uvm_test_top.env_h.sb_h [after event in sb] aaaa
# UVM_INFO ../env/axi_sb.sv(65) @ 965: uvm_test_top.env_h.sb_h [before event in sb] aaaa
# match arid : 0 , rid : 0
# UVM_INFO ../env/s_agent/axi_s_drv.sv(31) @ 965: uvm_test_top.env_h.s_uvc_h.s_agent_h[0].s_drv_h [ID MATCH] aaaaa
# s seqs arid : 45043
# INIDE_SLAVE_SEQ_CTR=27
# match arid : aff3 , rid : aff3
# UVM_INFO ../env/s_agent/axi_s_drv.sv(31) @ 965: uvm_test_top.env_h.s_uvc_h.s_agent_h[0].s_drv_h [ID MATCH] aaaaa
# rd data in s drv: d48e2600 , len : 3 , last:0 , valid : 1
#                  975wlast : 0
# WID: 23954 , AWID : 23954
# m mon rid : 9898
# rd data in s drv: 8fdf6496 , len : 3 , last:0 , valid : 1
#                  985wlast : 0
# WID: 23954 , AWID : 23954
# m mon rid : 9898
# UVM_INFO ../env/m_agent/axi_base_m_seqs.sv(26) @ 985: uvm_test_top.env_h.m_uvc_h.m_agent_h[0].m_seqr_h@@vseqs_h.m_wseqs_h [IN V SEQS] Got B-channel response from driver
# rd data in s drv: 948f84bc , len : 3 , last:0 , valid : 1
#                  995wlast : 0
# WID: 23954 , AWID : 23954
# m mon rid : 9898
# rd data in s drv: d1fa8698 , len : 3 , last:1 , valid : 1
# abc : 1
# ref model mem : 764
# abc : 2
# ref model mem : 765
# abc : 3
# ref model mem : 766
# abc : 4
# ref model mem : 767
# xyz : 1
# xyz : 2
# xyz : 3
# xyz : 4
#                 1005wlast : 1
# AFFTER W CHANNEL
# WID: 29878 , AWID : 29878
# req kind : READ
# m mon rid : 9898
# req kind_e : WRITE
# UVM_INFO ../env/axi_sb.sv(67) @ 1005: uvm_test_top.env_h.sb_h [after event in sb] aaaa
# UVM_INFO ../env/axi_sb.sv(65) @ 1005: uvm_test_top.env_h.sb_h [before event in sb] aaaa
# match arid : 0 , rid : 0
# UVM_INFO ../env/s_agent/axi_s_drv.sv(31) @ 1005: uvm_test_top.env_h.s_uvc_h.s_agent_h[0].s_drv_h [ID MATCH] aaaaa
# s seqs arid : 15796
# INIDE_SLAVE_SEQ_CTR=28
# match arid : 3db4 , rid : 3db4
# UVM_INFO ../env/s_agent/axi_s_drv.sv(31) @ 1005: uvm_test_top.env_h.s_uvc_h.s_agent_h[0].s_drv_h [ID MATCH] aaaaa
# rd data in s drv: 8e20000 , len : 3 , last:0 , valid : 1
#                 1015wlast : 0
# WID: 29878 , AWID : 29878
# m mon rid : f535
# rd data in s drv: e2de1c47 , len : 3 , last:0 , valid : 1
#                 1025wlast : 0
# WID: 29878 , AWID : 29878
# m mon rid : f535
# UVM_INFO ../env/m_agent/axi_base_m_seqs.sv(26) @ 1025: uvm_test_top.env_h.m_uvc_h.m_agent_h[0].m_seqr_h@@vseqs_h.m_wseqs_h [IN V SEQS] Got B-channel response from driver
# rd data in s drv: db900cc0 , len : 3 , last:0 , valid : 1
#                 1035wlast : 0
# WID: 29878 , AWID : 29878
# m mon rid : f535
# rd data in s drv: 50435ffc , len : 3 , last:1 , valid : 1
# abc : 1
# ref model mem : 583
# abc : 2
# ref model mem : 584
# abc : 3
# ref model mem : 585
# abc : 4
# ref model mem : 586
# xyz : 1
# xyz : 2
# xyz : 3
# xyz : 4
#                 1045wlast : 1
# AFFTER W CHANNEL
# WID: 10880 , AWID : 10880
# req kind : READ
# m mon rid : f535
# req kind_e : WRITE
# UVM_INFO ../env/axi_sb.sv(67) @ 1045: uvm_test_top.env_h.sb_h [after event in sb] aaaa
# UVM_INFO ../env/axi_sb.sv(65) @ 1045: uvm_test_top.env_h.sb_h [before event in sb] aaaa
# match arid : 0 , rid : 0
# UVM_INFO ../env/s_agent/axi_s_drv.sv(31) @ 1045: uvm_test_top.env_h.s_uvc_h.s_agent_h[0].s_drv_h [ID MATCH] aaaaa
# s seqs arid : 64427
# INIDE_SLAVE_SEQ_CTR=29
# match arid : fbab , rid : fbab
# UVM_INFO ../env/s_agent/axi_s_drv.sv(31) @ 1045: uvm_test_top.env_h.s_uvc_h.s_agent_h[0].s_drv_h [ID MATCH] aaaaa
# rd data in s drv: 57e01e0e , len : 3 , last:0 , valid : 1
#                 1055wlast : 0
# WID: 10880 , AWID : 10880
# m mon rid : ebbe
# rd data in s drv: c61a22ea , len : 3 , last:0 , valid : 1
#                 1065wlast : 0
# WID: 10880 , AWID : 10880
# m mon rid : ebbe
# UVM_INFO ../env/m_agent/axi_base_m_seqs.sv(26) @ 1065: uvm_test_top.env_h.m_uvc_h.m_agent_h[0].m_seqr_h@@vseqs_h.m_wseqs_h [IN V SEQS] Got B-channel response from driver
# rd data in s drv: f6be4664 , len : 3 , last:0 , valid : 1
#                 1075wlast : 0
# WID: 10880 , AWID : 10880
# m mon rid : ebbe
# rd data in s drv: 437ddebe , len : 3 , last:1 , valid : 1
# abc : 1
# ref model mem : 520
# abc : 2
# ref model mem : 521
# abc : 3
# ref model mem : 522
# abc : 4
# ref model mem : 523
# xyz : 1
# xyz : 2
# xyz : 3
# xyz : 4
#                 1085wlast : 1
# AFFTER W CHANNEL
# WID: 8187 , AWID : 8187
# req kind : READ
# m mon rid : ebbe
# req kind_e : WRITE
# UVM_INFO ../env/axi_sb.sv(67) @ 1085: uvm_test_top.env_h.sb_h [after event in sb] aaaa
# UVM_INFO ../env/axi_sb.sv(65) @ 1085: uvm_test_top.env_h.sb_h [before event in sb] aaaa
# match arid : 0 , rid : 0
# UVM_INFO ../env/s_agent/axi_s_drv.sv(31) @ 1085: uvm_test_top.env_h.s_uvc_h.s_agent_h[0].s_drv_h [ID MATCH] aaaaa
# s seqs arid : 15132
# INIDE_SLAVE_SEQ_CTR=30
# match arid : 3b1c , rid : 3b1c
# UVM_INFO ../env/s_agent/axi_s_drv.sv(31) @ 1085: uvm_test_top.env_h.s_uvc_h.s_agent_h[0].s_drv_h [ID MATCH] aaaaa
# rd data in s drv: 9a338bb3 , len : 3 , last:0 , valid : 1
#                 1095wlast : 0
# WID: 8187 , AWID : 8187
# m mon rid : aff3
# rd data in s drv: 86b7504d , len : 3 , last:0 , valid : 1
#                 1105wlast : 0
# WID: 8187 , AWID : 8187
# m mon rid : aff3
# UVM_INFO ../env/m_agent/axi_base_m_seqs.sv(26) @ 1105: uvm_test_top.env_h.m_uvc_h.m_agent_h[0].m_seqr_h@@vseqs_h.m_wseqs_h [IN V SEQS] Got B-channel response from driver
# rd data in s drv: a97bcad2 , len : 3 , last:0 , valid : 1
#                 1115wlast : 0
# WID: 8187 , AWID : 8187
# m mon rid : aff3
# rd data in s drv: b365884c , len : 3 , last:1 , valid : 1
# abc : 1
# ref model mem : 44
# abc : 2
# ref model mem : 45
# abc : 3
# ref model mem : 46
# abc : 4
# ref model mem : 47
# xyz : 1
# xyz : 2
# xyz : 3
# xyz : 4
#                 1125wlast : 1
# AFFTER W CHANNEL
# WID: 17206 , AWID : 17206
# req kind : READ
# m mon rid : aff3
# req kind_e : WRITE
# UVM_INFO ../env/axi_sb.sv(67) @ 1125: uvm_test_top.env_h.sb_h [after event in sb] aaaa
# UVM_INFO ../env/axi_sb.sv(65) @ 1125: uvm_test_top.env_h.sb_h [before event in sb] aaaa
# match arid : 0 , rid : 0
# UVM_INFO ../env/s_agent/axi_s_drv.sv(31) @ 1125: uvm_test_top.env_h.s_uvc_h.s_agent_h[0].s_drv_h [ID MATCH] aaaaa
# s seqs arid : 25003
# INIDE_SLAVE_SEQ_CTR=31
# match arid : 61ab , rid : 61ab
# UVM_INFO ../env/s_agent/axi_s_drv.sv(31) @ 1125: uvm_test_top.env_h.s_uvc_h.s_agent_h[0].s_drv_h [ID MATCH] aaaaa
# rd data in s drv: db000000 , len : 3 , last:0 , valid : 1
#                 1135wlast : 0
# WID: 17206 , AWID : 17206
# m mon rid : 3db4
# rd data in s drv: a5565310 , len : 3 , last:0 , valid : 1
#                 1145wlast : 0
# WID: 17206 , AWID : 17206
# m mon rid : 3db4
# UVM_INFO ../env/m_agent/axi_base_m_seqs.sv(26) @ 1145: uvm_test_top.env_h.m_uvc_h.m_agent_h[0].m_seqr_h@@vseqs_h.m_wseqs_h [IN V SEQS] Got B-channel response from driver
# rd data in s drv: affeddb5 , len : 3 , last:0 , valid : 1
#                 1155wlast : 0
# WID: 17206 , AWID : 17206
# m mon rid : 3db4
# rd data in s drv: 7f9f11df , len : 3 , last:1 , valid : 1
# abc : 1
# ref model mem : 551
# abc : 2
# ref model mem : 552
# abc : 3
# ref model mem : 553
# abc : 4
# ref model mem : 554
# xyz : 1
# xyz : 2
# xyz : 3
# xyz : 4
#                 1165wlast : 1
# AFFTER W CHANNEL
# WID: 10359 , AWID : 10359
# req kind : READ
# m mon rid : 3db4
# req kind_e : WRITE
# UVM_INFO ../env/axi_sb.sv(67) @ 1165: uvm_test_top.env_h.sb_h [after event in sb] aaaa
# UVM_INFO ../env/axi_sb.sv(65) @ 1165: uvm_test_top.env_h.sb_h [before event in sb] aaaa
# match arid : 0 , rid : 0
# UVM_INFO ../env/s_agent/axi_s_drv.sv(31) @ 1165: uvm_test_top.env_h.s_uvc_h.s_agent_h[0].s_drv_h [ID MATCH] aaaaa
# s seqs arid : 51408
# INIDE_SLAVE_SEQ_CTR=32
# match arid : c8d0 , rid : c8d0
# UVM_INFO ../env/s_agent/axi_s_drv.sv(31) @ 1165: uvm_test_top.env_h.s_uvc_h.s_agent_h[0].s_drv_h [ID MATCH] aaaaa
# rd data in s drv: 96280000 , len : 3 , last:0 , valid : 1
#                 1175wlast : 0
# WID: 10359 , AWID : 10359
# m mon rid : fbab
# rd data in s drv: ce5fb8ab , len : 3 , last:0 , valid : 1
#                 1185wlast : 0
# WID: 10359 , AWID : 10359
# m mon rid : fbab
# UVM_INFO ../env/m_agent/axi_base_m_seqs.sv(26) @ 1185: uvm_test_top.env_h.m_uvc_h.m_agent_h[0].m_seqr_h@@vseqs_h.m_wseqs_h [IN V SEQS] Got B-channel response from driver
# rd data in s drv: 476e8e07 , len : 3 , last:0 , valid : 1
#                 1195wlast : 0
# WID: 10359 , AWID : 10359
# m mon rid : fbab
# rd data in s drv: c87e607f , len : 3 , last:1 , valid : 1
# abc : 1
# ref model mem : 356
# abc : 2
# ref model mem : 357
# abc : 3
# ref model mem : 358
# abc : 4
# ref model mem : 359
# xyz : 1
# xyz : 2
# xyz : 3
# xyz : 4
#                 1205wlast : 1
# AFFTER W CHANNEL
# WID: 857 , AWID : 857
# req kind : READ
# m mon rid : fbab
# req kind_e : WRITE
# UVM_INFO ../env/axi_sb.sv(67) @ 1205: uvm_test_top.env_h.sb_h [after event in sb] aaaa
# UVM_INFO ../env/axi_sb.sv(65) @ 1205: uvm_test_top.env_h.sb_h [before event in sb] aaaa
# match arid : 0 , rid : 0
# UVM_INFO ../env/s_agent/axi_s_drv.sv(31) @ 1205: uvm_test_top.env_h.s_uvc_h.s_agent_h[0].s_drv_h [ID MATCH] aaaaa
# s seqs arid : 29970
# INIDE_SLAVE_SEQ_CTR=33
# match arid : 7512 , rid : 7512
# UVM_INFO ../env/s_agent/axi_s_drv.sv(31) @ 1205: uvm_test_top.env_h.s_uvc_h.s_agent_h[0].s_drv_h [ID MATCH] aaaaa
# rd data in s drv: 2000000 , len : 3 , last:0 , valid : 1
#                 1215wlast : 0
# WID: 857 , AWID : 857
# m mon rid : 3b1c
# rd data in s drv: cf1f676d , len : 3 , last:0 , valid : 1
#                 1225wlast : 0
# WID: 857 , AWID : 857
# m mon rid : 3b1c
# UVM_INFO ../env/m_agent/axi_base_m_seqs.sv(26) @ 1225: uvm_test_top.env_h.m_uvc_h.m_agent_h[0].m_seqr_h@@vseqs_h.m_wseqs_h [IN V SEQS] Got B-channel response from driver
# rd data in s drv: 502dab8a , len : 3 , last:0 , valid : 1
#                 1235wlast : 0
# WID: 857 , AWID : 857
# m mon rid : 3b1c
# rd data in s drv: aee101a , len : 3 , last:1 , valid : 1
# abc : 1
# ref model mem : 540
# abc : 2
# ref model mem : 541
# abc : 3
# ref model mem : 542
# abc : 4
# ref model mem : 543
# xyz : 1
# xyz : 2
# xyz : 3
# xyz : 4
#                 1245wlast : 1
# AFFTER W CHANNEL
# WID: 14014 , AWID : 14014
# req kind : READ
# m mon rid : 3b1c
# req kind_e : WRITE
# UVM_INFO ../env/axi_sb.sv(67) @ 1245: uvm_test_top.env_h.sb_h [after event in sb] aaaa
# UVM_INFO ../env/axi_sb.sv(65) @ 1245: uvm_test_top.env_h.sb_h [before event in sb] aaaa
# match arid : 0 , rid : 0
# UVM_INFO ../env/s_agent/axi_s_drv.sv(31) @ 1245: uvm_test_top.env_h.s_uvc_h.s_agent_h[0].s_drv_h [ID MATCH] aaaaa
# s seqs arid : 11395
# INIDE_SLAVE_SEQ_CTR=34
# match arid : 2c83 , rid : 2c83
# UVM_INFO ../env/s_agent/axi_s_drv.sv(31) @ 1245: uvm_test_top.env_h.s_uvc_h.s_agent_h[0].s_drv_h [ID MATCH] aaaaa
# rd data in s drv: c0000000 , len : 3 , last:0 , valid : 1
#                 1255wlast : 0
# WID: 14014 , AWID : 14014
# m mon rid : 61ab
# rd data in s drv: 73a7f155 , len : 3 , last:0 , valid : 1
#                 1265wlast : 0
# WID: 14014 , AWID : 14014
# m mon rid : 61ab
# UVM_INFO ../env/m_agent/axi_base_m_seqs.sv(26) @ 1265: uvm_test_top.env_h.m_uvc_h.m_agent_h[0].m_seqr_h@@vseqs_h.m_wseqs_h [IN V SEQS] Got B-channel response from driver
# rd data in s drv: bf796793 , len : 3 , last:0 , valid : 1
#                 1275wlast : 0
# WID: 14014 , AWID : 14014
# m mon rid : 61ab
# rd data in s drv: 4f00fd62 , len : 3 , last:1 , valid : 1
# abc : 1
# ref model mem : 868
# abc : 2
# ref model mem : 869
# abc : 3
# ref model mem : 870
# abc : 4
# ref model mem : 871
# xyz : 1
# xyz : 2
# xyz : 3
# xyz : 4
# xyz : 5
# xyz : 6
# xyz : 7
# ** Warning: (vsim-3829) Non-existent associative array entry. Returning default value.
#    Time: 1285 ns  Iteration: 2  Process: /axi_s_agent_pkg::axi_s_mon #(32, 32)::monitor/#FORK#34_7fefec26b8e File: ../env/axi_ref_model.sv Line: 79
# xyz : 8
#                 1285wlast : 1
# AFFTER W CHANNEL
# WID: 12583 , AWID : 12583
# req kind : READ
# m mon rid : 61ab
# req kind_e : WRITE
# UVM_INFO ../env/axi_sb.sv(67) @ 1285: uvm_test_top.env_h.sb_h [after event in sb] aaaa
# UVM_INFO ../env/axi_sb.sv(65) @ 1285: uvm_test_top.env_h.sb_h [before event in sb] aaaa
# match arid : 0 , rid : 0
# UVM_INFO ../env/s_agent/axi_s_drv.sv(31) @ 1285: uvm_test_top.env_h.s_uvc_h.s_agent_h[0].s_drv_h [ID MATCH] aaaaa
# s seqs arid : 43166
# INIDE_SLAVE_SEQ_CTR=35
# match arid : a89e , rid : a89e
# UVM_INFO ../env/s_agent/axi_s_drv.sv(31) @ 1285: uvm_test_top.env_h.s_uvc_h.s_agent_h[0].s_drv_h [ID MATCH] aaaaa
# ** Warning: (vsim-3829) Non-existent associative array entry. Returning default value.
#    Time: 1285 ns  Iteration: 12  Process: /uvm_pkg::uvm_sequence_base::start/#FORK#294_7fefec268bc File: ../env/s_agent/axi_base_s_seqs.sv Line: 103
# s seqs arid : 12754
# INIDE_SLAVE_SEQ_CTR=36
# match arid : 31d2 , rid : 31d2
# UVM_INFO ../env/s_agent/axi_s_drv.sv(31) @ 1285: uvm_test_top.env_h.s_uvc_h.s_agent_h[0].s_drv_h [ID MATCH] aaaaa
# rd data in s drv: efca0000 , len : 3 , last:0 , valid : 1
#                 1295wlast : 0
# WID: 12583 , AWID : 12583
# m mon rid : c8d0
# rd data in s drv: d90a2ccc , len : 3 , last:0 , valid : 1
#                 1305wlast : 0
# WID: 12583 , AWID : 12583
# m mon rid : c8d0
# UVM_INFO ../env/m_agent/axi_base_m_seqs.sv(26) @ 1305: uvm_test_top.env_h.m_uvc_h.m_agent_h[0].m_seqr_h@@vseqs_h.m_wseqs_h [IN V SEQS] Got B-channel response from driver
# rd data in s drv: 3e39828c , len : 3 , last:0 , valid : 1
#                 1315wlast : 0
# WID: 12583 , AWID : 12583
# m mon rid : c8d0
# rd data in s drv: b8949cb7 , len : 3 , last:1 , valid : 1
# abc : 1
# ref model mem : 947
# abc : 2
# ref model mem : 948
# abc : 3
# ref model mem : 949
# abc : 4
# ref model mem : 950
# xyz : 1
# xyz : 2
# xyz : 3
# xyz : 4
# xyz : 5
# xyz : 6
# xyz : 7
# ** Warning: (vsim-3829) Non-existent associative array entry. Returning default value.
#    Time: 1325 ns  Iteration: 2  Process: /axi_s_agent_pkg::axi_s_mon #(32, 32)::monitor/#FORK#34_7fefec26b8e File: ../env/axi_ref_model.sv Line: 79
# xyz : 8
#                 1325wlast : 1
# AFFTER W CHANNEL
# WID: 21072 , AWID : 21072
# req kind : READ
# m mon rid : c8d0
# req kind_e : WRITE
# UVM_INFO ../env/axi_sb.sv(67) @ 1325: uvm_test_top.env_h.sb_h [after event in sb] aaaa
# UVM_INFO ../env/axi_sb.sv(65) @ 1325: uvm_test_top.env_h.sb_h [before event in sb] aaaa
# match arid : 0 , rid : 0
# UVM_INFO ../env/s_agent/axi_s_drv.sv(31) @ 1325: uvm_test_top.env_h.s_uvc_h.s_agent_h[0].s_drv_h [ID MATCH] aaaaa
# s seqs arid : 11187
# INIDE_SLAVE_SEQ_CTR=37
# match arid : 2bb3 , rid : 2bb3
# UVM_INFO ../env/s_agent/axi_s_drv.sv(31) @ 1325: uvm_test_top.env_h.s_uvc_h.s_agent_h[0].s_drv_h [ID MATCH] aaaaa
# ** Warning: (vsim-3829) Non-existent associative array entry. Returning default value.
#    Time: 1325 ns  Iteration: 12  Process: /uvm_pkg::uvm_sequence_base::start/#FORK#294_7fefec268bc File: ../env/s_agent/axi_base_s_seqs.sv Line: 103
# s seqs arid : 9563
# INIDE_SLAVE_SEQ_CTR=38
# match arid : 255b , rid : 255b
# UVM_INFO ../env/s_agent/axi_s_drv.sv(31) @ 1325: uvm_test_top.env_h.s_uvc_h.s_agent_h[0].s_drv_h [ID MATCH] aaaaa
# rd data in s drv: bf000000 , len : 3 , last:0 , valid : 1
#                 1335wlast : 0
# WID: 21072 , AWID : 21072
# m mon rid : 7512
# rd data in s drv: 5c22a82a , len : 3 , last:0 , valid : 1
#                 1345wlast : 0
# WID: 21072 , AWID : 21072
# m mon rid : 7512
# UVM_INFO ../env/m_agent/axi_base_m_seqs.sv(26) @ 1345: uvm_test_top.env_h.m_uvc_h.m_agent_h[0].m_seqr_h@@vseqs_h.m_wseqs_h [IN V SEQS] Got B-channel response from driver
# rd data in s drv: 17d9543d , len : 3 , last:0 , valid : 1
#                 1355wlast : 0
# WID: 21072 , AWID : 21072
# m mon rid : 7512
# rd data in s drv: 7cb0c74f , len : 3 , last:1 , valid : 1
# abc : 1
# ref model mem : 436
# abc : 2
# ref model mem : 437
# abc : 3
# ref model mem : 438
# abc : 4
# ref model mem : 439
# xyz : 1
# xyz : 2
# xyz : 3
# xyz : 4
#                 1365wlast : 1
# AFFTER W CHANNEL
# WID: 12011 , AWID : 12011
# req kind : READ
# m mon rid : 7512
# req kind_e : WRITE
# UVM_INFO ../env/axi_sb.sv(67) @ 1365: uvm_test_top.env_h.sb_h [after event in sb] aaaa
# UVM_INFO ../env/axi_sb.sv(65) @ 1365: uvm_test_top.env_h.sb_h [before event in sb] aaaa
# match arid : 0 , rid : 0
# UVM_INFO ../env/s_agent/axi_s_drv.sv(31) @ 1365: uvm_test_top.env_h.s_uvc_h.s_agent_h[0].s_drv_h [ID MATCH] aaaaa
# s seqs arid : 5180
# INIDE_SLAVE_SEQ_CTR=39
# match arid : 143c , rid : 143c
# UVM_INFO ../env/s_agent/axi_s_drv.sv(31) @ 1365: uvm_test_top.env_h.s_uvc_h.s_agent_h[0].s_drv_h [ID MATCH] aaaaa
# rd data in s drv: 79000000 , len : 3 , last:0 , valid : 1
#                 1375wlast : 0
# WID: 12011 , AWID : 12011
# m mon rid : 2c83
# rd data in s drv: 28ab3b47 , len : 3 , last:0 , valid : 1
#                 1385wlast : 0
# WID: 12011 , AWID : 12011
# m mon rid : 2c83
# UVM_INFO ../env/m_agent/axi_base_m_seqs.sv(26) @ 1385: uvm_test_top.env_h.m_uvc_h.m_agent_h[0].m_seqr_h@@vseqs_h.m_wseqs_h [IN V SEQS] Got B-channel response from driver
# rd data in s drv: 1734046b , len : 3 , last:0 , valid : 1
#                 1395wlast : 0
# WID: 12011 , AWID : 12011
# m mon rid : 2c83
# rd data in s drv: dd4d13b4 , len : 3 , last:1 , valid : 1
# abc : 1
# ref model mem : 475
# abc : 2
# ref model mem : 476
# abc : 3
# ref model mem : 477
# abc : 4
# ref model mem : 478
# xyz : 1
# xyz : 2
# xyz : 3
# xyz : 4
#                 1405wlast : 1
# AFFTER W CHANNEL
# WID: 11344 , AWID : 11344
# req kind : READ
# m mon rid : 2c83
# req kind_e : WRITE
# UVM_INFO ../env/axi_sb.sv(67) @ 1405: uvm_test_top.env_h.sb_h [after event in sb] aaaa
# UVM_INFO ../env/axi_sb.sv(65) @ 1405: uvm_test_top.env_h.sb_h [before event in sb] aaaa
# match arid : 0 , rid : 0
# UVM_INFO ../env/s_agent/axi_s_drv.sv(31) @ 1405: uvm_test_top.env_h.s_uvc_h.s_agent_h[0].s_drv_h [ID MATCH] aaaaa
# s seqs arid : 33047
# INIDE_SLAVE_SEQ_CTR=40
# match arid : 8117 , rid : 8117
# UVM_INFO ../env/s_agent/axi_s_drv.sv(31) @ 1405: uvm_test_top.env_h.s_uvc_h.s_agent_h[0].s_drv_h [ID MATCH] aaaaa
# rd data in s drv: f3000000 , len : 3 , last:0 , valid : 1
#                 1415wlast : 0
# WID: 11344 , AWID : 11344
# m mon rid : a89e
# rd data in s drv: 94eb1e7c , len : 3 , last:0 , valid : 1
#                 1425wlast : 0
# WID: 11344 , AWID : 11344
# m mon rid : a89e
# UVM_INFO ../env/m_agent/axi_base_m_seqs.sv(26) @ 1425: uvm_test_top.env_h.m_uvc_h.m_agent_h[0].m_seqr_h@@vseqs_h.m_wseqs_h [IN V SEQS] Got B-channel response from driver
# rd data in s drv: 57bb5f55 , len : 3 , last:0 , valid : 1
#                 1435wlast : 0
# WID: 11344 , AWID : 11344
# m mon rid : a89e
# rd data in s drv: cdaaffbf , len : 3 , last:1 , valid : 1
# abc : 1
# ref model mem : 328
# abc : 2
# ref model mem : 329
# abc : 3
# ref model mem : 330
# abc : 4
# ref model mem : 331
# xyz : 1
# xyz : 2
# xyz : 3
# xyz : 4
#                 1445wlast : 1
# AFFTER W CHANNEL
# WID: 33036 , AWID : 33036
# req kind : READ
# m mon rid : a89e
# req kind_e : WRITE
# UVM_INFO ../env/axi_sb.sv(67) @ 1445: uvm_test_top.env_h.sb_h [after event in sb] aaaa
# UVM_INFO ../env/axi_sb.sv(65) @ 1445: uvm_test_top.env_h.sb_h [before event in sb] aaaa
# match arid : 0 , rid : 0
# UVM_INFO ../env/s_agent/axi_s_drv.sv(31) @ 1445: uvm_test_top.env_h.s_uvc_h.s_agent_h[0].s_drv_h [ID MATCH] aaaaa
# s seqs arid : 41870
# INIDE_SLAVE_SEQ_CTR=41
# match arid : a38e , rid : a38e
# UVM_INFO ../env/s_agent/axi_s_drv.sv(31) @ 1445: uvm_test_top.env_h.s_uvc_h.s_agent_h[0].s_drv_h [ID MATCH] aaaaa
# rd data in s drv: 94eb1e7c , len : 3 , last:0 , valid : 1
#                 1455wlast : 0
# WID: 33036 , AWID : 33036
# m mon rid : 31d2
# rd data in s drv: 57bb5f55 , len : 3 , last:0 , valid : 1
#                 1465wlast : 0
# WID: 33036 , AWID : 33036
# m mon rid : 31d2
# UVM_INFO ../env/m_agent/axi_base_m_seqs.sv(26) @ 1465: uvm_test_top.env_h.m_uvc_h.m_agent_h[0].m_seqr_h@@vseqs_h.m_wseqs_h [IN V SEQS] Got B-channel response from driver
# rd data in s drv: cdaaffbf , len : 3 , last:0 , valid : 1
#                 1475wlast : 0
# WID: 33036 , AWID : 33036
# m mon rid : 31d2
# rd data in s drv: 0 , len : 3 , last:1 , valid : 1
# abc : 1
# ref model mem : 773
# abc : 2
# ref model mem : 774
# abc : 3
# ref model mem : 775
# abc : 4
# ref model mem : 776
#                 1485wlast : 1
# AFFTER W CHANNEL
# WID: 52090 , AWID : 52090
# req kind : READ
# m mon rid : 31d2
# req kind_e : WRITE
# UVM_INFO ../env/axi_sb.sv(67) @ 1485: uvm_test_top.env_h.sb_h [after event in sb] aaaa
# UVM_INFO ../env/axi_sb.sv(65) @ 1485: uvm_test_top.env_h.sb_h [before event in sb] aaaa
# match arid : 0 , rid : 0
# UVM_INFO ../env/s_agent/axi_s_drv.sv(31) @ 1485: uvm_test_top.env_h.s_uvc_h.s_agent_h[0].s_drv_h [ID MATCH] aaaaa
# rd data in s drv: 495e0000 , len : 3 , last:0 , valid : 1
#                 1495wlast : 0
# WID: 52090 , AWID : 52090
# m mon rid : 2bb3
# rd data in s drv: ec4f5585 , len : 3 , last:0 , valid : 1
#                 1505wlast : 0
# WID: 52090 , AWID : 52090
# m mon rid : 2bb3
# UVM_INFO ../env/m_agent/axi_base_m_seqs.sv(26) @ 1505: uvm_test_top.env_h.m_uvc_h.m_agent_h[0].m_seqr_h@@vseqs_h.m_wseqs_h [IN V SEQS] Got B-channel response from driver
# rd data in s drv: c8fa413b , len : 3 , last:0 , valid : 1
#                 1515wlast : 0
# WID: 52090 , AWID : 52090
# m mon rid : 2bb3
# rd data in s drv: 9bf6d0bf , len : 3 , last:1 , valid : 1
# abc : 1
# ref model mem : 205
# abc : 2
# ref model mem : 206
# abc : 3
# ref model mem : 207
# abc : 4
# ref model mem : 208
#                 1525wlast : 1
# AFFTER W CHANNEL
# WID: 11006 , AWID : 11006
# req kind : READ
# m mon rid : 2bb3
# req kind_e : WRITE
# UVM_INFO ../env/axi_sb.sv(67) @ 1525: uvm_test_top.env_h.sb_h [after event in sb] aaaa
# UVM_INFO ../env/axi_sb.sv(65) @ 1525: uvm_test_top.env_h.sb_h [before event in sb] aaaa
# match arid : 0 , rid : 0
# UVM_INFO ../env/s_agent/axi_s_drv.sv(31) @ 1525: uvm_test_top.env_h.s_uvc_h.s_agent_h[0].s_drv_h [ID MATCH] aaaaa
# rd data in s drv: ec4f5585 , len : 3 , last:0 , valid : 1
#                 1535wlast : 0
# WID: 11006 , AWID : 11006
# m mon rid : 255b
# rd data in s drv: c8fa413b , len : 3 , last:0 , valid : 1
#                 1545wlast : 0
# WID: 11006 , AWID : 11006
# m mon rid : 255b
# UVM_INFO ../env/m_agent/axi_base_m_seqs.sv(26) @ 1545: uvm_test_top.env_h.m_uvc_h.m_agent_h[0].m_seqr_h@@vseqs_h.m_wseqs_h [IN V SEQS] Got B-channel response from driver
# rd data in s drv: 9bf6d0bf , len : 3 , last:0 , valid : 1
#                 1555wlast : 0
# WID: 11006 , AWID : 11006
# m mon rid : 255b
# rd data in s drv: 0 , len : 3 , last:1 , valid : 1
# abc : 1
# ref model mem : 571
# abc : 2
# ref model mem : 572
# abc : 3
# ref model mem : 573
# abc : 4
# ref model mem : 574
# xyz : 1
# xyz : 2
# xyz : 3
# xyz : 4
#                 1565wlast : 1
# AFFTER W CHANNEL
# WID: 37036 , AWID : 37036
# req kind : READ
# m mon rid : 255b
# req kind_e : WRITE
# UVM_INFO ../env/axi_sb.sv(67) @ 1565: uvm_test_top.env_h.sb_h [after event in sb] aaaa
# UVM_INFO ../env/axi_sb.sv(65) @ 1565: uvm_test_top.env_h.sb_h [before event in sb] aaaa
# match arid : 0 , rid : 0
# UVM_INFO ../env/s_agent/axi_s_drv.sv(31) @ 1565: uvm_test_top.env_h.s_uvc_h.s_agent_h[0].s_drv_h [ID MATCH] aaaaa
# s seqs arid : 29379
# INIDE_SLAVE_SEQ_CTR=42
# match arid : 72c3 , rid : 72c3
# UVM_INFO ../env/s_agent/axi_s_drv.sv(31) @ 1565: uvm_test_top.env_h.s_uvc_h.s_agent_h[0].s_drv_h [ID MATCH] aaaaa
# rd data in s drv: 8d000000 , len : 3 , last:0 , valid : 1
#                 1575wlast : 0
# WID: 37036 , AWID : 37036
# m mon rid : 143c
# rd data in s drv: 34abba76 , len : 3 , last:0 , valid : 1
#                 1585wlast : 0
# WID: 37036 , AWID : 37036
# m mon rid : 143c
# UVM_INFO ../env/m_agent/axi_base_m_seqs.sv(26) @ 1585: uvm_test_top.env_h.m_uvc_h.m_agent_h[0].m_seqr_h@@vseqs_h.m_wseqs_h [IN V SEQS] Got B-channel response from driver
# rd data in s drv: e36d973f , len : 3 , last:0 , valid : 1
#                 1595wlast : 0
# WID: 37036 , AWID : 37036
# m mon rid : 143c
# rd data in s drv: 8a0ee082 , len : 3 , last:1 , valid : 1
# abc : 1
# ref model mem : 678
# abc : 2
# ref model mem : 679
# abc : 3
# ref model mem : 680
# abc : 4
# ref model mem : 681
# xyz : 1
# xyz : 2
# xyz : 3
# xyz : 4
#                 1605wlast : 1
# AFFTER W CHANNEL
# WID: 46798 , AWID : 46798
# req kind : READ
# m mon rid : 143c
# req kind_e : WRITE
# UVM_INFO ../env/axi_sb.sv(67) @ 1605: uvm_test_top.env_h.sb_h [after event in sb] aaaa
# UVM_INFO ../env/axi_sb.sv(65) @ 1605: uvm_test_top.env_h.sb_h [before event in sb] aaaa
# match arid : 0 , rid : 0
# UVM_INFO ../env/s_agent/axi_s_drv.sv(31) @ 1605: uvm_test_top.env_h.s_uvc_h.s_agent_h[0].s_drv_h [ID MATCH] aaaaa
# s seqs arid : 11568
# INIDE_SLAVE_SEQ_CTR=43
# match arid : 2d30 , rid : 2d30
# UVM_INFO ../env/s_agent/axi_s_drv.sv(31) @ 1605: uvm_test_top.env_h.s_uvc_h.s_agent_h[0].s_drv_h [ID MATCH] aaaaa
# rd data in s drv: 60ff0000 , len : 3 , last:0 , valid : 1
#                 1615wlast : 0
# WID: 46798 , AWID : 46798
# m mon rid : 8117
# rd data in s drv: 74412a88 , len : 3 , last:0 , valid : 1
#                 1625wlast : 0
# WID: 46798 , AWID : 46798
# m mon rid : 8117
# UVM_INFO ../env/m_agent/axi_base_m_seqs.sv(26) @ 1625: uvm_test_top.env_h.m_uvc_h.m_agent_h[0].m_seqr_h@@vseqs_h.m_wseqs_h [IN V SEQS] Got B-channel response from driver
# rd data in s drv: 39d9ac53 , len : 3 , last:0 , valid : 1
#                 1635wlast : 0
# WID: 46798 , AWID : 46798
# m mon rid : 8117
# rd data in s drv: 55319476 , len : 3 , last:1 , valid : 1
# abc : 1
# ref model mem : 10
# abc : 2
# ref model mem : 11
# abc : 3
# ref model mem : 12
# abc : 4
# ref model mem : 13
# xyz : 1
# xyz : 2
# xyz : 3
# xyz : 4
#                 1645wlast : 1
# AFFTER W CHANNEL
# WID: 27349 , AWID : 27349
# req kind : READ
# m mon rid : 8117
# req kind_e : WRITE
# UVM_INFO ../env/axi_sb.sv(67) @ 1645: uvm_test_top.env_h.sb_h [after event in sb] aaaa
# UVM_INFO ../env/axi_sb.sv(65) @ 1645: uvm_test_top.env_h.sb_h [before event in sb] aaaa
# match arid : 0 , rid : 0
# UVM_INFO ../env/s_agent/axi_s_drv.sv(31) @ 1645: uvm_test_top.env_h.s_uvc_h.s_agent_h[0].s_drv_h [ID MATCH] aaaaa
# s seqs arid : 16179
# INIDE_SLAVE_SEQ_CTR=44
# match arid : 3f33 , rid : 3f33
# UVM_INFO ../env/s_agent/axi_s_drv.sv(31) @ 1645: uvm_test_top.env_h.s_uvc_h.s_agent_h[0].s_drv_h [ID MATCH] aaaaa
# rd data in s drv: 70000000 , len : 3 , last:0 , valid : 1
#                 1655wlast : 0
# WID: 27349 , AWID : 27349
# m mon rid : a38e
# rd data in s drv: 75d86acf , len : 3 , last:0 , valid : 1
#                 1665wlast : 0
# WID: 27349 , AWID : 27349
# m mon rid : a38e
# UVM_INFO ../env/m_agent/axi_base_m_seqs.sv(26) @ 1665: uvm_test_top.env_h.m_uvc_h.m_agent_h[0].m_seqr_h@@vseqs_h.m_wseqs_h [IN V SEQS] Got B-channel response from driver
# rd data in s drv: 9ff15101 , len : 3 , last:0 , valid : 1
#                 1675wlast : 0
# WID: 27349 , AWID : 27349
# m mon rid : a38e
# rd data in s drv: b3704f99 , len : 3 , last:1 , valid : 1
# abc : 1
# ref model mem : 173
# abc : 2
# ref model mem : 174
# abc : 3
# ref model mem : 175
# abc : 4
# ref model mem : 176
# xyz : 1
# xyz : 2
# xyz : 3
# xyz : 4
#                 1685wlast : 1
# AFFTER W CHANNEL
# WID: 51404 , AWID : 51404
# req kind : READ
# m mon rid : a38e
# req kind_e : WRITE
# UVM_INFO ../env/axi_sb.sv(67) @ 1685: uvm_test_top.env_h.sb_h [after event in sb] aaaa
# UVM_INFO ../env/axi_sb.sv(65) @ 1685: uvm_test_top.env_h.sb_h [before event in sb] aaaa
# match arid : 0 , rid : 0
# UVM_INFO ../env/s_agent/axi_s_drv.sv(31) @ 1685: uvm_test_top.env_h.s_uvc_h.s_agent_h[0].s_drv_h [ID MATCH] aaaaa
# s seqs arid : 60092
# INIDE_SLAVE_SEQ_CTR=45
# match arid : eabc , rid : eabc
# UVM_INFO ../env/s_agent/axi_s_drv.sv(31) @ 1685: uvm_test_top.env_h.s_uvc_h.s_agent_h[0].s_drv_h [ID MATCH] aaaaa
# rd data in s drv: b97c0000 , len : 3 , last:0 , valid : 1
#                 1695wlast : 0
# WID: 51404 , AWID : 51404
# m mon rid : 72c3
# rd data in s drv: 4dfeb572 , len : 3 , last:0 , valid : 1
#                 1705wlast : 0
# WID: 51404 , AWID : 51404
# m mon rid : 72c3
# UVM_INFO ../env/m_agent/axi_base_m_seqs.sv(26) @ 1705: uvm_test_top.env_h.m_uvc_h.m_agent_h[0].m_seqr_h@@vseqs_h.m_wseqs_h [IN V SEQS] Got B-channel response from driver
# rd data in s drv: f680952f , len : 3 , last:0 , valid : 1
#                 1715wlast : 0
# WID: 51404 , AWID : 51404
# m mon rid : 72c3
# rd data in s drv: cb908a76 , len : 3 , last:1 , valid : 1
# abc : 1
# ref model mem : 386
# abc : 2
# ref model mem : 387
# abc : 3
# ref model mem : 388
# abc : 4
# ref model mem : 389
#                 1725wlast : 1
# AFFTER W CHANNEL
# WID: 5078 , AWID : 5078
# req kind : READ
# m mon rid : 72c3
# req kind_e : WRITE
# UVM_INFO ../env/axi_sb.sv(67) @ 1725: uvm_test_top.env_h.sb_h [after event in sb] aaaa
# UVM_INFO ../env/axi_sb.sv(65) @ 1725: uvm_test_top.env_h.sb_h [before event in sb] aaaa
# match arid : 0 , rid : 0
# UVM_INFO ../env/s_agent/axi_s_drv.sv(31) @ 1725: uvm_test_top.env_h.s_uvc_h.s_agent_h[0].s_drv_h [ID MATCH] aaaaa
# rd data in s drv: 1193e100 , len : 3 , last:0 , valid : 1
#                 1735wlast : 0
# WID: 5078 , AWID : 5078
# m mon rid : 2d30
# rd data in s drv: 5b02d89c , len : 3 , last:0 , valid : 1
#                 1745wlast : 0
# WID: 5078 , AWID : 5078
# m mon rid : 2d30
# UVM_INFO ../env/m_agent/axi_base_m_seqs.sv(26) @ 1745: uvm_test_top.env_h.m_uvc_h.m_agent_h[0].m_seqr_h@@vseqs_h.m_wseqs_h [IN V SEQS] Got B-channel response from driver
# rd data in s drv: a6d0e2b8 , len : 3 , last:0 , valid : 1
#                 1755wlast : 0
# WID: 5078 , AWID : 5078
# m mon rid : 2d30
# rd data in s drv: 5f69d455 , len : 3 , last:1 , valid : 1
# abc : 1
# ref model mem : 406
# abc : 2
# ref model mem : 407
# abc : 3
# ref model mem : 408
# abc : 4
# ref model mem : 409
# xyz : 1
# xyz : 2
# xyz : 3
# xyz : 4
#                 1765wlast : 1
# AFFTER W CHANNEL
# WID: 27177 , AWID : 27177
# req kind : READ
# m mon rid : 2d30
# req kind_e : WRITE
# UVM_INFO ../env/axi_sb.sv(67) @ 1765: uvm_test_top.env_h.sb_h [after event in sb] aaaa
# UVM_INFO ../env/axi_sb.sv(65) @ 1765: uvm_test_top.env_h.sb_h [before event in sb] aaaa
# match arid : 0 , rid : 0
# UVM_INFO ../env/s_agent/axi_s_drv.sv(31) @ 1765: uvm_test_top.env_h.s_uvc_h.s_agent_h[0].s_drv_h [ID MATCH] aaaaa
# s seqs arid : 5087
# INIDE_SLAVE_SEQ_CTR=46
# match arid : 13df , rid : 13df
# UVM_INFO ../env/s_agent/axi_s_drv.sv(31) @ 1765: uvm_test_top.env_h.s_uvc_h.s_agent_h[0].s_drv_h [ID MATCH] aaaaa
# rd data in s drv: bd60eb00 , len : 3 , last:0 , valid : 1
#                 1775wlast : 0
# WID: 27177 , AWID : 27177
# m mon rid : 3f33
# rd data in s drv: e5c2eba5 , len : 3 , last:0 , valid : 1
#                 1785wlast : 0
# WID: 27177 , AWID : 27177
# m mon rid : 3f33
# UVM_INFO ../env/m_agent/axi_base_m_seqs.sv(26) @ 1785: uvm_test_top.env_h.m_uvc_h.m_agent_h[0].m_seqr_h@@vseqs_h.m_wseqs_h [IN V SEQS] Got B-channel response from driver
# rd data in s drv: db72182 , len : 3 , last:0 , valid : 1
#                 1795wlast : 0
# WID: 27177 , AWID : 27177
# m mon rid : 3f33
# rd data in s drv: df4c9f38 , len : 3 , last:1 , valid : 1
# abc : 1
# ref model mem : 41
# abc : 2
# ref model mem : 42
# abc : 3
# ref model mem : 43
# abc : 4
# ref model mem : 44
# xyz : 1
# xyz : 2
# xyz : 3
# xyz : 4
#                 1805wlast : 1
# AFFTER W CHANNEL
# WID: 43401 , AWID : 43401
# req kind : READ
# m mon rid : 3f33
# req kind_e : WRITE
# UVM_INFO ../env/axi_sb.sv(67) @ 1805: uvm_test_top.env_h.sb_h [after event in sb] aaaa
# UVM_INFO ../env/axi_sb.sv(65) @ 1805: uvm_test_top.env_h.sb_h [before event in sb] aaaa
# match arid : 0 , rid : 0
# UVM_INFO ../env/s_agent/axi_s_drv.sv(31) @ 1805: uvm_test_top.env_h.s_uvc_h.s_agent_h[0].s_drv_h [ID MATCH] aaaaa
# s seqs arid : 47476
# INIDE_SLAVE_SEQ_CTR=47
# match arid : b974 , rid : b974
# UVM_INFO ../env/s_agent/axi_s_drv.sv(31) @ 1805: uvm_test_top.env_h.s_uvc_h.s_agent_h[0].s_drv_h [ID MATCH] aaaaa
# rd data in s drv: 13ef0fdb , len : 3 , last:0 , valid : 1
#                 1815wlast : 0
# WID: 43401 , AWID : 43401
# m mon rid : eabc
# rd data in s drv: a5f1a70b , len : 3 , last:0 , valid : 1
#                 1825wlast : 0
# WID: 43401 , AWID : 43401
# m mon rid : eabc
# UVM_INFO ../env/m_agent/axi_base_m_seqs.sv(26) @ 1825: uvm_test_top.env_h.m_uvc_h.m_agent_h[0].m_seqr_h@@vseqs_h.m_wseqs_h [IN V SEQS] Got B-channel response from driver
# rd data in s drv: 366bb992 , len : 3 , last:0 , valid : 1
#                 1835wlast : 0
# WID: 43401 , AWID : 43401
# m mon rid : eabc
# rd data in s drv: 182f69bd , len : 3 , last:1 , valid : 1
# abc : 1
# ref model mem : 628
# abc : 2
# ref model mem : 629
# abc : 3
# ref model mem : 630
# abc : 4
# ref model mem : 631
# xyz : 1
# xyz : 2
# xyz : 3
# xyz : 4
#                 1845wlast : 1
# AFFTER W CHANNEL
# WID: 39135 , AWID : 39135
# req kind : READ
# m mon rid : eabc
# req kind_e : WRITE
# UVM_INFO ../env/axi_sb.sv(67) @ 1845: uvm_test_top.env_h.sb_h [after event in sb] aaaa
# UVM_INFO ../env/axi_sb.sv(65) @ 1845: uvm_test_top.env_h.sb_h [before event in sb] aaaa
# match arid : 0 , rid : 0
# UVM_INFO ../env/s_agent/axi_s_drv.sv(31) @ 1845: uvm_test_top.env_h.s_uvc_h.s_agent_h[0].s_drv_h [ID MATCH] aaaaa
# s seqs arid : 36504
# INIDE_SLAVE_SEQ_CTR=48
# match arid : 8e98 , rid : 8e98
# UVM_INFO ../env/s_agent/axi_s_drv.sv(31) @ 1845: uvm_test_top.env_h.s_uvc_h.s_agent_h[0].s_drv_h [ID MATCH] aaaaa
# rd data in s drv: 59cd4b00 , len : 3 , last:0 , valid : 1
#                 1855wlast : 0
# WID: 39135 , AWID : 39135
# m mon rid : 13df
# rd data in s drv: 4b5c4803 , len : 3 , last:0 , valid : 1
#                 1865wlast : 0
# WID: 39135 , AWID : 39135
# m mon rid : 13df
# UVM_INFO ../env/m_agent/axi_base_m_seqs.sv(26) @ 1865: uvm_test_top.env_h.m_uvc_h.m_agent_h[0].m_seqr_h@@vseqs_h.m_wseqs_h [IN V SEQS] Got B-channel response from driver
# rd data in s drv: 222e96fe , len : 3 , last:0 , valid : 1
#                 1875wlast : 0
# WID: 39135 , AWID : 39135
# m mon rid : 13df
# rd data in s drv: aabaa67 , len : 3 , last:1 , valid : 1
# abc : 1
# ref model mem : 705
# abc : 2
# ref model mem : 706
# abc : 3
# ref model mem : 707
# abc : 4
# ref model mem : 708
# xyz : 1
# xyz : 2
# xyz : 3
# xyz : 4
#                 1885wlast : 1
# AFFTER W CHANNEL
# WID: 19348 , AWID : 19348
# req kind : READ
# m mon rid : 13df
# req kind_e : WRITE
# UVM_INFO ../env/axi_sb.sv(67) @ 1885: uvm_test_top.env_h.sb_h [after event in sb] aaaa
# UVM_INFO ../env/axi_sb.sv(65) @ 1885: uvm_test_top.env_h.sb_h [before event in sb] aaaa
# match arid : 0 , rid : 0
# UVM_INFO ../env/s_agent/axi_s_drv.sv(31) @ 1885: uvm_test_top.env_h.s_uvc_h.s_agent_h[0].s_drv_h [ID MATCH] aaaaa
# s seqs arid : 22723
# INIDE_SLAVE_SEQ_CTR=49
# match arid : 58c3 , rid : 58c3
# UVM_INFO ../env/s_agent/axi_s_drv.sv(31) @ 1885: uvm_test_top.env_h.s_uvc_h.s_agent_h[0].s_drv_h [ID MATCH] aaaaa
# rd data in s drv: 83e45107 , len : 3 , last:0 , valid : 1
#                 1895wlast : 0
# WID: 19348 , AWID : 19348
# m mon rid : b974
# rd data in s drv: 594f1084 , len : 3 , last:0 , valid : 1
#                 1905wlast : 0
# WID: 19348 , AWID : 19348
# m mon rid : b974
# UVM_INFO ../env/m_agent/axi_base_m_seqs.sv(26) @ 1905: uvm_test_top.env_h.m_uvc_h.m_agent_h[0].m_seqr_h@@vseqs_h.m_wseqs_h [IN V SEQS] Got B-channel response from driver
# rd data in s drv: 74343217 , len : 3 , last:0 , valid : 1
#                 1915wlast : 0
# WID: 19348 , AWID : 19348
# m mon rid : b974
# rd data in s drv: cc0fbbaa , len : 3 , last:1 , valid : 1
# abc : 1
# ref model mem : 107
# abc : 2
# ref model mem : 108
# abc : 3
# ref model mem : 109
# abc : 4
# ref model mem : 110
# xyz : 1
# xyz : 2
# xyz : 3
# xyz : 4
#                 1925wlast : 1
# AFFTER W CHANNEL
# WID: 17688 , AWID : 17688
# req kind : READ
# m mon rid : b974
# req kind_e : WRITE
# UVM_INFO ../env/axi_sb.sv(67) @ 1925: uvm_test_top.env_h.sb_h [after event in sb] aaaa
# UVM_INFO ../env/axi_sb.sv(65) @ 1925: uvm_test_top.env_h.sb_h [before event in sb] aaaa
# match arid : 0 , rid : 0
# UVM_INFO ../env/s_agent/axi_s_drv.sv(31) @ 1925: uvm_test_top.env_h.s_uvc_h.s_agent_h[0].s_drv_h [ID MATCH] aaaaa
# s seqs arid : 50465
# INIDE_SLAVE_SEQ_CTR=50
# match arid : c521 , rid : c521
# UVM_INFO ../env/s_agent/axi_s_drv.sv(31) @ 1925: uvm_test_top.env_h.s_uvc_h.s_agent_h[0].s_drv_h [ID MATCH] aaaaa
# rd data in s drv: f9000000 , len : 3 , last:0 , valid : 1
#                 1935wlast : 0
# WID: 17688 , AWID : 17688
# m mon rid : 8e98
# rd data in s drv: 83eb57c5 , len : 3 , last:0 , valid : 1
#                 1945wlast : 0
# WID: 17688 , AWID : 17688
# m mon rid : 8e98
# UVM_INFO ../env/m_agent/axi_base_m_seqs.sv(26) @ 1945: uvm_test_top.env_h.m_uvc_h.m_agent_h[0].m_seqr_h@@vseqs_h.m_wseqs_h [IN V SEQS] Got B-channel response from driver
# rd data in s drv: 6437108 , len : 3 , last:0 , valid : 1
#                 1955wlast : 0
# WID: 17688 , AWID : 17688
# m mon rid : 8e98
# rd data in s drv: 43e90fda , len : 3 , last:1 , valid : 1
# abc : 1
# ref model mem : 948
# abc : 2
# ref model mem : 949
# abc : 3
# ref model mem : 950
# abc : 4
# ref model mem : 951
#                 1965wlast : 1
# AFFTER W CHANNEL
# WID: 20083 , AWID : 20083
# req kind : READ
# m mon rid : 8e98
# req kind_e : WRITE
# UVM_INFO ../env/axi_sb.sv(67) @ 1965: uvm_test_top.env_h.sb_h [after event in sb] aaaa
# UVM_INFO ../env/axi_sb.sv(65) @ 1965: uvm_test_top.env_h.sb_h [before event in sb] aaaa
# match arid : 0 , rid : 0
# UVM_INFO ../env/s_agent/axi_s_drv.sv(31) @ 1965: uvm_test_top.env_h.s_uvc_h.s_agent_h[0].s_drv_h [ID MATCH] aaaaa
# rd data in s drv: 315d7cc8 , len : 3 , last:0 , valid : 1
#                 1975wlast : 0
# WID: 20083 , AWID : 20083
# m mon rid : 58c3
# rd data in s drv: 905956d9 , len : 3 , last:0 , valid : 1
#                 1985wlast : 0
# WID: 20083 , AWID : 20083
# m mon rid : 58c3
# UVM_INFO ../env/m_agent/axi_base_m_seqs.sv(26) @ 1985: uvm_test_top.env_h.m_uvc_h.m_agent_h[0].m_seqr_h@@vseqs_h.m_wseqs_h [IN V SEQS] Got B-channel response from driver
# rd data in s drv: 9247fba1 , len : 3 , last:0 , valid : 1
#                 1995wlast : 0
# WID: 20083 , AWID : 20083
# m mon rid : 58c3
# rd data in s drv: 9bb246ed , len : 3 , last:1 , valid : 1
# abc : 1
# ref model mem : 869
# abc : 2
# ref model mem : 870
# abc : 3
# ref model mem : 871
# abc : 4
# ref model mem : 872
#                 2005wlast : 1
#                 2005later wlast : 1
# AFFTER W CHANNEL
# req kind : READ
# m mon rid : 58c3
# req kind_e : WRITE
# UVM_INFO ../env/axi_sb.sv(67) @ 2005: uvm_test_top.env_h.sb_h [after event in sb] aaaa
# UVM_INFO ../env/axi_sb.sv(65) @ 2005: uvm_test_top.env_h.sb_h [before event in sb] aaaa
# match arid : 0 , rid : 0
# UVM_INFO ../env/s_agent/axi_s_drv.sv(31) @ 2005: uvm_test_top.env_h.s_uvc_h.s_agent_h[0].s_drv_h [ID MATCH] aaaaa
# rd data in s drv: 81e00000 , len : 3 , last:0 , valid : 1
# m mon rid : c521
# rd data in s drv: 4229cd7c , len : 3 , last:0 , valid : 1
# m mon rid : c521
# UVM_INFO ../env/m_agent/axi_base_m_seqs.sv(26) @ 2025: uvm_test_top.env_h.m_uvc_h.m_agent_h[0].m_seqr_h@@vseqs_h.m_wseqs_h [IN V SEQS] Got B-channel response from driver
# rd data in s drv: c09e8c95 , len : 3 , last:0 , valid : 1
# m mon rid : c521
# rd data in s drv: 11fc48fc , len : 3 , last:1 , valid : 1
# req kind : READ
# m mon rid : c521
# UVM_INFO ../env/axi_sb.sv(67) @ 2045: uvm_test_top.env_h.sb_h [after event in sb] aaaa
# UVM_INFO ../env/axi_sb.sv(65) @ 2045: uvm_test_top.env_h.sb_h [before event in sb] aaaa
# UVM_INFO verilog_src/uvm-1.1d/src/base/uvm_objection.svh(1267) @ 5025: reporter [TEST_DONE] 'run' phase is ready to proceed to the 'extract' phase
# 
##############################################################
#                                                            #
#   PPPPPPPP    AAA     SSSSSS    SSSSSS                     #
#   PP     PP  A   A   SS        SS                          #
