# vsim -coverage -voptargs="+acc" axi_tb_top -c -do "coverage save -onexit -directive -cvg -codeall axi_fixed_test.ucdb; run -all; exit" "+UVM_TESTNAME=axi_fixed_test" -l axi_fixed_test.log 
# Start time: 14:36:47 on May 07,2026
# ** Note: (vsim-8009) Loading existing optimized design _opt1
# //  Questa Sim-64
# //  Version 2023.4 linux_x86_64 Oct  9 2023
# //
# //  Copyright 1991-2023 Mentor Graphics Corporation
# //  All Rights Reserved.
# //
# //  QuestaSim and its associated documentation contain trade
# //  secrets and commercial or financial information that are the property of
# //  Mentor Graphics Corporation and are privileged, confidential,
# //  and exempt from disclosure under the Freedom of Information Act,
# //  5 U.S.C. Section 552. Furthermore, this information
# //  is prohibited from disclosure under the Trade Secrets Act,
# //  18 U.S.C. Section 1905.
# //
# Loading sv_std.std
# Loading work.axi_s_inf(fast)
# Loading work.axi_m_inf(fast)
# Loading mtiUvm.uvm_pkg(fast)
# Loading work.axi_s_agent_pkg(fast)
# Loading work.axi_m_agent_pkg(fast)
# Loading work.axi_env_pkg(fast)
# Loading work.axi_test_pkg(fast)
# Loading mtiUvm.questa_uvm_pkg(fast)
# Loading work.axi_tb_top(fast)
# Loading work.axi_m_inf(fast__2)
# Loading work.axi_s_inf(fast__2)
# ** Warning: (vsim-8441) Clocking block output s_vif.s_drv_cb.RDATA is not legal in this
# or another expression.
#    Time: 0 ns  Iteration: 0  Region: /axi_s_agent_pkg::axi_s_drv #(32, 32) File: ../env/s_agent/axi_s_drv.sv Line: 113
# ** Warning: (vsim-8441) Clocking block output s_vif.s_drv_cb.RVALID is not legal in this
# or another expression.
#    Time: 0 ns  Iteration: 0  Region: /axi_s_agent_pkg::axi_s_drv #(32, 32) File: ../env/s_agent/axi_s_drv.sv Line: 115
# ** Warning: (vsim-8441) Clocking block output s_vif.s_drv_cb.RLAST is not legal in this
# or another expression.
#    Time: 0 ns  Iteration: 0  Region: /axi_s_agent_pkg::axi_s_drv #(32, 32) File: ../env/s_agent/axi_s_drv.sv Line: 116
# ** Warning: (vsim-8441) Clocking block output s_vif.s_drv_cb.RDATA is not legal in this
# or another expression.
#    Time: 0 ns  Iteration: 0  Region: /axi_s_agent_pkg::axi_s_drv #(32, 32) File: ../env/s_agent/axi_s_drv.sv Line: 113
# ** Warning: (vsim-8441) Clocking block output s_vif.s_drv_cb.RLAST is not legal in this
# or another expression.
#    Time: 0 ns  Iteration: 0  Region: /axi_s_agent_pkg::axi_s_drv #(32, 32) File: ../env/s_agent/axi_s_drv.sv Line: 116
# ** Warning: (vsim-8441) Clocking block output s_vif.s_drv_cb.RVALID is not legal in this
# or another expression.
#    Time: 0 ns  Iteration: 0  Region: /axi_s_agent_pkg::axi_s_drv #(32, 32) File: ../env/s_agent/axi_s_drv.sv Line: 115
# ** Warning: (vsim-8441) Clocking block output s_vif.s_drv_cb.RVALID is not legal in this
# or another expression.
#    Time: 0 ns  Iteration: 0  Region: /axi_s_agent_pkg::axi_s_drv #(32, 32) File: ../env/s_agent/axi_s_drv.sv Line: 115
# ** Warning: (vsim-8441) Clocking block output s_vif.s_drv_cb.RLAST is not legal in this
# or another expression.
#    Time: 0 ns  Iteration: 0  Region: /axi_s_agent_pkg::axi_s_drv #(32, 32) File: ../env/s_agent/axi_s_drv.sv Line: 116
# Loading /tools/mentor/questa/2023.4/questasim/uvm-1.1d/linux_x86_64/uvm_dpi.so
# coverage save -onexit -directive -cvg -codeall axi_fixed_test.ucdb
#  run -all
# ----------------------------------------------------------------
# UVM-1.1d
# (C) 2007-2013 Mentor Graphics Corporation
# (C) 2007-2013 Cadence Design Systems, Inc.
# (C) 2006-2013 Synopsys, Inc.
# (C) 2011-2013 Cypress Semiconductor Corp.
# ----------------------------------------------------------------
# 
#   ***********       IMPORTANT RELEASE NOTES         ************
# 
#   You are using a version of the UVM library that has been compiled
#   with `UVM_NO_DEPRECATED undefined.
#   See http://www.eda.org/svdb/view.php?id=3313 for more details.
# 
#   You are using a version of the UVM library that has been compiled
#   with `UVM_OBJECT_MUST_HAVE_CONSTRUCTOR undefined.
#   See http://www.eda.org/svdb/view.php?id=3770 for more details.
# 
#       (Specify +UVM_NO_RELNOTES to turn off this notice)
# 
# UVM_INFO verilog_src/questa_uvm_pkg-1.2/src/questa_uvm_pkg.sv(277) @ 0: reporter [Questa UVM] QUESTA_UVM-1.2.3
# UVM_INFO verilog_src/questa_uvm_pkg-1.2/src/questa_uvm_pkg.sv(278) @ 0: reporter [Questa UVM]  questa_uvm::init(+struct)
# UVM_INFO @ 0: reporter [RNTST] Running test axi_fixed_test...
# ** Warning: (vsim-8474) A higher value '4294967295' is found in bin 'all_ones' of Coverpoint 'cp_wdata'. It is invalid and will be ignored.
#    Time: 0 ns  Iteration: 7  Process: /uvm_pkg::uvm_phase::m_run_phases/#FORK#1847_7fefec463ba File: ../env/axi_coverage.sv Line: 49
# ** Warning: (vsim-8549) After dropping the illegal, ignore or invalid values, the values list associated with scalar bin 'all_ones' in Coverpoint 'cp_wdata' of Covergroup instance '\/axi_env_pkg::axi_coverage::write_cov ' has converged to empty list. The bin will be taken out of coverage calculation.
#    Time: 0 ns  Iteration: 7  Region: /uvm_pkg::uvm_phase::m_run_phases
# ** Warning: (vsim-8474) A higher value '1431655765' is found in bin 'toggle_01' of Coverpoint 'cp_wdata'. It is invalid and will be ignored.
#    Time: 0 ns  Iteration: 7  Process: /uvm_pkg::uvm_phase::m_run_phases/#FORK#1847_7fefec463ba File: ../env/axi_coverage.sv Line: 50
# ** Warning: (vsim-8474) A higher value '2863311530' is found in bin 'toggle_01' of Coverpoint 'cp_wdata'. It is invalid and will be ignored.
#    Time: 0 ns  Iteration: 7  Process: /uvm_pkg::uvm_phase::m_run_phases/#FORK#1847_7fefec463ba File: ../env/axi_coverage.sv Line: 50
# ** Warning: (vsim-8549) After dropping the illegal, ignore or invalid values, the values list associated with scalar bin 'toggle_01' in Coverpoint 'cp_wdata' of Covergroup instance '\/axi_env_pkg::axi_coverage::write_cov ' has converged to empty list. The bin will be taken out of coverage calculation.
#    Time: 0 ns  Iteration: 7  Region: /uvm_pkg::uvm_phase::m_run_phases
# ** Warning: (vsim-3881) ../env/axi_coverage.sv(51): Width conversion applied in bin 'other_data' for Coverpoint 'cp_wdata'. Value '1' changed to ' (maximum)' value.
#    Time: 0 ns  Iteration: 7  Region: /uvm_pkg::uvm_phase::m_run_phases
# ** Warning: (vsim-3881) ../env/axi_coverage.sv(51): Width conversion applied in bin 'other_data' for Coverpoint 'cp_wdata'. Value '4294901759' changed to ' (maximum)' value.
#    Time: 0 ns  Iteration: 7  Region: /uvm_pkg::uvm_phase::m_run_phases
# ** Warning: (vsim-8475) The invalid value range [1 : 4294901759] is found in bin 'other_data' of Coverpoint 'cp_wdata'. It will be ignored.
#    Time: 0 ns  Iteration: 7  Process: /uvm_pkg::uvm_phase::m_run_phases/#FORK#1847_7fefec463ba File: ../env/axi_coverage.sv Line: 51
# ** Warning: (vsim-8549) After dropping the illegal, ignore or invalid values, the values list associated with array bin 'other_data' in Coverpoint 'cp_wdata' of Covergroup instance '\/axi_env_pkg::axi_coverage::write_cov ' has converged to empty list. The bin will be taken out of coverage calculation.
#    Time: 0 ns  Iteration: 7  Region: /uvm_pkg::uvm_phase::m_run_phases
# ** Warning: (vsim-8474) A higher value '8' is found in bin 'single_byte' of Coverpoint 'cp_wstrb'. It is invalid and will be ignored.
#    Time: 0 ns  Iteration: 7  Process: /uvm_pkg::uvm_phase::m_run_phases/#FORK#1847_7fefec463ba File: ../env/axi_coverage.sv Line: 72
# ** Warning: (vsim-8474) A higher value '12' is found in bin 'single_byte' of Coverpoint 'cp_wstrb'. It is invalid and will be ignored.
#    Time: 0 ns  Iteration: 7  Process: /uvm_pkg::uvm_phase::m_run_phases/#FORK#1847_7fefec463ba File: ../env/axi_coverage.sv Line: 72
# ** Warning: (vsim-8474) A higher value '14' is found in bin 'single_byte' of Coverpoint 'cp_wstrb'. It is invalid and will be ignored.
#    Time: 0 ns  Iteration: 7  Process: /uvm_pkg::uvm_phase::m_run_phases/#FORK#1847_7fefec463ba File: ../env/axi_coverage.sv Line: 72
# ** Warning: (vsim-8549) After dropping the illegal, ignore or invalid values, the values list associated with scalar bin 'single_byte' in Coverpoint 'cp_wstrb' of Covergroup instance '\/axi_env_pkg::axi_coverage::write_cov ' has converged to empty list. The bin will be taken out of coverage calculation.
#    Time: 0 ns  Iteration: 7  Region: /uvm_pkg::uvm_phase::m_run_phases
# ** Warning: (vsim-8474) A higher value '15' is found in bin 'all_bytes' of Coverpoint 'cp_wstrb'. It is invalid and will be ignored.
#    Time: 0 ns  Iteration: 7  Process: /uvm_pkg::uvm_phase::m_run_phases/#FORK#1847_7fefec463ba File: ../env/axi_coverage.sv Line: 73
# ** Warning: (vsim-8549) After dropping the illegal, ignore or invalid values, the values list associated with scalar bin 'all_bytes' in Coverpoint 'cp_wstrb' of Covergroup instance '\/axi_env_pkg::axi_coverage::write_cov ' has converged to empty list. The bin will be taken out of coverage calculation.
#    Time: 0 ns  Iteration: 7  Region: /uvm_pkg::uvm_phase::m_run_phases
# ** Warning: (vsim-8554) The expression 'binsof(cp_wstrb.single_byte)' inside the select expression of Bin 'invalid_wrap' of Cross 'STRB_CP' in Covergroup instance '\/axi_env_pkg::axi_coverage::write_cov ' is an empty user bin. The binsof expression will result in an empty set.
#    Time: 0 ns  Iteration: 7  Region: /uvm_pkg::uvm_phase::m_run_phases
# ** Warning: (vsim-8474) A higher value '4294967295' is found in bin 'all_ones' of Coverpoint 'cp_rdata'. It is invalid and will be ignored.
#    Time: 0 ns  Iteration: 7  Process: /uvm_pkg::uvm_phase::m_run_phases/#FORK#1847_7fefec463ba File: ../env/axi_coverage.sv Line: 141
# ** Warning: (vsim-8549) After dropping the illegal, ignore or invalid values, the values list associated with scalar bin 'all_ones' in Coverpoint 'cp_rdata' of Covergroup instance '\/axi_env_pkg::axi_coverage::read_cov ' has converged to empty list. The bin will be taken out of coverage calculation.
#    Time: 0 ns  Iteration: 7  Region: /uvm_pkg::uvm_phase::m_run_phases
# ** Warning: (vsim-8474) A higher value '1431655765' is found in bin 'toggle_01' of Coverpoint 'cp_rdata'. It is invalid and will be ignored.
#    Time: 0 ns  Iteration: 7  Process: /uvm_pkg::uvm_phase::m_run_phases/#FORK#1847_7fefec463ba File: ../env/axi_coverage.sv Line: 142
# ** Warning: (vsim-8474) A higher value '2863311530' is found in bin 'toggle_01' of Coverpoint 'cp_rdata'. It is invalid and will be ignored.
#    Time: 0 ns  Iteration: 7  Process: /uvm_pkg::uvm_phase::m_run_phases/#FORK#1847_7fefec463ba File: ../env/axi_coverage.sv Line: 142
# ** Warning: (vsim-8549) After dropping the illegal, ignore or invalid values, the values list associated with scalar bin 'toggle_01' in Coverpoint 'cp_rdata' of Covergroup instance '\/axi_env_pkg::axi_coverage::read_cov ' has converged to empty list. The bin will be taken out of coverage calculation.
#    Time: 0 ns  Iteration: 7  Region: /uvm_pkg::uvm_phase::m_run_phases
# ** Warning: (vsim-3881) ../env/axi_coverage.sv(143): Width conversion applied in bin 'other_data' for Coverpoint 'cp_rdata'. Value '1' changed to ' (maximum)' value.
#    Time: 0 ns  Iteration: 7  Region: /uvm_pkg::uvm_phase::m_run_phases
# ** Warning: (vsim-3881) ../env/axi_coverage.sv(143): Width conversion applied in bin 'other_data' for Coverpoint 'cp_rdata'. Value '4294901759' changed to ' (maximum)' value.
#    Time: 0 ns  Iteration: 7  Region: /uvm_pkg::uvm_phase::m_run_phases
# ** Warning: (vsim-8475) The invalid value range [1 : 4294901759] is found in bin 'other_data' of Coverpoint 'cp_rdata'. It will be ignored.
#    Time: 0 ns  Iteration: 7  Process: /uvm_pkg::uvm_phase::m_run_phases/#FORK#1847_7fefec463ba File: ../env/axi_coverage.sv Line: 143
# ** Warning: (vsim-8549) After dropping the illegal, ignore or invalid values, the values list associated with array bin 'other_data' in Coverpoint 'cp_rdata' of Covergroup instance '\/axi_env_pkg::axi_coverage::read_cov ' has converged to empty list. The bin will be taken out of coverage calculation.
#    Time: 0 ns  Iteration: 7  Region: /uvm_pkg::uvm_phase::m_run_phases
# UVM_INFO ../env/s_agent/axi_s_seqr.sv(25) @ 0: uvm_test_top.env_h.s_uvc_h.s_agent_h[0].s_seqr_h [Data in s seqr] Data got in slave seqr
# UVM_INFO @ 0: reporter [UVMTOP] UVM testbench topology:
# --------------------------------------------------------------------------------
# Name                             Type                                Size  Value
# --------------------------------------------------------------------------------
# uvm_test_top                     axi_fixed_test                      -     @479 
#   env_h                          axi_env                             -     @491 
#     m_uvc_h                      uvm_agent                           -     @513 
#       m_agent_h[0]               uvm_agent                           -     @693 
#         m_drv_h                  uvm_driver #(REQ,RSP)               -     @814 
#           rsp_port               uvm_analysis_port                   -     @829 
#           seq_item_port          uvm_seq_item_pull_port              -     @821 
#         m_mon_h                  axi_m_mon#(ADDR_WIDTH, DATA_WIDTH)  -     @837 
#           s_port                 uvm_analysis_port                   -     @844 
#         m_seqr_h                 uvm_sequencer                       -     @705 
#           rsp_export             uvm_analysis_export                 -     @712 
#           seq_item_export        uvm_seq_item_pull_imp               -     @806 
#           arbitration_queue      array                               0     -    
#           lock_queue             array                               0     -    
#           num_last_reqs          integral                            32    'd1  
#           num_last_rsps          integral                            32    'd1  
#     ref_model_h                  axi_ref_model                       -     @558 
#       mon_imp                    uvm_analysis_imp                    -     @565 
#       sb_imp                     uvm_analysis_port                   -     @573 
#     s_uvc_h                      uvm_agent                           -     @520 
#       s_agent_h[0]               uvm_agent                           -     @860 
#         s_drv_h                  uvm_driver #(REQ,RSP)               -     @1036
#           rsp_port               uvm_analysis_port                   -     @1051
#           seq_item_port          uvm_seq_item_pull_port              -     @1043
#         s_mon_h                  axi_s_mon#(ADDR_WIDTH, DATA_WIDTH)  -     @1059
#           s_port                 uvm_analysis_port                   -     @1066
#         s_seqr_h                 uvm_sequencer                       -     @872 
#           item_collected_export  uvm_analysis_export                 -     @981 
#           item_req_fifo          uvm_tlm_analysis_fifo #(T)          -     @989 
#             analysis_export      uvm_analysis_imp                    -     @1028
#             get_ap               uvm_analysis_port                   -     @1020
#             get_peek_export      uvm_get_peek_imp                    -     @1004
#             put_ap               uvm_analysis_port                   -     @1012
#             put_export           uvm_put_imp                         -     @996 
#           rsp_export             uvm_analysis_export                 -     @879 
#           seq_item_export        uvm_seq_item_pull_imp               -     @973 
#           arbitration_queue      array                               0     -    
#           lock_queue             array                               0     -    
#           num_last_reqs          integral                            32    'd1  
#           num_last_rsps          integral                            32    'd1  
#     sb_h                         axi_sb                              -     @527 
#       anl_imp_m                  uvm_analysis_imp_m                  -     @534 
#       anl_imp_ref                uvm_analysis_imp_ref                -     @542 
#     vseqr_h                      axi_virtual_seqr                    -     @581 
#       rsp_export                 uvm_analysis_export                 -     @588 
#       seq_item_export            uvm_seq_item_pull_imp               -     @682 
#       arbitration_queue          array                               0     -    
#       lock_queue                 array                               0     -    
#       num_last_reqs              integral                            32    'd1  
#       num_last_rsps              integral                            32    'd1  
# --------------------------------------------------------------------------------
# 
# UVM_INFO ../env/axi_sb.sv(76) @ 0: uvm_test_top.env_h.sb_h [before event in sb] aaaa
# UVM_INFO ../env/m_agent/axi_m_mon.sv(28) @ 0: uvm_test_top.env_h.m_uvc_h.m_agent_h[0].m_mon_h [M MON RUN PHASE before] Inside master mon run phase
# UVM_INFO ../env/m_agent/axi_m_mon.sv(36) @ 0: uvm_test_top.env_h.m_uvc_h.m_agent_h[0].m_mon_h [M MON run PHASE after] Inside master mon
# UVM_INFO ../env/m_agent/axi_m_mon.sv(41) @ 0: uvm_test_top.env_h.m_uvc_h.m_agent_h[0].m_mon_h [M MON write addr PHASE before] Inside master mon
# UVM_INFO ../env/m_agent/axi_m_mon.sv(60) @ 0: uvm_test_top.env_h.m_uvc_h.m_agent_h[0].m_mon_h [M MON write data PHASE before] Inside master mon
# UVM_INFO ../env/m_agent/axi_m_mon.sv(99) @ 0: uvm_test_top.env_h.m_uvc_h.m_agent_h[0].m_mon_h [M MON read addr PHASE before] Inside master mon
# UVM_INFO ../env/m_agent/axi_m_mon.sv(118) @ 0: uvm_test_top.env_h.m_uvc_h.m_agent_h[0].m_mon_h [M MON read data PHASE before] Inside master mon
# Before AW CHANNEL
# Before W CHANNEL
# Before AR CHANNEL
# Before R CHANNEL
# AWLEN IN M DRV:3
# cnt : 1
# AWLEN IN M DRV:7
# cnt : 2
# AWLEN IN M DRV:3
# cnt : 3
# AWLEN IN M DRV:13
# cnt : 4
# AWLEN IN M DRV:3
# cnt : 5
# AWLEN IN M DRV:8
# cnt : 6
# AWLEN IN M DRV:3
# cnt : 7
# AWLEN IN M DRV:1
# cnt : 8
# AWLEN IN M DRV:3
# cnt : 9
# AWLEN IN M DRV:7
# cnt : 10
# AWLEN IN M DRV:3
# cnt : 11
# AWLEN IN M DRV:0
# cnt : 12
# AWLEN IN M DRV:3
# cnt : 13
# AWLEN IN M DRV:0
# cnt : 14
# AWLEN IN M DRV:3
# cnt : 15
# AWLEN IN M DRV:9
# cnt : 16
# AWLEN IN M DRV:3
# cnt : 17
# AWLEN IN M DRV:9
# cnt : 18
# AWLEN IN M DRV:3
# cnt : 19
# AWLEN IN M DRV:0
# cnt : 20
# AWLEN IN M DRV:3
# cnt : 21
# AWLEN IN M DRV:3
# cnt : 22
# AWLEN IN M DRV:3
# cnt : 23
# AWLEN IN M DRV:10
# cnt : 24
# AWLEN IN M DRV:3
# cnt : 25
# AWLEN IN M DRV:14
# cnt : 26
# AWLEN IN M DRV:3
# cnt : 27
# AWLEN IN M DRV:0
# cnt : 28
# AWLEN IN M DRV:3
# cnt : 29
# AWLEN IN M DRV:14
# cnt : 30
# AWLEN IN M DRV:3
# cnt : 31
# AWLEN IN M DRV:4
# cnt : 32
# AWLEN IN M DRV:3
# cnt : 33
# AWLEN IN M DRV:3
# cnt : 34
# AWLEN IN M DRV:3
# cnt : 35
# AWLEN IN M DRV:6
# cnt : 36
# AWLEN IN M DRV:3
# cnt : 37
# AWLEN IN M DRV:8
# cnt : 38
# AWLEN IN M DRV:3
# cnt : 39
# AWLEN IN M DRV:9
# cnt : 40
# AWLEN IN M DRV:3
# cnt : 41
# AWLEN IN M DRV:3
# cnt : 42
# AWLEN IN M DRV:3
# cnt : 43
# AWLEN IN M DRV:1
# cnt : 44
# AWLEN IN M DRV:3
# cnt : 45
# AWLEN IN M DRV:6
# cnt : 46
# AWLEN IN M DRV:3
# cnt : 47
# AWLEN IN M DRV:3
# cnt : 48
# AWLEN IN M DRV:3
# cnt : 49
# AWLEN IN M DRV:7
# cnt : 50
# AWLEN IN M DRV:3
# cnt : 51
# AWLEN IN M DRV:1
# cnt : 52
# AWLEN IN M DRV:3
# cnt : 53
# AWLEN IN M DRV:4
# cnt : 54
# AWLEN IN M DRV:3
# cnt : 55
# AWLEN IN M DRV:3
# cnt : 56
# AWLEN IN M DRV:3
# cnt : 57
# AWLEN IN M DRV:5
# cnt : 58
# AWLEN IN M DRV:3
# cnt : 59
# AWLEN IN M DRV:7
# cnt : 60
# AWLEN IN M DRV:3
# cnt : 61
# AWLEN IN M DRV:3
# cnt : 62
# AWLEN IN M DRV:3
# cnt : 63
# AWLEN IN M DRV:0
# cnt : 64
# AWLEN IN M DRV:3
# cnt : 65
# AWLEN IN M DRV:1
# cnt : 66
# AWLEN IN M DRV:3
# cnt : 67
# AWLEN IN M DRV:6
# cnt : 68
# AWLEN IN M DRV:3
# cnt : 69
# AWLEN IN M DRV:4
# cnt : 70
# AWLEN IN M DRV:3
# cnt : 71
# AWLEN IN M DRV:13
# cnt : 72
# AWLEN IN M DRV:3
# cnt : 73
# AWLEN IN M DRV:4
# cnt : 74
# AWLEN IN M DRV:3
# cnt : 75
# AWLEN IN M DRV:12
# cnt : 76
# AWLEN IN M DRV:3
# cnt : 77
# AWLEN IN M DRV:11
# cnt : 78
# AWLEN IN M DRV:3
# cnt : 79
# AWLEN IN M DRV:7
# cnt : 80
# AWLEN IN M DRV:3
# cnt : 81
# AWLEN IN M DRV:11
# cnt : 82
# AWLEN IN M DRV:3
# cnt : 83
# AWLEN IN M DRV:14
# cnt : 84
# AWLEN IN M DRV:3
# cnt : 85
# AWLEN IN M DRV:5
# cnt : 86
# AWLEN IN M DRV:3
# cnt : 87
# AWLEN IN M DRV:8
# cnt : 88
# AWLEN IN M DRV:3
# cnt : 89
# AWLEN IN M DRV:0
# cnt : 90
# AWLEN IN M DRV:3
# cnt : 91
# AWLEN IN M DRV:6
# cnt : 92
# AWLEN IN M DRV:3
# cnt : 93
# AWLEN IN M DRV:15
# cnt : 94
# AWLEN IN M DRV:3
# cnt : 95
# AWLEN IN M DRV:8
# cnt : 96
# AWLEN IN M DRV:3
# cnt : 97
# AWLEN IN M DRV:4
# cnt : 98
# AWLEN IN M DRV:3
# cnt : 99
# AWLEN IN M DRV:3
# cnt : 100
# INIDE_SLAVE_MON_CTR=1
# arid in s mon : 60203
# m mon ar id : eb2b
# INIDE_SLAVE_MON_CTR=2
# arid in s mon : 59707
# m mon ar id : e93b
# abc : 1
# ref model mem : 384
# abc : 2
# ref model mem : 385
# abc : 3
# ref model mem : 386
# abc : 4
# ref model mem : 387
# xyz : 1
# xyz : 2
# xyz : 3
# xyz : 4
# INIDE_SLAVE_MON_CTR=3
# arid in s mon : 59859
# AFFTER W CHANNEL
# m mon ar id : e9d3
# match arid : 0 , rid : 0
# UVM_INFO ../env/s_agent/axi_s_drv.sv(31) @ 45: uvm_test_top.env_h.s_uvc_h.s_agent_h[0].s_drv_h [ID MATCH] aaaaa
# s seqs arid : 60203
# INIDE_SLAVE_SEQ_CTR=1
# match arid : eb2b , rid : eb2b
# UVM_INFO ../env/s_agent/axi_s_drv.sv(31) @ 45: uvm_test_top.env_h.s_uvc_h.s_agent_h[0].s_drv_h [ID MATCH] aaaaa
# rd data in s drv: e1000000 , len : 3 , last:0 , valid : 1
# INIDE_SLAVE_MON_CTR=4
# arid in s mon : 10426
# m mon ar id : 28ba
# m mon rid : eb2b
# rd data in s drv: 5ade4b3 , len : 3 , last:0 , valid : 1
# INIDE_SLAVE_MON_CTR=5
# arid in s mon : 61524
# m mon rid : eb2b
# m mon ar id : f054
# req wid : 48469 , bid:48469
# UVM_INFO ../env/m_agent/axi_base_m_seqs.sv(26) @ 65: uvm_test_top.env_h.m_uvc_h.m_agent_h[0].m_seqr_h@@vseqs_h.m_wseqs_h [IN V SEQS] Got B-channel response from driver
# rd data in s drv: 55d992b7 , len : 3 , last:0 , valid : 1
# INIDE_SLAVE_MON_CTR=6
# arid in s mon : 26459
# m mon ar id : 675b
# m mon rid : eb2b
# rd data in s drv: edb2c52b , len : 3 , last:1 , valid : 1
# abc : 1
# ref model mem : 681
# abc : 2
# ref model mem : 682
# abc : 3
# ref model mem : 683
# abc : 4
# ref model mem : 684
# xyz : 1
# xyz : 2
# xyz : 3
# xyz : 4
# INIDE_SLAVE_MON_CTR=7
# arid in s mon : 22357
# AFFTER W CHANNEL
# req kind : READ
# m mon rid : eb2b
# m mon ar id : 5755
# UVM_INFO ../env/axi_sb.sv(78) @ 85: uvm_test_top.env_h.sb_h [after event in sb] aaaa
# UVM_INFO ../env/axi_sb.sv(76) @ 85: uvm_test_top.env_h.sb_h [before event in sb] aaaa
# match arid : 0 , rid : 0
# UVM_INFO ../env/s_agent/axi_s_drv.sv(31) @ 85: uvm_test_top.env_h.s_uvc_h.s_agent_h[0].s_drv_h [ID MATCH] aaaaa
# s seqs arid : 59707
# INIDE_SLAVE_SEQ_CTR=2
# match arid : e93b , rid : e93b
# UVM_INFO ../env/s_agent/axi_s_drv.sv(31) @ 85: uvm_test_top.env_h.s_uvc_h.s_agent_h[0].s_drv_h [ID MATCH] aaaaa
# rd data in s drv: 766d2096 , len : 3 , last:0 , valid : 1
# INIDE_SLAVE_MON_CTR=8
# arid in s mon : 58966
# m mon ar id : e656
# m mon rid : e93b
# rd data in s drv: c6d5f5ef , len : 3 , last:0 , valid : 1
# INIDE_SLAVE_MON_CTR=9
# arid in s mon : 64759
# m mon rid : e93b
# m mon ar id : fcf7
# req wid : 48924 , bid:48924
# UVM_INFO ../env/m_agent/axi_base_m_seqs.sv(26) @ 105: uvm_test_top.env_h.m_uvc_h.m_agent_h[0].m_seqr_h@@vseqs_h.m_wseqs_h [IN V SEQS] Got B-channel response from driver
# rd data in s drv: b8665e42 , len : 3 , last:0 , valid : 1
# INIDE_SLAVE_MON_CTR=10
# arid in s mon : 43156
# m mon ar id : a894
# m mon rid : e93b
# rd data in s drv: eaba05fa , len : 3 , last:1 , valid : 1
# abc : 1
# ref model mem : 903
# abc : 2
# ref model mem : 904
# abc : 3
# ref model mem : 905
# abc : 4
# ref model mem : 906
# xyz : 1
# xyz : 2
# xyz : 3
# xyz : 4
# INIDE_SLAVE_MON_CTR=11
# arid in s mon : 52439
# AFFTER W CHANNEL
# req kind : READ
# m mon rid : e93b
# m mon ar id : ccd7
# UVM_INFO ../env/axi_sb.sv(78) @ 125: uvm_test_top.env_h.sb_h [after event in sb] aaaa
# UVM_INFO ../env/axi_sb.sv(76) @ 125: uvm_test_top.env_h.sb_h [before event in sb] aaaa
# match arid : 0 , rid : 0
# UVM_INFO ../env/s_agent/axi_s_drv.sv(31) @ 125: uvm_test_top.env_h.s_uvc_h.s_agent_h[0].s_drv_h [ID MATCH] aaaaa
# s seqs arid : 59859
# INIDE_SLAVE_SEQ_CTR=3
# match arid : e9d3 , rid : e9d3
# UVM_INFO ../env/s_agent/axi_s_drv.sv(31) @ 125: uvm_test_top.env_h.s_uvc_h.s_agent_h[0].s_drv_h [ID MATCH] aaaaa
# rd data in s drv: 45420000 , len : 3 , last:0 , valid : 1
# INIDE_SLAVE_MON_CTR=12
# arid in s mon : 4905
# m mon ar id : 1329
# m mon rid : e9d3
# rd data in s drv: 3b27ee47 , len : 3 , last:0 , valid : 1
# INIDE_SLAVE_MON_CTR=13
# arid in s mon : 35577
# m mon rid : e9d3
# m mon ar id : 8af9
# req wid : 11091 , bid:11091
# UVM_INFO ../env/m_agent/axi_base_m_seqs.sv(26) @ 145: uvm_test_top.env_h.m_uvc_h.m_agent_h[0].m_seqr_h@@vseqs_h.m_wseqs_h [IN V SEQS] Got B-channel response from driver
# rd data in s drv: 549c6744 , len : 3 , last:0 , valid : 1
# INIDE_SLAVE_MON_CTR=14
# arid in s mon : 25219
# m mon ar id : 6283
# m mon rid : e9d3
# rd data in s drv: 1bc5235 , len : 3 , last:1 , valid : 1
# abc : 1
# ref model mem : 221
# abc : 2
# ref model mem : 222
# abc : 3
# ref model mem : 223
# abc : 4
# ref model mem : 224
# xyz : 1
# xyz : 2
# xyz : 3
# xyz : 4
# INIDE_SLAVE_MON_CTR=15
# arid in s mon : 47995
# AFFTER W CHANNEL
# req kind : READ
# m mon rid : e9d3
# m mon ar id : bb7b
# UVM_INFO ../env/axi_sb.sv(78) @ 165: uvm_test_top.env_h.sb_h [after event in sb] aaaa
# UVM_INFO ../env/axi_sb.sv(76) @ 165: uvm_test_top.env_h.sb_h [before event in sb] aaaa
# match arid : 0 , rid : 0
# UVM_INFO ../env/s_agent/axi_s_drv.sv(31) @ 165: uvm_test_top.env_h.s_uvc_h.s_agent_h[0].s_drv_h [ID MATCH] aaaaa
# s seqs arid : 10426
# INIDE_SLAVE_SEQ_CTR=4
# match arid : 28ba , rid : 28ba
# UVM_INFO ../env/s_agent/axi_s_drv.sv(31) @ 165: uvm_test_top.env_h.s_uvc_h.s_agent_h[0].s_drv_h [ID MATCH] aaaaa
# rd data in s drv: 7ef31ad8 , len : 3 , last:0 , valid : 1
# INIDE_SLAVE_MON_CTR=16
# arid in s mon : 51276
# m mon ar id : c84c
# m mon rid : 28ba
# rd data in s drv: 400041b1 , len : 3 , last:0 , valid : 1
# INIDE_SLAVE_MON_CTR=17
# arid in s mon : 44353
# m mon rid : 28ba
# m mon ar id : ad41
# req wid : 42546 , bid:42546
# UVM_INFO ../env/m_agent/axi_base_m_seqs.sv(26) @ 185: uvm_test_top.env_h.m_uvc_h.m_agent_h[0].m_seqr_h@@vseqs_h.m_wseqs_h [IN V SEQS] Got B-channel response from driver
# rd data in s drv: 6f3347d9 , len : 3 , last:0 , valid : 1
# INIDE_SLAVE_MON_CTR=18
# arid in s mon : 34273
# m mon ar id : 85e1
# m mon rid : 28ba
# rd data in s drv: 761402a3 , len : 3 , last:1 , valid : 1
# abc : 1
# ref model mem : 235
# abc : 2
# ref model mem : 236
# abc : 3
# ref model mem : 237
# abc : 4
# ref model mem : 238
# xyz : 1
# xyz : 2
# xyz : 3
# xyz : 4
# INIDE_SLAVE_MON_CTR=19
# arid in s mon : 40878
# AFFTER W CHANNEL
# req kind : READ
# m mon rid : 28ba
# m mon ar id : 9fae
# UVM_INFO ../env/axi_sb.sv(78) @ 205: uvm_test_top.env_h.sb_h [after event in sb] aaaa
# UVM_INFO ../env/axi_sb.sv(76) @ 205: uvm_test_top.env_h.sb_h [before event in sb] aaaa
# match arid : 0 , rid : 0
# UVM_INFO ../env/s_agent/axi_s_drv.sv(31) @ 205: uvm_test_top.env_h.s_uvc_h.s_agent_h[0].s_drv_h [ID MATCH] aaaaa
# s seqs arid : 61524
# INIDE_SLAVE_SEQ_CTR=5
# match arid : f054 , rid : f054
# UVM_INFO ../env/s_agent/axi_s_drv.sv(31) @ 205: uvm_test_top.env_h.s_uvc_h.s_agent_h[0].s_drv_h [ID MATCH] aaaaa
# rd data in s drv: 90e40000 , len : 3 , last:0 , valid : 1
# INIDE_SLAVE_MON_CTR=20
# arid in s mon : 65033
# m mon ar id : fe09
# m mon rid : f054
# rd data in s drv: 7c5cf680 , len : 3 , last:0 , valid : 1
# INIDE_SLAVE_MON_CTR=21
# arid in s mon : 39064
# m mon rid : f054
# m mon ar id : 9898
# req wid : 32817 , bid:32817
# UVM_INFO ../env/m_agent/axi_base_m_seqs.sv(26) @ 225: uvm_test_top.env_h.m_uvc_h.m_agent_h[0].m_seqr_h@@vseqs_h.m_wseqs_h [IN V SEQS] Got B-channel response from driver
# rd data in s drv: cdcb11b4 , len : 3 , last:0 , valid : 1
# INIDE_SLAVE_MON_CTR=22
# arid in s mon : 62773
# m mon ar id : f535
# m mon rid : f054
# rd data in s drv: e77068cf , len : 3 , last:1 , valid : 1
# abc : 1
# ref model mem : 158
# abc : 2
# ref model mem : 159
# abc : 3
# ref model mem : 160
# abc : 4
# ref model mem : 161
# xyz : 1
# xyz : 2
# xyz : 3
# xyz : 4
# INIDE_SLAVE_MON_CTR=23
# arid in s mon : 60350
# AFFTER W CHANNEL
# req kind : READ
# m mon rid : f054
# m mon ar id : ebbe
# UVM_INFO ../env/axi_sb.sv(78) @ 245: uvm_test_top.env_h.sb_h [after event in sb] aaaa
# UVM_INFO ../env/axi_sb.sv(76) @ 245: uvm_test_top.env_h.sb_h [before event in sb] aaaa
# match arid : 0 , rid : 0
# UVM_INFO ../env/s_agent/axi_s_drv.sv(31) @ 245: uvm_test_top.env_h.s_uvc_h.s_agent_h[0].s_drv_h [ID MATCH] aaaaa
# s seqs arid : 26459
# INIDE_SLAVE_SEQ_CTR=6
# match arid : 675b , rid : 675b
# UVM_INFO ../env/s_agent/axi_s_drv.sv(31) @ 245: uvm_test_top.env_h.s_uvc_h.s_agent_h[0].s_drv_h [ID MATCH] aaaaa
# rd data in s drv: e692a900 , len : 3 , last:0 , valid : 1
# INIDE_SLAVE_MON_CTR=24
# arid in s mon : 45043
# m mon ar id : aff3
# m mon rid : 675b
# rd data in s drv: 5e5d6ae8 , len : 3 , last:0 , valid : 1
# INIDE_SLAVE_MON_CTR=25
# arid in s mon : 15796
# m mon rid : 675b
# m mon ar id : 3db4
# req wid : 64272 , bid:64272
# UVM_INFO ../env/m_agent/axi_base_m_seqs.sv(26) @ 265: uvm_test_top.env_h.m_uvc_h.m_agent_h[0].m_seqr_h@@vseqs_h.m_wseqs_h [IN V SEQS] Got B-channel response from driver
# rd data in s drv: 2e5cdf84 , len : 3 , last:0 , valid : 1
# INIDE_SLAVE_MON_CTR=26
# arid in s mon : 64427
# m mon ar id : fbab
# m mon rid : 675b
# rd data in s drv: 85dca7b4 , len : 3 , last:1 , valid : 1
# abc : 1
# ref model mem : 135
# abc : 2
# ref model mem : 136
# abc : 3
# ref model mem : 137
# abc : 4
# ref model mem : 138
# xyz : 1
# xyz : 2
# xyz : 3
# xyz : 4
# INIDE_SLAVE_MON_CTR=27
# arid in s mon : 15132
# AFFTER W CHANNEL
# req kind : READ
# m mon rid : 675b
# m mon ar id : 3b1c
# UVM_INFO ../env/axi_sb.sv(78) @ 285: uvm_test_top.env_h.sb_h [after event in sb] aaaa
# UVM_INFO ../env/axi_sb.sv(76) @ 285: uvm_test_top.env_h.sb_h [before event in sb] aaaa
# match arid : 0 , rid : 0
# UVM_INFO ../env/s_agent/axi_s_drv.sv(31) @ 285: uvm_test_top.env_h.s_uvc_h.s_agent_h[0].s_drv_h [ID MATCH] aaaaa
# s seqs arid : 22357
# INIDE_SLAVE_SEQ_CTR=7
# match arid : 5755 , rid : 5755
# UVM_INFO ../env/s_agent/axi_s_drv.sv(31) @ 285: uvm_test_top.env_h.s_uvc_h.s_agent_h[0].s_drv_h [ID MATCH] aaaaa
# rd data in s drv: 2b20000 , len : 3 , last:0 , valid : 1
# INIDE_SLAVE_MON_CTR=28
# arid in s mon : 25003
# m mon ar id : 61ab
# m mon rid : 5755
# rd data in s drv: 372f0987 , len : 3 , last:0 , valid : 1
# INIDE_SLAVE_MON_CTR=29
# arid in s mon : 51408
# m mon rid : 5755
# m mon ar id : c8d0
# req wid : 48097 , bid:48097
# UVM_INFO ../env/m_agent/axi_base_m_seqs.sv(26) @ 305: uvm_test_top.env_h.m_uvc_h.m_agent_h[0].m_seqr_h@@vseqs_h.m_wseqs_h [IN V SEQS] Got B-channel response from driver
# rd data in s drv: 4ab7d9f9 , len : 3 , last:0 , valid : 1
# INIDE_SLAVE_MON_CTR=30
# arid in s mon : 29970
# m mon ar id : 7512
# m mon rid : 5755
# rd data in s drv: 293074ef , len : 3 , last:1 , valid : 1
# abc : 1
# ref model mem : 204
# abc : 2
# ref model mem : 205
# abc : 3
# ref model mem : 206
# abc : 4
# ref model mem : 207
# xyz : 1
# xyz : 2
# xyz : 3
# xyz : 4
# INIDE_SLAVE_MON_CTR=31
# arid in s mon : 11395
# AFFTER W CHANNEL
# req kind : READ
# m mon rid : 5755
# m mon ar id : 2c83
# UVM_INFO ../env/axi_sb.sv(78) @ 325: uvm_test_top.env_h.sb_h [after event in sb] aaaa
# UVM_INFO ../env/axi_sb.sv(76) @ 325: uvm_test_top.env_h.sb_h [before event in sb] aaaa
# match arid : 0 , rid : 0
# UVM_INFO ../env/s_agent/axi_s_drv.sv(31) @ 325: uvm_test_top.env_h.s_uvc_h.s_agent_h[0].s_drv_h [ID MATCH] aaaaa
# s seqs arid : 58966
# INIDE_SLAVE_SEQ_CTR=8
# match arid : e656 , rid : e656
# UVM_INFO ../env/s_agent/axi_s_drv.sv(31) @ 325: uvm_test_top.env_h.s_uvc_h.s_agent_h[0].s_drv_h [ID MATCH] aaaaa
# rd data in s drv: d7000000 , len : 3 , last:0 , valid : 1
# INIDE_SLAVE_MON_CTR=32
# arid in s mon : 43166
# m mon ar id : a89e
# m mon rid : e656
# rd data in s drv: baee7d8 , len : 3 , last:0 , valid : 1
# INIDE_SLAVE_MON_CTR=33
# arid in s mon : 11187
# m mon rid : e656
# m mon ar id : 2bb3
# req wid : 48149 , bid:48149
# UVM_INFO ../env/m_agent/axi_base_m_seqs.sv(26) @ 345: uvm_test_top.env_h.m_uvc_h.m_agent_h[0].m_seqr_h@@vseqs_h.m_wseqs_h [IN V SEQS] Got B-channel response from driver
# rd data in s drv: e174315a , len : 3 , last:0 , valid : 1
# INIDE_SLAVE_MON_CTR=34
# arid in s mon : 5180
# m mon ar id : 143c
# m mon rid : e656
# rd data in s drv: 502c68b6 , len : 3 , last:1 , valid : 1
# abc : 1
# ref model mem : 456
# abc : 2
# ref model mem : 457
# abc : 3
# ref model mem : 458
# abc : 4
# ref model mem : 459
# xyz : 1
# xyz : 2
# xyz : 3
# xyz : 4
# INIDE_SLAVE_MON_CTR=35
# arid in s mon : 33047
# AFFTER W CHANNEL
# req kind : READ
# m mon rid : e656
# m mon ar id : 8117
# UVM_INFO ../env/axi_sb.sv(78) @ 365: uvm_test_top.env_h.sb_h [after event in sb] aaaa
# UVM_INFO ../env/axi_sb.sv(76) @ 365: uvm_test_top.env_h.sb_h [before event in sb] aaaa
# match arid : 0 , rid : 0
# UVM_INFO ../env/s_agent/axi_s_drv.sv(31) @ 365: uvm_test_top.env_h.s_uvc_h.s_agent_h[0].s_drv_h [ID MATCH] aaaaa
# s seqs arid : 64759
# INIDE_SLAVE_SEQ_CTR=9
# match arid : fcf7 , rid : fcf7
# UVM_INFO ../env/s_agent/axi_s_drv.sv(31) @ 365: uvm_test_top.env_h.s_uvc_h.s_agent_h[0].s_drv_h [ID MATCH] aaaaa
# rd data in s drv: 8a000000 , len : 3 , last:0 , valid : 1
# INIDE_SLAVE_MON_CTR=36
# arid in s mon : 41870
# m mon ar id : a38e
# m mon rid : fcf7
# rd data in s drv: 316470ff , len : 3 , last:0 , valid : 1
# INIDE_SLAVE_MON_CTR=37
# arid in s mon : 14176
# m mon rid : fcf7
# m mon ar id : 3760
# req wid : 23496 , bid:23496
# UVM_INFO ../env/m_agent/axi_base_m_seqs.sv(26) @ 385: uvm_test_top.env_h.m_uvc_h.m_agent_h[0].m_seqr_h@@vseqs_h.m_wseqs_h [IN V SEQS] Got B-channel response from driver
# rd data in s drv: 28dd5745 , len : 3 , last:0 , valid : 1
# INIDE_SLAVE_MON_CTR=38
# arid in s mon : 15499
# xyz : 1
# xyz : 2
# xyz : 3
# ** Warning: (vsim-3829) Non-existent associative array entry. Returning default value.
#    Time: 395 ns  Iteration: 2  Process: /axi_s_agent_pkg::axi_s_mon #(32, 32)::monitor/#FORK#35_7fefec26b7f File: ../env/axi_ref_model.sv Line: 79
# xyz : 4
# m mon ar id : 3c8b
# m mon rid : fcf7
# ** Warning: (vsim-3829) Non-existent associative array entry. Returning default value.
#    Time: 395 ns  Iteration: 3  Process: /uvm_pkg::uvm_sequence_base::start/#FORK#294_7fefec26885 File: ../env/s_agent/axi_base_s_seqs.sv Line: 103
# s seqs arid : 15499
# INIDE_SLAVE_SEQ_CTR=10
# match arid : 3c8b , rid : 3c8b
# UVM_INFO ../env/s_agent/axi_s_drv.sv(31) @ 395: uvm_test_top.env_h.s_uvc_h.s_agent_h[0].s_drv_h [ID MATCH] aaaaa
# rd data in s drv: 8092a68c , len : 3 , last:1 , valid : 1
# abc : 1
# ref model mem : 131
# abc : 2
# ref model mem : 132
# abc : 3
# ref model mem : 133
# abc : 4
# ref model mem : 134
# xyz : 1
# xyz : 2
# xyz : 3
# xyz : 4
# INIDE_SLAVE_MON_CTR=39
# arid in s mon : 29379
# AFFTER W CHANNEL
# req kind : READ
# m mon rid : fcf7
# m mon ar id : 72c3
# UVM_INFO ../env/axi_sb.sv(78) @ 405: uvm_test_top.env_h.sb_h [after event in sb] aaaa
# UVM_INFO ../env/axi_sb.sv(76) @ 405: uvm_test_top.env_h.sb_h [before event in sb] aaaa
# match arid : 0 , rid : 0
# UVM_INFO ../env/s_agent/axi_s_drv.sv(31) @ 405: uvm_test_top.env_h.s_uvc_h.s_agent_h[0].s_drv_h [ID MATCH] aaaaa
# s seqs arid : 43156
# INIDE_SLAVE_SEQ_CTR=11
# match arid : a894 , rid : a894
# UVM_INFO ../env/s_agent/axi_s_drv.sv(31) @ 405: uvm_test_top.env_h.s_uvc_h.s_agent_h[0].s_drv_h [ID MATCH] aaaaa
# rd data in s drv: baee7d8 , len : 3 , last:0 , valid : 1
# INIDE_SLAVE_MON_CTR=40
# arid in s mon : 11568
# m mon ar id : 2d30
# m mon rid : 3c8b
# rd data in s drv: e174315a , len : 3 , last:0 , valid : 1
# INIDE_SLAVE_MON_CTR=41
# arid in s mon : 16179
# m mon rid : 3c8b
# m mon ar id : 3f33
# req wid : 53607 , bid:53607
# UVM_INFO ../env/m_agent/axi_base_m_seqs.sv(26) @ 425: uvm_test_top.env_h.m_uvc_h.m_agent_h[0].m_seqr_h@@vseqs_h.m_wseqs_h [IN V SEQS] Got B-channel response from driver
# rd data in s drv: 502c68b6 , len : 3 , last:0 , valid : 1
# INIDE_SLAVE_MON_CTR=42
# arid in s mon : 60092
# m mon ar id : eabc
# m mon rid : 3c8b
# rd data in s drv: 0 , len : 3 , last:1 , valid : 1
# abc : 1
# ref model mem : 752
# abc : 2
# ref model mem : 753
# abc : 3
# ref model mem : 754
# abc : 4
# ref model mem : 755
# xyz : 1
# xyz : 2
# xyz : 3
# xyz : 4
# INIDE_SLAVE_MON_CTR=43
# arid in s mon : 36315
# xyz : 1
# xyz : 2
# ** Warning: (vsim-3829) Non-existent associative array entry. Returning default value.
#    Time: 445 ns  Iteration: 2  Process: /axi_s_agent_pkg::axi_s_mon #(32, 32)::monitor/#FORK#35_7fefec26b7f File: ../env/axi_ref_model.sv Line: 79
# xyz : 3
# ** Warning: (vsim-3829) Non-existent associative array entry. Returning default value.
#    Time: 445 ns  Iteration: 2  Process: /axi_s_agent_pkg::axi_s_mon #(32, 32)::monitor/#FORK#35_7fefec26b7f File: ../env/axi_ref_model.sv Line: 79
# xyz : 4
# AFFTER W CHANNEL
# req kind : READ
# m mon rid : 3c8b
# m mon ar id : 8ddb
# UVM_INFO ../env/axi_sb.sv(78) @ 445: uvm_test_top.env_h.sb_h [after event in sb] aaaa
# UVM_INFO ../env/axi_sb.sv(76) @ 445: uvm_test_top.env_h.sb_h [before event in sb] aaaa
# match arid : 0 , rid : 0
# UVM_INFO ../env/s_agent/axi_s_drv.sv(31) @ 445: uvm_test_top.env_h.s_uvc_h.s_agent_h[0].s_drv_h [ID MATCH] aaaaa
# s seqs arid : 52439
# INIDE_SLAVE_SEQ_CTR=12
# match arid : ccd7 , rid : ccd7
# UVM_INFO ../env/s_agent/axi_s_drv.sv(31) @ 445: uvm_test_top.env_h.s_uvc_h.s_agent_h[0].s_drv_h [ID MATCH] aaaaa
# ** Warning: (vsim-3829) Non-existent associative array entry. Returning default value.
#    Time: 445 ns  Iteration: 12  Process: /uvm_pkg::uvm_sequence_base::start/#FORK#294_7fefec26885 File: ../env/s_agent/axi_base_s_seqs.sv Line: 103
# ** Warning: (vsim-3829) Non-existent associative array entry. Returning default value.
#    Time: 445 ns  Iteration: 12  Process: /uvm_pkg::uvm_sequence_base::start/#FORK#294_7fefec26885 File: ../env/s_agent/axi_base_s_seqs.sv Line: 103
# s seqs arid : 36315
# INIDE_SLAVE_SEQ_CTR=13
# match arid : 8ddb , rid : 8ddb
# UVM_INFO ../env/s_agent/axi_s_drv.sv(31) @ 445: uvm_test_top.env_h.s_uvc_h.s_agent_h[0].s_drv_h [ID MATCH] aaaaa
# rd data in s drv: b3f50000 , len : 3 , last:0 , valid : 1
# INIDE_SLAVE_MON_CTR=44
# arid in s mon : 5087
# m mon ar id : 13df
# m mon rid : a894
# rd data in s drv: b5c5d03b , len : 3 , last:0 , valid : 1
# INIDE_SLAVE_MON_CTR=45
# arid in s mon : 47476
# m mon rid : a894
# m mon ar id : b974
# req wid : 17367 , bid:17367
# UVM_INFO ../env/m_agent/axi_base_m_seqs.sv(26) @ 465: uvm_test_top.env_h.m_uvc_h.m_agent_h[0].m_seqr_h@@vseqs_h.m_wseqs_h [IN V SEQS] Got B-channel response from driver
# rd data in s drv: 869f0c8e , len : 3 , last:0 , valid : 1
# INIDE_SLAVE_MON_CTR=46
# arid in s mon : 36504
# m mon ar id : 8e98
# m mon rid : a894
# rd data in s drv: af45646f , len : 3 , last:1 , valid : 1
# abc : 1
# ref model mem : 369
# abc : 2
# ref model mem : 370
# abc : 3
# ref model mem : 371
# abc : 4
# ref model mem : 372
# xyz : 1
# xyz : 2
# xyz : 3
# xyz : 4
# xyz : 5
# xyz : 6
# xyz : 7
# xyz : 8
# INIDE_SLAVE_MON_CTR=47
# arid in s mon : 22723
# AFFTER W CHANNEL
# req kind : READ
# m mon rid : a894
# m mon ar id : 58c3
# UVM_INFO ../env/axi_sb.sv(78) @ 485: uvm_test_top.env_h.sb_h [after event in sb] aaaa
# UVM_INFO ../env/axi_sb.sv(76) @ 485: uvm_test_top.env_h.sb_h [before event in sb] aaaa
# match arid : 0 , rid : 0
# UVM_INFO ../env/s_agent/axi_s_drv.sv(31) @ 485: uvm_test_top.env_h.s_uvc_h.s_agent_h[0].s_drv_h [ID MATCH] aaaaa
# s seqs arid : 4905
# INIDE_SLAVE_SEQ_CTR=14
# match arid : 1329 , rid : 1329
# UVM_INFO ../env/s_agent/axi_s_drv.sv(31) @ 485: uvm_test_top.env_h.s_uvc_h.s_agent_h[0].s_drv_h [ID MATCH] aaaaa
# s seqs arid : 65033
# INIDE_SLAVE_SEQ_CTR=15
# match arid : fe09 , rid : fe09
# UVM_INFO ../env/s_agent/axi_s_drv.sv(31) @ 485: uvm_test_top.env_h.s_uvc_h.s_agent_h[0].s_drv_h [ID MATCH] aaaaa
# rd data in s drv: a1000000 , len : 3 , last:0 , valid : 1
# INIDE_SLAVE_MON_CTR=48
# arid in s mon : 50465
# m mon ar id : c521
# m mon rid : ccd7
# rd data in s drv: 9bd541f3 , len : 3 , last:0 , valid : 1
# INIDE_SLAVE_MON_CTR=49
# arid in s mon : 9563
# m mon rid : ccd7
# m mon ar id : 255b
# req wid : 23008 , bid:23008
# UVM_INFO ../env/m_agent/axi_base_m_seqs.sv(26) @ 505: uvm_test_top.env_h.m_uvc_h.m_agent_h[0].m_seqr_h@@vseqs_h.m_wseqs_h [IN V SEQS] Got B-channel response from driver
# rd data in s drv: eb2a1de0 , len : 3 , last:0 , valid : 1
# INIDE_SLAVE_MON_CTR=50
# arid in s mon : 12754
# m mon ar id : 31d2
# m mon rid : ccd7
# rd data in s drv: b51a296e , len : 3 , last:1 , valid : 1
# abc : 1
# ref model mem : 114
# abc : 2
# ref model mem : 115
# abc : 3
# ref model mem : 116
# abc : 4
# ref model mem : 117
# xyz : 1
# xyz : 2
# xyz : 3
# xyz : 4
# AFFTER W CHANNEL
# req kind : READ
# m mon rid : ccd7
# UVM_INFO ../env/axi_sb.sv(78) @ 525: uvm_test_top.env_h.sb_h [after event in sb] aaaa
# UVM_INFO ../env/axi_sb.sv(76) @ 525: uvm_test_top.env_h.sb_h [before event in sb] aaaa
# match arid : 0 , rid : 0
# UVM_INFO ../env/s_agent/axi_s_drv.sv(31) @ 525: uvm_test_top.env_h.s_uvc_h.s_agent_h[0].s_drv_h [ID MATCH] aaaaa
# s seqs arid : 35577
# INIDE_SLAVE_SEQ_CTR=16
# match arid : 8af9 , rid : 8af9
# UVM_INFO ../env/s_agent/axi_s_drv.sv(31) @ 525: uvm_test_top.env_h.s_uvc_h.s_agent_h[0].s_drv_h [ID MATCH] aaaaa
# rd data in s drv: 55d992b7 , len : 3 , last:0 , valid : 1
# m mon rid : 8ddb
# rd data in s drv: edb2c52b , len : 3 , last:0 , valid : 1
# m mon rid : 8ddb
# req wid : 32031 , bid:32031
# UVM_INFO ../env/m_agent/axi_base_m_seqs.sv(26) @ 545: uvm_test_top.env_h.m_uvc_h.m_agent_h[0].m_seqr_h@@vseqs_h.m_wseqs_h [IN V SEQS] Got B-channel response from driver
# rd data in s drv: 0 , len : 3 , last:0 , valid : 1
# m mon rid : 8ddb
# rd data in s drv: 0 , len : 3 , last:1 , valid : 1
# abc : 1
# ref model mem : 534
# abc : 2
# ref model mem : 535
# abc : 3
# ref model mem : 536
# abc : 4
# ref model mem : 537
# xyz : 1
# xyz : 2
# xyz : 3
# xyz : 4
# AFFTER W CHANNEL
# req kind : READ
# m mon rid : 8ddb
# UVM_INFO ../env/axi_sb.sv(78) @ 565: uvm_test_top.env_h.sb_h [after event in sb] aaaa
# UVM_INFO ../env/axi_sb.sv(76) @ 565: uvm_test_top.env_h.sb_h [before event in sb] aaaa
# match arid : 0 , rid : 0
# UVM_INFO ../env/s_agent/axi_s_drv.sv(31) @ 565: uvm_test_top.env_h.s_uvc_h.s_agent_h[0].s_drv_h [ID MATCH] aaaaa
# s seqs arid : 25219
# INIDE_SLAVE_SEQ_CTR=17
# match arid : 6283 , rid : 6283
# UVM_INFO ../env/s_agent/axi_s_drv.sv(31) @ 565: uvm_test_top.env_h.s_uvc_h.s_agent_h[0].s_drv_h [ID MATCH] aaaaa
# rd data in s drv: a93a1366 , len : 3 , last:0 , valid : 1
# m mon rid : 1329
# rd data in s drv: f1c9ee1 , len : 3 , last:0 , valid : 1
# m mon rid : 1329
# req wid : 12673 , bid:12673
# UVM_INFO ../env/m_agent/axi_base_m_seqs.sv(26) @ 585: uvm_test_top.env_h.m_uvc_h.m_agent_h[0].m_seqr_h@@vseqs_h.m_wseqs_h [IN V SEQS] Got B-channel response from driver
# rd data in s drv: b95e5aa2 , len : 3 , last:0 , valid : 1
# m mon rid : 1329
# rd data in s drv: 27a31541 , len : 3 , last:1 , valid : 1
# abc : 1
# ref model mem : 652
# abc : 2
# ref model mem : 653
# abc : 3
# ref model mem : 654
# abc : 4
# ref model mem : 655
# xyz : 1
# xyz : 2
# xyz : 3
# xyz : 4
# AFFTER W CHANNEL
# req kind : READ
# m mon rid : 1329
# UVM_INFO ../env/axi_sb.sv(78) @ 605: uvm_test_top.env_h.sb_h [after event in sb] aaaa
# UVM_INFO ../env/axi_sb.sv(76) @ 605: uvm_test_top.env_h.sb_h [before event in sb] aaaa
# match arid : 0 , rid : 0
# UVM_INFO ../env/s_agent/axi_s_drv.sv(31) @ 605: uvm_test_top.env_h.s_uvc_h.s_agent_h[0].s_drv_h [ID MATCH] aaaaa
# s seqs arid : 47995
# INIDE_SLAVE_SEQ_CTR=18
# match arid : bb7b , rid : bb7b
# UVM_INFO ../env/s_agent/axi_s_drv.sv(31) @ 605: uvm_test_top.env_h.s_uvc_h.s_agent_h[0].s_drv_h [ID MATCH] aaaaa
# rd data in s drv: a93a1366 , len : 3 , last:0 , valid : 1
# m mon rid : fe09
# rd data in s drv: f1c9ee1 , len : 3 , last:0 , valid : 1
# m mon rid : fe09
# req wid : 40425 , bid:40425
# UVM_INFO ../env/m_agent/axi_base_m_seqs.sv(26) @ 625: uvm_test_top.env_h.m_uvc_h.m_agent_h[0].m_seqr_h@@vseqs_h.m_wseqs_h [IN V SEQS] Got B-channel response from driver
# rd data in s drv: b95e5aa2 , len : 3 , last:0 , valid : 1
# m mon rid : fe09
# rd data in s drv: 27a31541 , len : 3 , last:1 , valid : 1
# abc : 1
# ref model mem : 771
# abc : 2
# ref model mem : 772
# abc : 3
# ref model mem : 773
# abc : 4
# ref model mem : 774
# xyz : 1
# xyz : 2
# xyz : 3
# xyz : 4
# xyz : 5
# xyz : 6
# ** Warning: (vsim-3829) Non-existent associative array entry. Returning default value.
#    Time: 645 ns  Iteration: 2  Process: /axi_s_agent_pkg::axi_s_mon #(32, 32)::monitor/#FORK#34_7fefec26b57 File: ../env/axi_ref_model.sv Line: 79
# xyz : 7
# ** Warning: (vsim-3829) Non-existent associative array entry. Returning default value.
#    Time: 645 ns  Iteration: 2  Process: /axi_s_agent_pkg::axi_s_mon #(32, 32)::monitor/#FORK#34_7fefec26b57 File: ../env/axi_ref_model.sv Line: 79
# xyz : 8
# AFFTER W CHANNEL
# req kind : READ
# m mon rid : fe09
# UVM_INFO ../env/axi_sb.sv(78) @ 645: uvm_test_top.env_h.sb_h [after event in sb] aaaa
# UVM_INFO ../env/axi_sb.sv(76) @ 645: uvm_test_top.env_h.sb_h [before event in sb] aaaa
# match arid : 0 , rid : 0
# UVM_INFO ../env/s_agent/axi_s_drv.sv(31) @ 645: uvm_test_top.env_h.s_uvc_h.s_agent_h[0].s_drv_h [ID MATCH] aaaaa
# s seqs arid : 51276
# INIDE_SLAVE_SEQ_CTR=19
# match arid : c84c , rid : c84c
# UVM_INFO ../env/s_agent/axi_s_drv.sv(31) @ 645: uvm_test_top.env_h.s_uvc_h.s_agent_h[0].s_drv_h [ID MATCH] aaaaa
# ** Warning: (vsim-3829) Non-existent associative array entry. Returning default value.
#    Time: 645 ns  Iteration: 12  Process: /uvm_pkg::uvm_sequence_base::start/#FORK#294_7fefec26885 File: ../env/s_agent/axi_base_s_seqs.sv Line: 103
# ** Warning: (vsim-3829) Non-existent associative array entry. Returning default value.
#    Time: 645 ns  Iteration: 12  Process: /uvm_pkg::uvm_sequence_base::start/#FORK#294_7fefec26885 File: ../env/s_agent/axi_base_s_seqs.sv Line: 103
# s seqs arid : 14176
# INIDE_SLAVE_SEQ_CTR=20
# match arid : 3760 , rid : 3760
# UVM_INFO ../env/s_agent/axi_s_drv.sv(31) @ 645: uvm_test_top.env_h.s_uvc_h.s_agent_h[0].s_drv_h [ID MATCH] aaaaa
# rd data in s drv: 67135d00 , len : 3 , last:0 , valid : 1
# m mon rid : 8af9
# rd data in s drv: 63ae97a9 , len : 3 , last:0 , valid : 1
# m mon rid : 8af9
# req wid : 34571 , bid:34571
# UVM_INFO ../env/m_agent/axi_base_m_seqs.sv(26) @ 665: uvm_test_top.env_h.m_uvc_h.m_agent_h[0].m_seqr_h@@vseqs_h.m_wseqs_h [IN V SEQS] Got B-channel response from driver
# rd data in s drv: 1bda4650 , len : 3 , last:0 , valid : 1
# m mon rid : 8af9
# rd data in s drv: 22dc21c3 , len : 3 , last:1 , valid : 1
# abc : 1
# ref model mem : 508
# abc : 2
# ref model mem : 509
# abc : 3
# ref model mem : 510
# abc : 4
# ref model mem : 511
# xyz : 1
# xyz : 2
# xyz : 3
# xyz : 4
# AFFTER W CHANNEL
# req kind : READ
# m mon rid : 8af9
# UVM_INFO ../env/axi_sb.sv(78) @ 685: uvm_test_top.env_h.sb_h [after event in sb] aaaa
# UVM_INFO ../env/axi_sb.sv(76) @ 685: uvm_test_top.env_h.sb_h [before event in sb] aaaa
# match arid : 0 , rid : 0
# UVM_INFO ../env/s_agent/axi_s_drv.sv(31) @ 685: uvm_test_top.env_h.s_uvc_h.s_agent_h[0].s_drv_h [ID MATCH] aaaaa
# s seqs arid : 44353
# INIDE_SLAVE_SEQ_CTR=21
# match arid : ad41 , rid : ad41
# UVM_INFO ../env/s_agent/axi_s_drv.sv(31) @ 685: uvm_test_top.env_h.s_uvc_h.s_agent_h[0].s_drv_h [ID MATCH] aaaaa
# rd data in s drv: 1caf3200 , len : 3 , last:0 , valid : 1
# m mon rid : 6283
# rd data in s drv: 62b68558 , len : 3 , last:0 , valid : 1
# m mon rid : 6283
# req wid : 3557 , bid:3557
# UVM_INFO ../env/m_agent/axi_base_m_seqs.sv(26) @ 705: uvm_test_top.env_h.m_uvc_h.m_agent_h[0].m_seqr_h@@vseqs_h.m_wseqs_h [IN V SEQS] Got B-channel response from driver
# rd data in s drv: 346f872e , len : 3 , last:0 , valid : 1
# m mon rid : 6283
# rd data in s drv: 5172b9cc , len : 3 , last:1 , valid : 1
# abc : 1
# ref model mem : 499
# abc : 2
# ref model mem : 500
# abc : 3
# ref model mem : 501
# abc : 4
# ref model mem : 502
# xyz : 1
# xyz : 2
# xyz : 3
# xyz : 4
# AFFTER W CHANNEL
# req kind : READ
# m mon rid : 6283
# UVM_INFO ../env/axi_sb.sv(78) @ 725: uvm_test_top.env_h.sb_h [after event in sb] aaaa
# UVM_INFO ../env/axi_sb.sv(76) @ 725: uvm_test_top.env_h.sb_h [before event in sb] aaaa
# match arid : 0 , rid : 0
# UVM_INFO ../env/s_agent/axi_s_drv.sv(31) @ 725: uvm_test_top.env_h.s_uvc_h.s_agent_h[0].s_drv_h [ID MATCH] aaaaa
# s seqs arid : 34273
# INIDE_SLAVE_SEQ_CTR=22
# match arid : 85e1 , rid : 85e1
# UVM_INFO ../env/s_agent/axi_s_drv.sv(31) @ 725: uvm_test_top.env_h.s_uvc_h.s_agent_h[0].s_drv_h [ID MATCH] aaaaa
# rd data in s drv: 9e000000 , len : 3 , last:0 , valid : 1
# m mon rid : bb7b
# rd data in s drv: 29347435 , len : 3 , last:0 , valid : 1
# m mon rid : bb7b
# req wid : 13717 , bid:13717
# UVM_INFO ../env/m_agent/axi_base_m_seqs.sv(26) @ 745: uvm_test_top.env_h.m_uvc_h.m_agent_h[0].m_seqr_h@@vseqs_h.m_wseqs_h [IN V SEQS] Got B-channel response from driver
# rd data in s drv: 43b9fe37 , len : 3 , last:0 , valid : 1
# m mon rid : bb7b
# rd data in s drv: 3be473 , len : 3 , last:1 , valid : 1
# abc : 1
# ref model mem : 710
# abc : 2
# ref model mem : 711
# abc : 3
# ref model mem : 712
# abc : 4
# ref model mem : 713
# xyz : 1
# xyz : 2
# xyz : 3
# xyz : 4
# AFFTER W CHANNEL
# req kind : READ
# m mon rid : bb7b
# UVM_INFO ../env/axi_sb.sv(78) @ 765: uvm_test_top.env_h.sb_h [after event in sb] aaaa
# UVM_INFO ../env/axi_sb.sv(76) @ 765: uvm_test_top.env_h.sb_h [before event in sb] aaaa
# match arid : 0 , rid : 0
# UVM_INFO ../env/s_agent/axi_s_drv.sv(31) @ 765: uvm_test_top.env_h.s_uvc_h.s_agent_h[0].s_drv_h [ID MATCH] aaaaa
# s seqs arid : 40878
# INIDE_SLAVE_SEQ_CTR=23
# match arid : 9fae , rid : 9fae
# UVM_INFO ../env/s_agent/axi_s_drv.sv(31) @ 765: uvm_test_top.env_h.s_uvc_h.s_agent_h[0].s_drv_h [ID MATCH] aaaaa
# rd data in s drv: 8fa30000 , len : 3 , last:0 , valid : 1
# m mon rid : c84c
# rd data in s drv: 167e33ce , len : 3 , last:0 , valid : 1
# m mon rid : c84c
# req wid : 8568 , bid:8568
# UVM_INFO ../env/m_agent/axi_base_m_seqs.sv(26) @ 785: uvm_test_top.env_h.m_uvc_h.m_agent_h[0].m_seqr_h@@vseqs_h.m_wseqs_h [IN V SEQS] Got B-channel response from driver
# rd data in s drv: c98d86f4 , len : 3 , last:0 , valid : 1
# m mon rid : c84c
# rd data in s drv: 2e2e080d , len : 3 , last:1 , valid : 1
# abc : 1
# ref model mem : 369
# abc : 2
# ref model mem : 370
# abc : 3
# ref model mem : 371
# abc : 4
# ref model mem : 372
# AFFTER W CHANNEL
# req kind : READ
# m mon rid : c84c
# UVM_INFO ../env/axi_sb.sv(78) @ 805: uvm_test_top.env_h.sb_h [after event in sb] aaaa
# UVM_INFO ../env/axi_sb.sv(76) @ 805: uvm_test_top.env_h.sb_h [before event in sb] aaaa
# match arid : 0 , rid : 0
# UVM_INFO ../env/s_agent/axi_s_drv.sv(31) @ 805: uvm_test_top.env_h.s_uvc_h.s_agent_h[0].s_drv_h [ID MATCH] aaaaa
# rd data in s drv: c98d86f4 , len : 3 , last:0 , valid : 1
# m mon rid : 3760
# rd data in s drv: 2e2e080d , len : 3 , last:0 , valid : 1
# m mon rid : 3760
# req wid : 44422 , bid:44422
# UVM_INFO ../env/m_agent/axi_base_m_seqs.sv(26) @ 825: uvm_test_top.env_h.m_uvc_h.m_agent_h[0].m_seqr_h@@vseqs_h.m_wseqs_h [IN V SEQS] Got B-channel response from driver
# rd data in s drv: 0 , len : 3 , last:0 , valid : 1
# m mon rid : 3760
# rd data in s drv: 0 , len : 3 , last:1 , valid : 1
# abc : 1
# ref model mem : 22
# abc : 2
# ref model mem : 23
# abc : 3
# ref model mem : 24
# abc : 4
# ref model mem : 25
# xyz : 1
# xyz : 2
# xyz : 3
# xyz : 4
# AFFTER W CHANNEL
# req kind : READ
# m mon rid : 3760
# UVM_INFO ../env/axi_sb.sv(78) @ 845: uvm_test_top.env_h.sb_h [after event in sb] aaaa
# UVM_INFO ../env/axi_sb.sv(76) @ 845: uvm_test_top.env_h.sb_h [before event in sb] aaaa
# match arid : 0 , rid : 0
# UVM_INFO ../env/s_agent/axi_s_drv.sv(31) @ 845: uvm_test_top.env_h.s_uvc_h.s_agent_h[0].s_drv_h [ID MATCH] aaaaa
# s seqs arid : 39064
# INIDE_SLAVE_SEQ_CTR=24
# match arid : 9898 , rid : 9898
# UVM_INFO ../env/s_agent/axi_s_drv.sv(31) @ 845: uvm_test_top.env_h.s_uvc_h.s_agent_h[0].s_drv_h [ID MATCH] aaaaa
# rd data in s drv: f8000000 , len : 3 , last:0 , valid : 1
# m mon rid : ad41
# rd data in s drv: c2374bc8 , len : 3 , last:0 , valid : 1
# m mon rid : ad41
# req wid : 65129 , bid:65129
# UVM_INFO ../env/m_agent/axi_base_m_seqs.sv(26) @ 865: uvm_test_top.env_h.m_uvc_h.m_agent_h[0].m_seqr_h@@vseqs_h.m_wseqs_h [IN V SEQS] Got B-channel response from driver
# rd data in s drv: 38d4c252 , len : 3 , last:0 , valid : 1
# m mon rid : ad41
# rd data in s drv: d10bfa61 , len : 3 , last:1 , valid : 1
# abc : 1
# ref model mem : 87
# abc : 2
# ref model mem : 88
# abc : 3
# ref model mem : 89
# abc : 4
# ref model mem : 90
# xyz : 1
# xyz : 2
# xyz : 3
# xyz : 4
# AFFTER W CHANNEL
# req kind : READ
# m mon rid : ad41
# UVM_INFO ../env/axi_sb.sv(78) @ 885: uvm_test_top.env_h.sb_h [after event in sb] aaaa
# UVM_INFO ../env/axi_sb.sv(76) @ 885: uvm_test_top.env_h.sb_h [before event in sb] aaaa
# match arid : 0 , rid : 0
# UVM_INFO ../env/s_agent/axi_s_drv.sv(31) @ 885: uvm_test_top.env_h.s_uvc_h.s_agent_h[0].s_drv_h [ID MATCH] aaaaa
# s seqs arid : 62773
# INIDE_SLAVE_SEQ_CTR=25
# match arid : f535 , rid : f535
# UVM_INFO ../env/s_agent/axi_s_drv.sv(31) @ 885: uvm_test_top.env_h.s_uvc_h.s_agent_h[0].s_drv_h [ID MATCH] aaaaa
# rd data in s drv: 194e0000 , len : 3 , last:0 , valid : 1
# m mon rid : 85e1
# rd data in s drv: 55ae3a3a , len : 3 , last:0 , valid : 1
# m mon rid : 85e1
# req wid : 6012 , bid:6012
# UVM_INFO ../env/m_agent/axi_base_m_seqs.sv(26) @ 905: uvm_test_top.env_h.m_uvc_h.m_agent_h[0].m_seqr_h@@vseqs_h.m_wseqs_h [IN V SEQS] Got B-channel response from driver
# rd data in s drv: 98339ceb , len : 3 , last:0 , valid : 1
# m mon rid : 85e1
# rd data in s drv: 2bbfbc60 , len : 3 , last:1 , valid : 1
# abc : 1
# ref model mem : 297
# abc : 2
# ref model mem : 298
# abc : 3
# ref model mem : 299
# abc : 4
# ref model mem : 300
# xyz : 1
# xyz : 2
# xyz : 3
# xyz : 4
# AFFTER W CHANNEL
# req kind : READ
# m mon rid : 85e1
# UVM_INFO ../env/axi_sb.sv(78) @ 925: uvm_test_top.env_h.sb_h [after event in sb] aaaa
# UVM_INFO ../env/axi_sb.sv(76) @ 925: uvm_test_top.env_h.sb_h [before event in sb] aaaa
# match arid : 0 , rid : 0
# UVM_INFO ../env/s_agent/axi_s_drv.sv(31) @ 925: uvm_test_top.env_h.s_uvc_h.s_agent_h[0].s_drv_h [ID MATCH] aaaaa
# s seqs arid : 60350
# INIDE_SLAVE_SEQ_CTR=26
# match arid : ebbe , rid : ebbe
# UVM_INFO ../env/s_agent/axi_s_drv.sv(31) @ 925: uvm_test_top.env_h.s_uvc_h.s_agent_h[0].s_drv_h [ID MATCH] aaaaa
# rd data in s drv: efe6ee00 , len : 3 , last:0 , valid : 1
# m mon rid : 9fae
# rd data in s drv: 83d11aa2 , len : 3 , last:0 , valid : 1
# m mon rid : 9fae
# req wid : 26141 , bid:26141
# UVM_INFO ../env/m_agent/axi_base_m_seqs.sv(26) @ 945: uvm_test_top.env_h.m_uvc_h.m_agent_h[0].m_seqr_h@@vseqs_h.m_wseqs_h [IN V SEQS] Got B-channel response from driver
# rd data in s drv: 489eab56 , len : 3 , last:0 , valid : 1
# m mon rid : 9fae
# rd data in s drv: e3dafdae , len : 3 , last:1 , valid : 1
# abc : 1
# ref model mem : 917
# abc : 2
# ref model mem : 918
# abc : 3
# ref model mem : 919
# abc : 4
# ref model mem : 920
# xyz : 1
# xyz : 2
# xyz : 3
# xyz : 4
# AFFTER W CHANNEL
# req kind : READ
# m mon rid : 9fae
# UVM_INFO ../env/axi_sb.sv(78) @ 965: uvm_test_top.env_h.sb_h [after event in sb] aaaa
# UVM_INFO ../env/axi_sb.sv(76) @ 965: uvm_test_top.env_h.sb_h [before event in sb] aaaa
# match arid : 0 , rid : 0
# UVM_INFO ../env/s_agent/axi_s_drv.sv(31) @ 965: uvm_test_top.env_h.s_uvc_h.s_agent_h[0].s_drv_h [ID MATCH] aaaaa
# s seqs arid : 45043
# INIDE_SLAVE_SEQ_CTR=27
# match arid : aff3 , rid : aff3
# UVM_INFO ../env/s_agent/axi_s_drv.sv(31) @ 965: uvm_test_top.env_h.s_uvc_h.s_agent_h[0].s_drv_h [ID MATCH] aaaaa
# rd data in s drv: d48e2600 , len : 3 , last:0 , valid : 1
# m mon rid : 9898
# rd data in s drv: 8fdf6496 , len : 3 , last:0 , valid : 1
# m mon rid : 9898
# req wid : 59295 , bid:59295
# UVM_INFO ../env/m_agent/axi_base_m_seqs.sv(26) @ 985: uvm_test_top.env_h.m_uvc_h.m_agent_h[0].m_seqr_h@@vseqs_h.m_wseqs_h [IN V SEQS] Got B-channel response from driver
# rd data in s drv: 948f84bc , len : 3 , last:0 , valid : 1
# m mon rid : 9898
# rd data in s drv: d1fa8698 , len : 3 , last:1 , valid : 1
# abc : 1
# ref model mem : 764
# abc : 2
# ref model mem : 765
# abc : 3
# ref model mem : 766
# abc : 4
# ref model mem : 767
# xyz : 1
# xyz : 2
# xyz : 3
# xyz : 4
# AFFTER W CHANNEL
# req kind : READ
# m mon rid : 9898
# UVM_INFO ../env/axi_sb.sv(78) @ 1005: uvm_test_top.env_h.sb_h [after event in sb] aaaa
# UVM_INFO ../env/axi_sb.sv(76) @ 1005: uvm_test_top.env_h.sb_h [before event in sb] aaaa
# match arid : 0 , rid : 0
# UVM_INFO ../env/s_agent/axi_s_drv.sv(31) @ 1005: uvm_test_top.env_h.s_uvc_h.s_agent_h[0].s_drv_h [ID MATCH] aaaaa
# s seqs arid : 15796
# INIDE_SLAVE_SEQ_CTR=28
# match arid : 3db4 , rid : 3db4
# UVM_INFO ../env/s_agent/axi_s_drv.sv(31) @ 1005: uvm_test_top.env_h.s_uvc_h.s_agent_h[0].s_drv_h [ID MATCH] aaaaa
# rd data in s drv: 8e20000 , len : 3 , last:0 , valid : 1
# m mon rid : f535
# rd data in s drv: e2de1c47 , len : 3 , last:0 , valid : 1
# m mon rid : f535
# req wid : 23954 , bid:23954
# UVM_INFO ../env/m_agent/axi_base_m_seqs.sv(26) @ 1025: uvm_test_top.env_h.m_uvc_h.m_agent_h[0].m_seqr_h@@vseqs_h.m_wseqs_h [IN V SEQS] Got B-channel response from driver
# rd data in s drv: db900cc0 , len : 3 , last:0 , valid : 1
# m mon rid : f535
# rd data in s drv: 50435ffc , len : 3 , last:1 , valid : 1
# abc : 1
# ref model mem : 583
# abc : 2
# ref model mem : 584
# abc : 3
# ref model mem : 585
# abc : 4
# ref model mem : 586
# xyz : 1
# xyz : 2
# xyz : 3
# xyz : 4
# AFFTER W CHANNEL
# req kind : READ
# m mon rid : f535
# UVM_INFO ../env/axi_sb.sv(78) @ 1045: uvm_test_top.env_h.sb_h [after event in sb] aaaa
# UVM_INFO ../env/axi_sb.sv(76) @ 1045: uvm_test_top.env_h.sb_h [before event in sb] aaaa
# match arid : 0 , rid : 0
# UVM_INFO ../env/s_agent/axi_s_drv.sv(31) @ 1045: uvm_test_top.env_h.s_uvc_h.s_agent_h[0].s_drv_h [ID MATCH] aaaaa
# s seqs arid : 64427
# INIDE_SLAVE_SEQ_CTR=29
# match arid : fbab , rid : fbab
# UVM_INFO ../env/s_agent/axi_s_drv.sv(31) @ 1045: uvm_test_top.env_h.s_uvc_h.s_agent_h[0].s_drv_h [ID MATCH] aaaaa
# rd data in s drv: 57e01e0e , len : 3 , last:0 , valid : 1
# m mon rid : ebbe
# rd data in s drv: c61a22ea , len : 3 , last:0 , valid : 1
# m mon rid : ebbe
# req wid : 29878 , bid:29878
# UVM_INFO ../env/m_agent/axi_base_m_seqs.sv(26) @ 1065: uvm_test_top.env_h.m_uvc_h.m_agent_h[0].m_seqr_h@@vseqs_h.m_wseqs_h [IN V SEQS] Got B-channel response from driver
# rd data in s drv: f6be4664 , len : 3 , last:0 , valid : 1
# m mon rid : ebbe
# rd data in s drv: 437ddebe , len : 3 , last:1 , valid : 1
# abc : 1
# ref model mem : 520
# abc : 2
# ref model mem : 521
# abc : 3
# ref model mem : 522
# abc : 4
# ref model mem : 523
# xyz : 1
# xyz : 2
# xyz : 3
# xyz : 4
# AFFTER W CHANNEL
# req kind : READ
# m mon rid : ebbe
# UVM_INFO ../env/axi_sb.sv(78) @ 1085: uvm_test_top.env_h.sb_h [after event in sb] aaaa
# UVM_INFO ../env/axi_sb.sv(76) @ 1085: uvm_test_top.env_h.sb_h [before event in sb] aaaa
# match arid : 0 , rid : 0
# UVM_INFO ../env/s_agent/axi_s_drv.sv(31) @ 1085: uvm_test_top.env_h.s_uvc_h.s_agent_h[0].s_drv_h [ID MATCH] aaaaa
# s seqs arid : 15132
# INIDE_SLAVE_SEQ_CTR=30
# match arid : 3b1c , rid : 3b1c
# UVM_INFO ../env/s_agent/axi_s_drv.sv(31) @ 1085: uvm_test_top.env_h.s_uvc_h.s_agent_h[0].s_drv_h [ID MATCH] aaaaa
# rd data in s drv: 9a338bb3 , len : 3 , last:0 , valid : 1
# m mon rid : aff3
# rd data in s drv: 86b7504d , len : 3 , last:0 , valid : 1
# m mon rid : aff3
# req wid : 10880 , bid:10880
# UVM_INFO ../env/m_agent/axi_base_m_seqs.sv(26) @ 1105: uvm_test_top.env_h.m_uvc_h.m_agent_h[0].m_seqr_h@@vseqs_h.m_wseqs_h [IN V SEQS] Got B-channel response from driver
# rd data in s drv: a97bcad2 , len : 3 , last:0 , valid : 1
# m mon rid : aff3
# rd data in s drv: b365884c , len : 3 , last:1 , valid : 1
# abc : 1
# ref model mem : 44
# abc : 2
# ref model mem : 45
# abc : 3
# ref model mem : 46
# abc : 4
# ref model mem : 47
# xyz : 1
# xyz : 2
# xyz : 3
# xyz : 4
# AFFTER W CHANNEL
# req kind : READ
# m mon rid : aff3
# UVM_INFO ../env/axi_sb.sv(78) @ 1125: uvm_test_top.env_h.sb_h [after event in sb] aaaa
# UVM_INFO ../env/axi_sb.sv(76) @ 1125: uvm_test_top.env_h.sb_h [before event in sb] aaaa
# match arid : 0 , rid : 0
# UVM_INFO ../env/s_agent/axi_s_drv.sv(31) @ 1125: uvm_test_top.env_h.s_uvc_h.s_agent_h[0].s_drv_h [ID MATCH] aaaaa
# s seqs arid : 25003
# INIDE_SLAVE_SEQ_CTR=31
# match arid : 61ab , rid : 61ab
# UVM_INFO ../env/s_agent/axi_s_drv.sv(31) @ 1125: uvm_test_top.env_h.s_uvc_h.s_agent_h[0].s_drv_h [ID MATCH] aaaaa
# rd data in s drv: db000000 , len : 3 , last:0 , valid : 1
# m mon rid : 3db4
# rd data in s drv: a5565310 , len : 3 , last:0 , valid : 1
# m mon rid : 3db4
# req wid : 8187 , bid:8187
# UVM_INFO ../env/m_agent/axi_base_m_seqs.sv(26) @ 1145: uvm_test_top.env_h.m_uvc_h.m_agent_h[0].m_seqr_h@@vseqs_h.m_wseqs_h [IN V SEQS] Got B-channel response from driver
# rd data in s drv: affeddb5 , len : 3 , last:0 , valid : 1
# m mon rid : 3db4
# rd data in s drv: 7f9f11df , len : 3 , last:1 , valid : 1
# abc : 1
# ref model mem : 551
# abc : 2
# ref model mem : 552
# abc : 3
# ref model mem : 553
# abc : 4
# ref model mem : 554
# xyz : 1
# xyz : 2
# xyz : 3
# xyz : 4
# AFFTER W CHANNEL
# req kind : READ
# m mon rid : 3db4
# UVM_INFO ../env/axi_sb.sv(78) @ 1165: uvm_test_top.env_h.sb_h [after event in sb] aaaa
# UVM_INFO ../env/axi_sb.sv(76) @ 1165: uvm_test_top.env_h.sb_h [before event in sb] aaaa
# match arid : 0 , rid : 0
# UVM_INFO ../env/s_agent/axi_s_drv.sv(31) @ 1165: uvm_test_top.env_h.s_uvc_h.s_agent_h[0].s_drv_h [ID MATCH] aaaaa
# s seqs arid : 51408
# INIDE_SLAVE_SEQ_CTR=32
# match arid : c8d0 , rid : c8d0
# UVM_INFO ../env/s_agent/axi_s_drv.sv(31) @ 1165: uvm_test_top.env_h.s_uvc_h.s_agent_h[0].s_drv_h [ID MATCH] aaaaa
# rd data in s drv: 96280000 , len : 3 , last:0 , valid : 1
# m mon rid : fbab
# rd data in s drv: ce5fb8ab , len : 3 , last:0 , valid : 1
# m mon rid : fbab
# req wid : 17206 , bid:17206
# UVM_INFO ../env/m_agent/axi_base_m_seqs.sv(26) @ 1185: uvm_test_top.env_h.m_uvc_h.m_agent_h[0].m_seqr_h@@vseqs_h.m_wseqs_h [IN V SEQS] Got B-channel response from driver
# rd data in s drv: 476e8e07 , len : 3 , last:0 , valid : 1
# m mon rid : fbab
# rd data in s drv: c87e607f , len : 3 , last:1 , valid : 1
# abc : 1
# ref model mem : 356
# abc : 2
# ref model mem : 357
# abc : 3
# ref model mem : 358
# abc : 4
# ref model mem : 359
# xyz : 1
# xyz : 2
# xyz : 3
# xyz : 4
# AFFTER W CHANNEL
# req kind : READ
# m mon rid : fbab
# UVM_INFO ../env/axi_sb.sv(78) @ 1205: uvm_test_top.env_h.sb_h [after event in sb] aaaa
# UVM_INFO ../env/axi_sb.sv(76) @ 1205: uvm_test_top.env_h.sb_h [before event in sb] aaaa
# match arid : 0 , rid : 0
# UVM_INFO ../env/s_agent/axi_s_drv.sv(31) @ 1205: uvm_test_top.env_h.s_uvc_h.s_agent_h[0].s_drv_h [ID MATCH] aaaaa
# s seqs arid : 29970
# INIDE_SLAVE_SEQ_CTR=33
# match arid : 7512 , rid : 7512
# UVM_INFO ../env/s_agent/axi_s_drv.sv(31) @ 1205: uvm_test_top.env_h.s_uvc_h.s_agent_h[0].s_drv_h [ID MATCH] aaaaa
# rd data in s drv: 2000000 , len : 3 , last:0 , valid : 1
# m mon rid : 3b1c
# rd data in s drv: cf1f676d , len : 3 , last:0 , valid : 1
# m mon rid : 3b1c
# req wid : 10359 , bid:10359
# UVM_INFO ../env/m_agent/axi_base_m_seqs.sv(26) @ 1225: uvm_test_top.env_h.m_uvc_h.m_agent_h[0].m_seqr_h@@vseqs_h.m_wseqs_h [IN V SEQS] Got B-channel response from driver
# rd data in s drv: 502dab8a , len : 3 , last:0 , valid : 1
# m mon rid : 3b1c
# rd data in s drv: aee101a , len : 3 , last:1 , valid : 1
# abc : 1
# ref model mem : 540
# abc : 2
# ref model mem : 541
# abc : 3
# ref model mem : 542
# abc : 4
# ref model mem : 543
# xyz : 1
# xyz : 2
# xyz : 3
# xyz : 4
# AFFTER W CHANNEL
# req kind : READ
# m mon rid : 3b1c
# UVM_INFO ../env/axi_sb.sv(78) @ 1245: uvm_test_top.env_h.sb_h [after event in sb] aaaa
# UVM_INFO ../env/axi_sb.sv(76) @ 1245: uvm_test_top.env_h.sb_h [before event in sb] aaaa
# match arid : 0 , rid : 0
# UVM_INFO ../env/s_agent/axi_s_drv.sv(31) @ 1245: uvm_test_top.env_h.s_uvc_h.s_agent_h[0].s_drv_h [ID MATCH] aaaaa
# s seqs arid : 11395
# INIDE_SLAVE_SEQ_CTR=34
# match arid : 2c83 , rid : 2c83
# UVM_INFO ../env/s_agent/axi_s_drv.sv(31) @ 1245: uvm_test_top.env_h.s_uvc_h.s_agent_h[0].s_drv_h [ID MATCH] aaaaa
# rd data in s drv: c0000000 , len : 3 , last:0 , valid : 1
# m mon rid : 61ab
# rd data in s drv: 73a7f155 , len : 3 , last:0 , valid : 1
# m mon rid : 61ab
# req wid : 857 , bid:857
# UVM_INFO ../env/m_agent/axi_base_m_seqs.sv(26) @ 1265: uvm_test_top.env_h.m_uvc_h.m_agent_h[0].m_seqr_h@@vseqs_h.m_wseqs_h [IN V SEQS] Got B-channel response from driver
# rd data in s drv: bf796793 , len : 3 , last:0 , valid : 1
# m mon rid : 61ab
# rd data in s drv: 4f00fd62 , len : 3 , last:1 , valid : 1
# abc : 1
# ref model mem : 868
# abc : 2
# ref model mem : 869
# abc : 3
# ref model mem : 870
# abc : 4
# ref model mem : 871
# xyz : 1
# xyz : 2
# xyz : 3
# xyz : 4
# xyz : 5
# xyz : 6
# xyz : 7
# ** Warning: (vsim-3829) Non-existent associative array entry. Returning default value.
#    Time: 1285 ns  Iteration: 2  Process: /axi_s_agent_pkg::axi_s_mon #(32, 32)::monitor/#FORK#34_7fefec26b57 File: ../env/axi_ref_model.sv Line: 79
# xyz : 8
# AFFTER W CHANNEL
# req kind : READ
# m mon rid : 61ab
# UVM_INFO ../env/axi_sb.sv(78) @ 1285: uvm_test_top.env_h.sb_h [after event in sb] aaaa
# UVM_INFO ../env/axi_sb.sv(76) @ 1285: uvm_test_top.env_h.sb_h [before event in sb] aaaa
# match arid : 0 , rid : 0
# UVM_INFO ../env/s_agent/axi_s_drv.sv(31) @ 1285: uvm_test_top.env_h.s_uvc_h.s_agent_h[0].s_drv_h [ID MATCH] aaaaa
# s seqs arid : 43166
# INIDE_SLAVE_SEQ_CTR=35
# match arid : a89e , rid : a89e
# UVM_INFO ../env/s_agent/axi_s_drv.sv(31) @ 1285: uvm_test_top.env_h.s_uvc_h.s_agent_h[0].s_drv_h [ID MATCH] aaaaa
# ** Warning: (vsim-3829) Non-existent associative array entry. Returning default value.
#    Time: 1285 ns  Iteration: 12  Process: /uvm_pkg::uvm_sequence_base::start/#FORK#294_7fefec26885 File: ../env/s_agent/axi_base_s_seqs.sv Line: 103
# s seqs arid : 12754
# INIDE_SLAVE_SEQ_CTR=36
# match arid : 31d2 , rid : 31d2
# UVM_INFO ../env/s_agent/axi_s_drv.sv(31) @ 1285: uvm_test_top.env_h.s_uvc_h.s_agent_h[0].s_drv_h [ID MATCH] aaaaa
# rd data in s drv: efca0000 , len : 3 , last:0 , valid : 1
# m mon rid : c8d0
# rd data in s drv: d90a2ccc , len : 3 , last:0 , valid : 1
# m mon rid : c8d0
# req wid : 14014 , bid:14014
# UVM_INFO ../env/m_agent/axi_base_m_seqs.sv(26) @ 1305: uvm_test_top.env_h.m_uvc_h.m_agent_h[0].m_seqr_h@@vseqs_h.m_wseqs_h [IN V SEQS] Got B-channel response from driver
# rd data in s drv: 3e39828c , len : 3 , last:0 , valid : 1
# m mon rid : c8d0
# rd data in s drv: b8949cb7 , len : 3 , last:1 , valid : 1
# abc : 1
# ref model mem : 947
# abc : 2
# ref model mem : 948
# abc : 3
# ref model mem : 949
# abc : 4
# ref model mem : 950
# xyz : 1
# xyz : 2
# xyz : 3
# xyz : 4
# xyz : 5
# xyz : 6
# xyz : 7
# ** Warning: (vsim-3829) Non-existent associative array entry. Returning default value.
#    Time: 1325 ns  Iteration: 2  Process: /axi_s_agent_pkg::axi_s_mon #(32, 32)::monitor/#FORK#34_7fefec26b57 File: ../env/axi_ref_model.sv Line: 79
# xyz : 8
# AFFTER W CHANNEL
# req kind : READ
# m mon rid : c8d0
# UVM_INFO ../env/axi_sb.sv(78) @ 1325: uvm_test_top.env_h.sb_h [after event in sb] aaaa
# UVM_INFO ../env/axi_sb.sv(76) @ 1325: uvm_test_top.env_h.sb_h [before event in sb] aaaa
# match arid : 0 , rid : 0
# UVM_INFO ../env/s_agent/axi_s_drv.sv(31) @ 1325: uvm_test_top.env_h.s_uvc_h.s_agent_h[0].s_drv_h [ID MATCH] aaaaa
# s seqs arid : 11187
# INIDE_SLAVE_SEQ_CTR=37
# match arid : 2bb3 , rid : 2bb3
# UVM_INFO ../env/s_agent/axi_s_drv.sv(31) @ 1325: uvm_test_top.env_h.s_uvc_h.s_agent_h[0].s_drv_h [ID MATCH] aaaaa
# ** Warning: (vsim-3829) Non-existent associative array entry. Returning default value.
#    Time: 1325 ns  Iteration: 12  Process: /uvm_pkg::uvm_sequence_base::start/#FORK#294_7fefec26885 File: ../env/s_agent/axi_base_s_seqs.sv Line: 103
# s seqs arid : 9563
# INIDE_SLAVE_SEQ_CTR=38
# match arid : 255b , rid : 255b
# UVM_INFO ../env/s_agent/axi_s_drv.sv(31) @ 1325: uvm_test_top.env_h.s_uvc_h.s_agent_h[0].s_drv_h [ID MATCH] aaaaa
# rd data in s drv: bf000000 , len : 3 , last:0 , valid : 1
# m mon rid : 7512
# rd data in s drv: 5c22a82a , len : 3 , last:0 , valid : 1
# m mon rid : 7512
# req wid : 12583 , bid:12583
# UVM_INFO ../env/m_agent/axi_base_m_seqs.sv(26) @ 1345: uvm_test_top.env_h.m_uvc_h.m_agent_h[0].m_seqr_h@@vseqs_h.m_wseqs_h [IN V SEQS] Got B-channel response from driver
# rd data in s drv: 17d9543d , len : 3 , last:0 , valid : 1
# m mon rid : 7512
# rd data in s drv: 7cb0c74f , len : 3 , last:1 , valid : 1
# abc : 1
# ref model mem : 436
# abc : 2
# ref model mem : 437
# abc : 3
# ref model mem : 438
# abc : 4
# ref model mem : 439
# xyz : 1
# xyz : 2
# xyz : 3
# xyz : 4
# AFFTER W CHANNEL
# req kind : READ
# m mon rid : 7512
# UVM_INFO ../env/axi_sb.sv(78) @ 1365: uvm_test_top.env_h.sb_h [after event in sb] aaaa
# UVM_INFO ../env/axi_sb.sv(76) @ 1365: uvm_test_top.env_h.sb_h [before event in sb] aaaa
# match arid : 0 , rid : 0
# UVM_INFO ../env/s_agent/axi_s_drv.sv(31) @ 1365: uvm_test_top.env_h.s_uvc_h.s_agent_h[0].s_drv_h [ID MATCH] aaaaa
# s seqs arid : 5180
# INIDE_SLAVE_SEQ_CTR=39
# match arid : 143c , rid : 143c
# UVM_INFO ../env/s_agent/axi_s_drv.sv(31) @ 1365: uvm_test_top.env_h.s_uvc_h.s_agent_h[0].s_drv_h [ID MATCH] aaaaa
# rd data in s drv: 79000000 , len : 3 , last:0 , valid : 1
# m mon rid : 2c83
# rd data in s drv: 28ab3b47 , len : 3 , last:0 , valid : 1
# m mon rid : 2c83
# req wid : 21072 , bid:21072
# UVM_INFO ../env/m_agent/axi_base_m_seqs.sv(26) @ 1385: uvm_test_top.env_h.m_uvc_h.m_agent_h[0].m_seqr_h@@vseqs_h.m_wseqs_h [IN V SEQS] Got B-channel response from driver
# rd data in s drv: 1734046b , len : 3 , last:0 , valid : 1
# m mon rid : 2c83
# rd data in s drv: dd4d13b4 , len : 3 , last:1 , valid : 1
# abc : 1
# ref model mem : 475
# abc : 2
# ref model mem : 476
# abc : 3
# ref model mem : 477
# abc : 4
# ref model mem : 478
# xyz : 1
# xyz : 2
# xyz : 3
# xyz : 4
# AFFTER W CHANNEL
# req kind : READ
# m mon rid : 2c83
# UVM_INFO ../env/axi_sb.sv(78) @ 1405: uvm_test_top.env_h.sb_h [after event in sb] aaaa
# UVM_INFO ../env/axi_sb.sv(76) @ 1405: uvm_test_top.env_h.sb_h [before event in sb] aaaa
# match arid : 0 , rid : 0
# UVM_INFO ../env/s_agent/axi_s_drv.sv(31) @ 1405: uvm_test_top.env_h.s_uvc_h.s_agent_h[0].s_drv_h [ID MATCH] aaaaa
# s seqs arid : 33047
# INIDE_SLAVE_SEQ_CTR=40
# match arid : 8117 , rid : 8117
# UVM_INFO ../env/s_agent/axi_s_drv.sv(31) @ 1405: uvm_test_top.env_h.s_uvc_h.s_agent_h[0].s_drv_h [ID MATCH] aaaaa
# rd data in s drv: f3000000 , len : 3 , last:0 , valid : 1
# m mon rid : a89e
# rd data in s drv: 94eb1e7c , len : 3 , last:0 , valid : 1
# m mon rid : a89e
# req wid : 12011 , bid:12011
# UVM_INFO ../env/m_agent/axi_base_m_seqs.sv(26) @ 1425: uvm_test_top.env_h.m_uvc_h.m_agent_h[0].m_seqr_h@@vseqs_h.m_wseqs_h [IN V SEQS] Got B-channel response from driver
# rd data in s drv: 57bb5f55 , len : 3 , last:0 , valid : 1
# m mon rid : a89e
# rd data in s drv: cdaaffbf , len : 3 , last:1 , valid : 1
# abc : 1
# ref model mem : 328
# abc : 2
# ref model mem : 329
# abc : 3
# ref model mem : 330
# abc : 4
# ref model mem : 331
# xyz : 1
# xyz : 2
# xyz : 3
# xyz : 4
# AFFTER W CHANNEL
# req kind : READ
# m mon rid : a89e
# UVM_INFO ../env/axi_sb.sv(78) @ 1445: uvm_test_top.env_h.sb_h [after event in sb] aaaa
# UVM_INFO ../env/axi_sb.sv(76) @ 1445: uvm_test_top.env_h.sb_h [before event in sb] aaaa
# match arid : 0 , rid : 0
# UVM_INFO ../env/s_agent/axi_s_drv.sv(31) @ 1445: uvm_test_top.env_h.s_uvc_h.s_agent_h[0].s_drv_h [ID MATCH] aaaaa
# s seqs arid : 41870
# INIDE_SLAVE_SEQ_CTR=41
# match arid : a38e , rid : a38e
# UVM_INFO ../env/s_agent/axi_s_drv.sv(31) @ 1445: uvm_test_top.env_h.s_uvc_h.s_agent_h[0].s_drv_h [ID MATCH] aaaaa
# rd data in s drv: 94eb1e7c , len : 3 , last:0 , valid : 1
# m mon rid : 31d2
# rd data in s drv: 57bb5f55 , len : 3 , last:0 , valid : 1
# m mon rid : 31d2
# req wid : 11344 , bid:11344
# UVM_INFO ../env/m_agent/axi_base_m_seqs.sv(26) @ 1465: uvm_test_top.env_h.m_uvc_h.m_agent_h[0].m_seqr_h@@vseqs_h.m_wseqs_h [IN V SEQS] Got B-channel response from driver
# rd data in s drv: cdaaffbf , len : 3 , last:0 , valid : 1
# m mon rid : 31d2
# rd data in s drv: 0 , len : 3 , last:1 , valid : 1
# abc : 1
# ref model mem : 773
# abc : 2
# ref model mem : 774
# abc : 3
# ref model mem : 775
# abc : 4
# ref model mem : 776
# AFFTER W CHANNEL
# req kind : READ
# m mon rid : 31d2
# UVM_INFO ../env/axi_sb.sv(78) @ 1485: uvm_test_top.env_h.sb_h [after event in sb] aaaa
# UVM_INFO ../env/axi_sb.sv(76) @ 1485: uvm_test_top.env_h.sb_h [before event in sb] aaaa
# match arid : 0 , rid : 0
# UVM_INFO ../env/s_agent/axi_s_drv.sv(31) @ 1485: uvm_test_top.env_h.s_uvc_h.s_agent_h[0].s_drv_h [ID MATCH] aaaaa
# rd data in s drv: 495e0000 , len : 3 , last:0 , valid : 1
# m mon rid : 2bb3
# rd data in s drv: ec4f5585 , len : 3 , last:0 , valid : 1
# m mon rid : 2bb3
# req wid : 33036 , bid:33036
# UVM_INFO ../env/m_agent/axi_base_m_seqs.sv(26) @ 1505: uvm_test_top.env_h.m_uvc_h.m_agent_h[0].m_seqr_h@@vseqs_h.m_wseqs_h [IN V SEQS] Got B-channel response from driver
# rd data in s drv: c8fa413b , len : 3 , last:0 , valid : 1
# m mon rid : 2bb3
# rd data in s drv: 9bf6d0bf , len : 3 , last:1 , valid : 1
# abc : 1
# ref model mem : 205
# abc : 2
# ref model mem : 206
# abc : 3
# ref model mem : 207
# abc : 4
# ref model mem : 208
# AFFTER W CHANNEL
# req kind : READ
# m mon rid : 2bb3
# UVM_INFO ../env/axi_sb.sv(78) @ 1525: uvm_test_top.env_h.sb_h [after event in sb] aaaa
# UVM_INFO ../env/axi_sb.sv(76) @ 1525: uvm_test_top.env_h.sb_h [before event in sb] aaaa
# match arid : 0 , rid : 0
# UVM_INFO ../env/s_agent/axi_s_drv.sv(31) @ 1525: uvm_test_top.env_h.s_uvc_h.s_agent_h[0].s_drv_h [ID MATCH] aaaaa
# rd data in s drv: ec4f5585 , len : 3 , last:0 , valid : 1
# m mon rid : 255b
# rd data in s drv: c8fa413b , len : 3 , last:0 , valid : 1
# m mon rid : 255b
# req wid : 52090 , bid:52090
# UVM_INFO ../env/m_agent/axi_base_m_seqs.sv(26) @ 1545: uvm_test_top.env_h.m_uvc_h.m_agent_h[0].m_seqr_h@@vseqs_h.m_wseqs_h [IN V SEQS] Got B-channel response from driver
# rd data in s drv: 9bf6d0bf , len : 3 , last:0 , valid : 1
# m mon rid : 255b
# rd data in s drv: 0 , len : 3 , last:1 , valid : 1
# abc : 1
# ref model mem : 571
# abc : 2
# ref model mem : 572
# abc : 3
# ref model mem : 573
# abc : 4
# ref model mem : 574
# xyz : 1
# xyz : 2
# xyz : 3
# xyz : 4
# AFFTER W CHANNEL
# req kind : READ
# m mon rid : 255b
# UVM_INFO ../env/axi_sb.sv(78) @ 1565: uvm_test_top.env_h.sb_h [after event in sb] aaaa
# UVM_INFO ../env/axi_sb.sv(76) @ 1565: uvm_test_top.env_h.sb_h [before event in sb] aaaa
# match arid : 0 , rid : 0
# UVM_INFO ../env/s_agent/axi_s_drv.sv(31) @ 1565: uvm_test_top.env_h.s_uvc_h.s_agent_h[0].s_drv_h [ID MATCH] aaaaa
# s seqs arid : 29379
# INIDE_SLAVE_SEQ_CTR=42
# match arid : 72c3 , rid : 72c3
# UVM_INFO ../env/s_agent/axi_s_drv.sv(31) @ 1565: uvm_test_top.env_h.s_uvc_h.s_agent_h[0].s_drv_h [ID MATCH] aaaaa
# rd data in s drv: 8d000000 , len : 3 , last:0 , valid : 1
# m mon rid : 143c
# rd data in s drv: 34abba76 , len : 3 , last:0 , valid : 1
# m mon rid : 143c
# req wid : 11006 , bid:11006
# UVM_INFO ../env/m_agent/axi_base_m_seqs.sv(26) @ 1585: uvm_test_top.env_h.m_uvc_h.m_agent_h[0].m_seqr_h@@vseqs_h.m_wseqs_h [IN V SEQS] Got B-channel response from driver
# rd data in s drv: e36d973f , len : 3 , last:0 , valid : 1
# m mon rid : 143c
# rd data in s drv: 8a0ee082 , len : 3 , last:1 , valid : 1
# abc : 1
# ref model mem : 678
# abc : 2
# ref model mem : 679
# abc : 3
# ref model mem : 680
# abc : 4
# ref model mem : 681
# xyz : 1
# xyz : 2
# xyz : 3
# xyz : 4
# AFFTER W CHANNEL
# req kind : READ
# m mon rid : 143c
# UVM_INFO ../env/axi_sb.sv(78) @ 1605: uvm_test_top.env_h.sb_h [after event in sb] aaaa
# UVM_INFO ../env/axi_sb.sv(76) @ 1605: uvm_test_top.env_h.sb_h [before event in sb] aaaa
# match arid : 0 , rid : 0
# UVM_INFO ../env/s_agent/axi_s_drv.sv(31) @ 1605: uvm_test_top.env_h.s_uvc_h.s_agent_h[0].s_drv_h [ID MATCH] aaaaa
# s seqs arid : 11568
# INIDE_SLAVE_SEQ_CTR=43
# match arid : 2d30 , rid : 2d30
# UVM_INFO ../env/s_agent/axi_s_drv.sv(31) @ 1605: uvm_test_top.env_h.s_uvc_h.s_agent_h[0].s_drv_h [ID MATCH] aaaaa
# rd data in s drv: 60ff0000 , len : 3 , last:0 , valid : 1
# m mon rid : 8117
# rd data in s drv: 74412a88 , len : 3 , last:0 , valid : 1
# m mon rid : 8117
# req wid : 37036 , bid:37036
# UVM_INFO ../env/m_agent/axi_base_m_seqs.sv(26) @ 1625: uvm_test_top.env_h.m_uvc_h.m_agent_h[0].m_seqr_h@@vseqs_h.m_wseqs_h [IN V SEQS] Got B-channel response from driver
# rd data in s drv: 39d9ac53 , len : 3 , last:0 , valid : 1
# m mon rid : 8117
# rd data in s drv: 55319476 , len : 3 , last:1 , valid : 1
# abc : 1
# ref model mem : 10
# abc : 2
# ref model mem : 11
# abc : 3
# ref model mem : 12
# abc : 4
# ref model mem : 13
# xyz : 1
# xyz : 2
# xyz : 3
# xyz : 4
# AFFTER W CHANNEL
# req kind : READ
# m mon rid : 8117
# UVM_INFO ../env/axi_sb.sv(78) @ 1645: uvm_test_top.env_h.sb_h [after event in sb] aaaa
# UVM_INFO ../env/axi_sb.sv(76) @ 1645: uvm_test_top.env_h.sb_h [before event in sb] aaaa
# match arid : 0 , rid : 0
# UVM_INFO ../env/s_agent/axi_s_drv.sv(31) @ 1645: uvm_test_top.env_h.s_uvc_h.s_agent_h[0].s_drv_h [ID MATCH] aaaaa
# s seqs arid : 16179
# INIDE_SLAVE_SEQ_CTR=44
# match arid : 3f33 , rid : 3f33
# UVM_INFO ../env/s_agent/axi_s_drv.sv(31) @ 1645: uvm_test_top.env_h.s_uvc_h.s_agent_h[0].s_drv_h [ID MATCH] aaaaa
# rd data in s drv: 70000000 , len : 3 , last:0 , valid : 1
# m mon rid : a38e
# rd data in s drv: 75d86acf , len : 3 , last:0 , valid : 1
# m mon rid : a38e
# req wid : 46798 , bid:46798
# UVM_INFO ../env/m_agent/axi_base_m_seqs.sv(26) @ 1665: uvm_test_top.env_h.m_uvc_h.m_agent_h[0].m_seqr_h@@vseqs_h.m_wseqs_h [IN V SEQS] Got B-channel response from driver
# rd data in s drv: 9ff15101 , len : 3 , last:0 , valid : 1
# m mon rid : a38e
# rd data in s drv: b3704f99 , len : 3 , last:1 , valid : 1
# abc : 1
# ref model mem : 173
# abc : 2
# ref model mem : 174
# abc : 3
# ref model mem : 175
# abc : 4
# ref model mem : 176
# xyz : 1
# xyz : 2
# xyz : 3
# xyz : 4
# AFFTER W CHANNEL
# req kind : READ
# m mon rid : a38e
# UVM_INFO ../env/axi_sb.sv(78) @ 1685: uvm_test_top.env_h.sb_h [after event in sb] aaaa
# UVM_INFO ../env/axi_sb.sv(76) @ 1685: uvm_test_top.env_h.sb_h [before event in sb] aaaa
# match arid : 0 , rid : 0
# UVM_INFO ../env/s_agent/axi_s_drv.sv(31) @ 1685: uvm_test_top.env_h.s_uvc_h.s_agent_h[0].s_drv_h [ID MATCH] aaaaa
# s seqs arid : 60092
# INIDE_SLAVE_SEQ_CTR=45
# match arid : eabc , rid : eabc
# UVM_INFO ../env/s_agent/axi_s_drv.sv(31) @ 1685: uvm_test_top.env_h.s_uvc_h.s_agent_h[0].s_drv_h [ID MATCH] aaaaa
# rd data in s drv: b97c0000 , len : 3 , last:0 , valid : 1
# m mon rid : 72c3
# rd data in s drv: 4dfeb572 , len : 3 , last:0 , valid : 1
# m mon rid : 72c3
# req wid : 27349 , bid:27349
# UVM_INFO ../env/m_agent/axi_base_m_seqs.sv(26) @ 1705: uvm_test_top.env_h.m_uvc_h.m_agent_h[0].m_seqr_h@@vseqs_h.m_wseqs_h [IN V SEQS] Got B-channel response from driver
# rd data in s drv: f680952f , len : 3 , last:0 , valid : 1
# m mon rid : 72c3
# rd data in s drv: cb908a76 , len : 3 , last:1 , valid : 1
# abc : 1
# ref model mem : 386
# abc : 2
# ref model mem : 387
# abc : 3
# ref model mem : 388
# abc : 4
# ref model mem : 389
# AFFTER W CHANNEL
# req kind : READ
# m mon rid : 72c3
# UVM_INFO ../env/axi_sb.sv(78) @ 1725: uvm_test_top.env_h.sb_h [after event in sb] aaaa
# UVM_INFO ../env/axi_sb.sv(76) @ 1725: uvm_test_top.env_h.sb_h [before event in sb] aaaa
# match arid : 0 , rid : 0
# UVM_INFO ../env/s_agent/axi_s_drv.sv(31) @ 1725: uvm_test_top.env_h.s_uvc_h.s_agent_h[0].s_drv_h [ID MATCH] aaaaa
# rd data in s drv: 1193e100 , len : 3 , last:0 , valid : 1
# m mon rid : 2d30
# rd data in s drv: 5b02d89c , len : 3 , last:0 , valid : 1
# m mon rid : 2d30
# req wid : 51404 , bid:51404
# UVM_INFO ../env/m_agent/axi_base_m_seqs.sv(26) @ 1745: uvm_test_top.env_h.m_uvc_h.m_agent_h[0].m_seqr_h@@vseqs_h.m_wseqs_h [IN V SEQS] Got B-channel response from driver
# rd data in s drv: a6d0e2b8 , len : 3 , last:0 , valid : 1
# m mon rid : 2d30
# rd data in s drv: 5f69d455 , len : 3 , last:1 , valid : 1
# abc : 1
# ref model mem : 406
# abc : 2
# ref model mem : 407
# abc : 3
# ref model mem : 408
# abc : 4
# ref model mem : 409
# xyz : 1
# xyz : 2
# xyz : 3
# xyz : 4
# AFFTER W CHANNEL
# req kind : READ
# m mon rid : 2d30
# UVM_INFO ../env/axi_sb.sv(78) @ 1765: uvm_test_top.env_h.sb_h [after event in sb] aaaa
# UVM_INFO ../env/axi_sb.sv(76) @ 1765: uvm_test_top.env_h.sb_h [before event in sb] aaaa
# match arid : 0 , rid : 0
# UVM_INFO ../env/s_agent/axi_s_drv.sv(31) @ 1765: uvm_test_top.env_h.s_uvc_h.s_agent_h[0].s_drv_h [ID MATCH] aaaaa
# s seqs arid : 5087
# INIDE_SLAVE_SEQ_CTR=46
# match arid : 13df , rid : 13df
# UVM_INFO ../env/s_agent/axi_s_drv.sv(31) @ 1765: uvm_test_top.env_h.s_uvc_h.s_agent_h[0].s_drv_h [ID MATCH] aaaaa
# rd data in s drv: bd60eb00 , len : 3 , last:0 , valid : 1
# m mon rid : 3f33
# rd data in s drv: e5c2eba5 , len : 3 , last:0 , valid : 1
# m mon rid : 3f33
# req wid : 5078 , bid:5078
# UVM_INFO ../env/m_agent/axi_base_m_seqs.sv(26) @ 1785: uvm_test_top.env_h.m_uvc_h.m_agent_h[0].m_seqr_h@@vseqs_h.m_wseqs_h [IN V SEQS] Got B-channel response from driver
# rd data in s drv: db72182 , len : 3 , last:0 , valid : 1
# m mon rid : 3f33
# rd data in s drv: df4c9f38 , len : 3 , last:1 , valid : 1
# abc : 1
# ref model mem : 41
# abc : 2
# ref model mem : 42
# abc : 3
# ref model mem : 43
# abc : 4
# ref model mem : 44
# xyz : 1
# xyz : 2
# xyz : 3
# xyz : 4
# AFFTER W CHANNEL
# req kind : READ
# m mon rid : 3f33
# UVM_INFO ../env/axi_sb.sv(78) @ 1805: uvm_test_top.env_h.sb_h [after event in sb] aaaa
# UVM_INFO ../env/axi_sb.sv(76) @ 1805: uvm_test_top.env_h.sb_h [before event in sb] aaaa
# match arid : 0 , rid : 0
# UVM_INFO ../env/s_agent/axi_s_drv.sv(31) @ 1805: uvm_test_top.env_h.s_uvc_h.s_agent_h[0].s_drv_h [ID MATCH] aaaaa
# s seqs arid : 47476
# INIDE_SLAVE_SEQ_CTR=47
# match arid : b974 , rid : b974
# UVM_INFO ../env/s_agent/axi_s_drv.sv(31) @ 1805: uvm_test_top.env_h.s_uvc_h.s_agent_h[0].s_drv_h [ID MATCH] aaaaa
# rd data in s drv: 13ef0fdb , len : 3 , last:0 , valid : 1
# m mon rid : eabc
# rd data in s drv: a5f1a70b , len : 3 , last:0 , valid : 1
# m mon rid : eabc
# req wid : 27177 , bid:27177
# UVM_INFO ../env/m_agent/axi_base_m_seqs.sv(26) @ 1825: uvm_test_top.env_h.m_uvc_h.m_agent_h[0].m_seqr_h@@vseqs_h.m_wseqs_h [IN V SEQS] Got B-channel response from driver
# rd data in s drv: 366bb992 , len : 3 , last:0 , valid : 1
# m mon rid : eabc
# rd data in s drv: 182f69bd , len : 3 , last:1 , valid : 1
# abc : 1
# ref model mem : 628
# abc : 2
# ref model mem : 629
# abc : 3
# ref model mem : 630
# abc : 4
# ref model mem : 631
# xyz : 1
# xyz : 2
# xyz : 3
# xyz : 4
# AFFTER W CHANNEL
# req kind : READ
# m mon rid : eabc
# UVM_INFO ../env/axi_sb.sv(78) @ 1845: uvm_test_top.env_h.sb_h [after event in sb] aaaa
# UVM_INFO ../env/axi_sb.sv(76) @ 1845: uvm_test_top.env_h.sb_h [before event in sb] aaaa
# match arid : 0 , rid : 0
# UVM_INFO ../env/s_agent/axi_s_drv.sv(31) @ 1845: uvm_test_top.env_h.s_uvc_h.s_agent_h[0].s_drv_h [ID MATCH] aaaaa
# s seqs arid : 36504
# INIDE_SLAVE_SEQ_CTR=48
# match arid : 8e98 , rid : 8e98
# UVM_INFO ../env/s_agent/axi_s_drv.sv(31) @ 1845: uvm_test_top.env_h.s_uvc_h.s_agent_h[0].s_drv_h [ID MATCH] aaaaa
# rd data in s drv: 59cd4b00 , len : 3 , last:0 , valid : 1
# m mon rid : 13df
# rd data in s drv: 4b5c4803 , len : 3 , last:0 , valid : 1
# m mon rid : 13df
# req wid : 43401 , bid:43401
# UVM_INFO ../env/m_agent/axi_base_m_seqs.sv(26) @ 1865: uvm_test_top.env_h.m_uvc_h.m_agent_h[0].m_seqr_h@@vseqs_h.m_wseqs_h [IN V SEQS] Got B-channel response from driver
# rd data in s drv: 222e96fe , len : 3 , last:0 , valid : 1
# m mon rid : 13df
# rd data in s drv: aabaa67 , len : 3 , last:1 , valid : 1
# abc : 1
# ref model mem : 705
# abc : 2
# ref model mem : 706
# abc : 3
# ref model mem : 707
# abc : 4
# ref model mem : 708
# xyz : 1
# xyz : 2
# xyz : 3
# xyz : 4
# AFFTER W CHANNEL
# req kind : READ
# m mon rid : 13df
# UVM_INFO ../env/axi_sb.sv(78) @ 1885: uvm_test_top.env_h.sb_h [after event in sb] aaaa
# UVM_INFO ../env/axi_sb.sv(76) @ 1885: uvm_test_top.env_h.sb_h [before event in sb] aaaa
# match arid : 0 , rid : 0
# UVM_INFO ../env/s_agent/axi_s_drv.sv(31) @ 1885: uvm_test_top.env_h.s_uvc_h.s_agent_h[0].s_drv_h [ID MATCH] aaaaa
# s seqs arid : 22723
# INIDE_SLAVE_SEQ_CTR=49
# match arid : 58c3 , rid : 58c3
# UVM_INFO ../env/s_agent/axi_s_drv.sv(31) @ 1885: uvm_test_top.env_h.s_uvc_h.s_agent_h[0].s_drv_h [ID MATCH] aaaaa
# rd data in s drv: 83e45107 , len : 3 , last:0 , valid : 1
# m mon rid : b974
# rd data in s drv: 594f1084 , len : 3 , last:0 , valid : 1
# m mon rid : b974
# req wid : 39135 , bid:39135
# UVM_INFO ../env/m_agent/axi_base_m_seqs.sv(26) @ 1905: uvm_test_top.env_h.m_uvc_h.m_agent_h[0].m_seqr_h@@vseqs_h.m_wseqs_h [IN V SEQS] Got B-channel response from driver
# rd data in s drv: 74343217 , len : 3 , last:0 , valid : 1
# m mon rid : b974
# rd data in s drv: cc0fbbaa , len : 3 , last:1 , valid : 1
# abc : 1
# ref model mem : 107
# abc : 2
# ref model mem : 108
# abc : 3
# ref model mem : 109
# abc : 4
# ref model mem : 110
# xyz : 1
# xyz : 2
# xyz : 3
# xyz : 4
# AFFTER W CHANNEL
# req kind : READ
# m mon rid : b974
# UVM_INFO ../env/axi_sb.sv(78) @ 1925: uvm_test_top.env_h.sb_h [after event in sb] aaaa
# UVM_INFO ../env/axi_sb.sv(76) @ 1925: uvm_test_top.env_h.sb_h [before event in sb] aaaa
# match arid : 0 , rid : 0
# UVM_INFO ../env/s_agent/axi_s_drv.sv(31) @ 1925: uvm_test_top.env_h.s_uvc_h.s_agent_h[0].s_drv_h [ID MATCH] aaaaa
# s seqs arid : 50465
# INIDE_SLAVE_SEQ_CTR=50
# match arid : c521 , rid : c521
# UVM_INFO ../env/s_agent/axi_s_drv.sv(31) @ 1925: uvm_test_top.env_h.s_uvc_h.s_agent_h[0].s_drv_h [ID MATCH] aaaaa
# rd data in s drv: f9000000 , len : 3 , last:0 , valid : 1
# m mon rid : 8e98
# rd data in s drv: 83eb57c5 , len : 3 , last:0 , valid : 1
# m mon rid : 8e98
# req wid : 19348 , bid:19348
# UVM_INFO ../env/m_agent/axi_base_m_seqs.sv(26) @ 1945: uvm_test_top.env_h.m_uvc_h.m_agent_h[0].m_seqr_h@@vseqs_h.m_wseqs_h [IN V SEQS] Got B-channel response from driver
# rd data in s drv: 6437108 , len : 3 , last:0 , valid : 1
# m mon rid : 8e98
# rd data in s drv: 43e90fda , len : 3 , last:1 , valid : 1
# abc : 1
# ref model mem : 948
# abc : 2
# ref model mem : 949
# abc : 3
# ref model mem : 950
# abc : 4
# ref model mem : 951
# AFFTER W CHANNEL
# req kind : READ
# m mon rid : 8e98
# UVM_INFO ../env/axi_sb.sv(78) @ 1965: uvm_test_top.env_h.sb_h [after event in sb] aaaa
# UVM_INFO ../env/axi_sb.sv(76) @ 1965: uvm_test_top.env_h.sb_h [before event in sb] aaaa
# match arid : 0 , rid : 0
# UVM_INFO ../env/s_agent/axi_s_drv.sv(31) @ 1965: uvm_test_top.env_h.s_uvc_h.s_agent_h[0].s_drv_h [ID MATCH] aaaaa
# rd data in s drv: 315d7cc8 , len : 3 , last:0 , valid : 1
# m mon rid : 58c3
# rd data in s drv: 905956d9 , len : 3 , last:0 , valid : 1
# m mon rid : 58c3
# req wid : 17688 , bid:17688
# UVM_INFO ../env/m_agent/axi_base_m_seqs.sv(26) @ 1985: uvm_test_top.env_h.m_uvc_h.m_agent_h[0].m_seqr_h@@vseqs_h.m_wseqs_h [IN V SEQS] Got B-channel response from driver
# rd data in s drv: 9247fba1 , len : 3 , last:0 , valid : 1
# m mon rid : 58c3
# rd data in s drv: 9bb246ed , len : 3 , last:1 , valid : 1
# abc : 1
# ref model mem : 869
# abc : 2
# ref model mem : 870
# abc : 3
# ref model mem : 871
# abc : 4
# ref model mem : 872
# AFFTER W CHANNEL
# req kind : READ
# m mon rid : 58c3
# UVM_INFO ../env/axi_sb.sv(78) @ 2005: uvm_test_top.env_h.sb_h [after event in sb] aaaa
# UVM_INFO ../env/axi_sb.sv(76) @ 2005: uvm_test_top.env_h.sb_h [before event in sb] aaaa
# match arid : 0 , rid : 0
# UVM_INFO ../env/s_agent/axi_s_drv.sv(31) @ 2005: uvm_test_top.env_h.s_uvc_h.s_agent_h[0].s_drv_h [ID MATCH] aaaaa
# rd data in s drv: 81e00000 , len : 3 , last:0 , valid : 1
# m mon rid : c521
# rd data in s drv: 4229cd7c , len : 3 , last:0 , valid : 1
# m mon rid : c521
# req wid : 20083 , bid:20083
# UVM_INFO ../env/m_agent/axi_base_m_seqs.sv(26) @ 2025: uvm_test_top.env_h.m_uvc_h.m_agent_h[0].m_seqr_h@@vseqs_h.m_wseqs_h [IN V SEQS] Got B-channel response from driver
# rd data in s drv: c09e8c95 , len : 3 , last:0 , valid : 1
# m mon rid : c521
# rd data in s drv: 11fc48fc , len : 3 , last:1 , valid : 1
# req kind : READ
# m mon rid : c521
# UVM_INFO ../env/axi_sb.sv(78) @ 2045: uvm_test_top.env_h.sb_h [after event in sb] aaaa
# UVM_INFO ../env/axi_sb.sv(76) @ 2045: uvm_test_top.env_h.sb_h [before event in sb] aaaa
# UVM_INFO verilog_src/uvm-1.1d/src/base/uvm_objection.svh(1267) @ 5025: reporter [TEST_DONE] 'run' phase is ready to proceed to the 'extract' phase
# 
##############################################################
#                                                            #
#   PPPPPPPP    AAA     SSSSSS    SSSSSS                     #
#   PP     PP  A   A   SS        SS                          #
#   PPPPPPPP   AAAAA    SSSSS     SSSSS                      #
#   PP         A   A        SS         SS                    #
#   PP         A   A   SSSSSS    SSSSSS                      #
#                                                            #
##############################################################
# 
# UVM_INFO ../env/axi_sb.sv(127) @ 5025: uvm_test_top.env_h.sb_h [SCOREBOARD_SUMMARY] 
# === FINAL RESULTS ===
# Total Pass = 50
# Total Fail = 0
# 
# --- UVM Report Summary ---
# 
# ** Report counts by severity
# UVM_INFO :  264
# UVM_WARNING :    0
# UVM_ERROR :    0
# UVM_FATAL :    0
# ** Report counts by id
# [Data in s seqr]     1
# [ID MATCH]   100
# [IN V SEQS]    50
# [M MON RUN PHASE before]     1
# [M MON read addr PHASE before]     1
# [M MON read data PHASE before]     1
# [M MON run PHASE after]     1
# [M MON write addr PHASE before]     1
# [M MON write data PHASE before]     1
# [Questa UVM]     2
# [RNTST]     1
# [SCOREBOARD_SUMMARY]     1
# [TEST_DONE]     1
# [UVMTOP]     1
# [after event in sb]    50
# [before event in sb]    51
# ** Note: $finish    : /tools/mentor/questa/2023.4/questasim/linux_x86_64/../verilog_src/uvm-1.1d/src/base/uvm_root.svh(430)
#    Time: 5025 ns  Iteration: 53  Instance: /axi_tb_top
# Saving coverage database on exit...
# End time: 14:36:48 on May 07,2026, Elapsed time: 0:00:01
# Errors: 0, Warnings: 47
