# vsim -coverage -voptargs="+acc" axi_tb_top -c -do "coverage save -onexit -directive -cvg -codeall axi_incr_test.ucdb; run -all; exit" "+UVM_TESTNAME=axi_incr_test" -l axi_incr_test.log 
# Start time: 16:22:37 on May 06,2026
# ** Note: (vsim-8009) Loading existing optimized design _opt2
# //  Questa Sim-64
# //  Version 2023.4 linux_x86_64 Oct  9 2023
# //
# //  Copyright 1991-2023 Mentor Graphics Corporation
# //  All Rights Reserved.
# //
# //  QuestaSim and its associated documentation contain trade
# //  secrets and commercial or financial information that are the property of
# //  Mentor Graphics Corporation and are privileged, confidential,
# //  and exempt from disclosure under the Freedom of Information Act,
# //  5 U.S.C. Section 552. Furthermore, this information
# //  is prohibited from disclosure under the Trade Secrets Act,
# //  18 U.S.C. Section 1905.
# //
# Loading sv_std.std
# Loading work.axi_s_inf(fast)
# Loading work.axi_m_inf(fast)
# Loading mtiUvm.uvm_pkg(fast)
# Loading work.axi_s_agent_pkg(fast)
# Loading work.axi_m_agent_pkg(fast)
# Loading work.axi_env_pkg(fast)
# Loading work.axi_test_pkg(fast)
# Loading mtiUvm.questa_uvm_pkg(fast)
# Loading work.axi_tb_top(fast)
# Loading work.axi_m_inf(fast__2)
# Loading work.axi_s_inf(fast__2)
# ** Warning: (vsim-8441) Clocking block output s_vif.s_drv_cb.RDATA is not legal in this
# or another expression.
#    Time: 0 ns  Iteration: 0  Region: /axi_s_agent_pkg::axi_s_drv #(32, 32) File: ../env/s_agent/axi_s_drv.sv Line: 113
# ** Warning: (vsim-8441) Clocking block output s_vif.s_drv_cb.RVALID is not legal in this
# or another expression.
#    Time: 0 ns  Iteration: 0  Region: /axi_s_agent_pkg::axi_s_drv #(32, 32) File: ../env/s_agent/axi_s_drv.sv Line: 115
# ** Warning: (vsim-8441) Clocking block output s_vif.s_drv_cb.RLAST is not legal in this
# or another expression.
#    Time: 0 ns  Iteration: 0  Region: /axi_s_agent_pkg::axi_s_drv #(32, 32) File: ../env/s_agent/axi_s_drv.sv Line: 116
# ** Warning: (vsim-8441) Clocking block output s_vif.s_drv_cb.RDATA is not legal in this
# or another expression.
#    Time: 0 ns  Iteration: 0  Region: /axi_s_agent_pkg::axi_s_drv #(32, 32) File: ../env/s_agent/axi_s_drv.sv Line: 113
# ** Warning: (vsim-8441) Clocking block output s_vif.s_drv_cb.RLAST is not legal in this
# or another expression.
#    Time: 0 ns  Iteration: 0  Region: /axi_s_agent_pkg::axi_s_drv #(32, 32) File: ../env/s_agent/axi_s_drv.sv Line: 116
# ** Warning: (vsim-8441) Clocking block output s_vif.s_drv_cb.RVALID is not legal in this
# or another expression.
#    Time: 0 ns  Iteration: 0  Region: /axi_s_agent_pkg::axi_s_drv #(32, 32) File: ../env/s_agent/axi_s_drv.sv Line: 115
# ** Warning: (vsim-8441) Clocking block output s_vif.s_drv_cb.RVALID is not legal in this
# or another expression.
#    Time: 0 ns  Iteration: 0  Region: /axi_s_agent_pkg::axi_s_drv #(32, 32) File: ../env/s_agent/axi_s_drv.sv Line: 115
# ** Warning: (vsim-8441) Clocking block output s_vif.s_drv_cb.RLAST is not legal in this
# or another expression.
#    Time: 0 ns  Iteration: 0  Region: /axi_s_agent_pkg::axi_s_drv #(32, 32) File: ../env/s_agent/axi_s_drv.sv Line: 116
# ** Warning: (vsim-8441) Clocking block output m_vif.m_drv_cb.WID is not legal in this
# or another expression.
#    Time: 0 ns  Iteration: 0  Region: /axi_m_agent_pkg::axi_m_drv #(32, 32) File: ../env/m_agent/axi_m_drv.sv Line: 96
# ** Warning: (vsim-8441) Clocking block output m_vif.m_drv_cb.WID is not legal in this
# or another expression.
#    Time: 0 ns  Iteration: 0  Region: /axi_m_agent_pkg::axi_m_drv #(32, 32) File: ../env/m_agent/axi_m_drv.sv Line: 96
# ** Warning: (vsim-8441) Clocking block output m_vif.m_drv_cb.WLAST is not legal in this
# or another expression.
#    Time: 0 ns  Iteration: 0  Region: /axi_m_agent_pkg::axi_m_drv #(32, 32) File: ../env/m_agent/axi_m_drv.sv Line: 101
# ** Warning: (vsim-8441) Clocking block output m_vif.m_drv_cb.WLAST is not legal in this
# or another expression.
#    Time: 0 ns  Iteration: 0  Region: /axi_m_agent_pkg::axi_m_drv #(32, 32) File: ../env/m_agent/axi_m_drv.sv Line: 101
# ** Warning: (vsim-8441) Clocking block output m_vif.m_drv_cb.WLAST is not legal in this
# or another expression.
#    Time: 0 ns  Iteration: 0  Region: /axi_m_agent_pkg::axi_m_drv #(32, 32) File: ../env/m_agent/axi_m_drv.sv Line: 101
# ** Warning: (vsim-8441) Clocking block output m_vif.m_drv_cb.WLAST is not legal in this
# or another expression.
#    Time: 0 ns  Iteration: 0  Region: /axi_m_agent_pkg::axi_m_drv #(32, 32) File: ../env/m_agent/axi_m_drv.sv Line: 101
# Loading /tools/mentor/questa/2023.4/questasim/uvm-1.1d/linux_x86_64/uvm_dpi.so
# coverage save -onexit -directive -cvg -codeall axi_incr_test.ucdb
#  run -all
# ----------------------------------------------------------------
# UVM-1.1d
# (C) 2007-2013 Mentor Graphics Corporation
# (C) 2007-2013 Cadence Design Systems, Inc.
# (C) 2006-2013 Synopsys, Inc.
# (C) 2011-2013 Cypress Semiconductor Corp.
# ----------------------------------------------------------------
# 
#   ***********       IMPORTANT RELEASE NOTES         ************
# 
#   You are using a version of the UVM library that has been compiled
#   with `UVM_NO_DEPRECATED undefined.
#   See http://www.eda.org/svdb/view.php?id=3313 for more details.
# 
#   You are using a version of the UVM library that has been compiled
#   with `UVM_OBJECT_MUST_HAVE_CONSTRUCTOR undefined.
#   See http://www.eda.org/svdb/view.php?id=3770 for more details.
# 
#       (Specify +UVM_NO_RELNOTES to turn off this notice)
# 
# UVM_INFO verilog_src/questa_uvm_pkg-1.2/src/questa_uvm_pkg.sv(277) @ 0: reporter [Questa UVM] QUESTA_UVM-1.2.3
# UVM_INFO verilog_src/questa_uvm_pkg-1.2/src/questa_uvm_pkg.sv(278) @ 0: reporter [Questa UVM]  questa_uvm::init(+struct)
# UVM_INFO @ 0: reporter [RNTST] Running test axi_incr_test...
# ** Warning: (vsim-8474) A higher value '8' is found in bin 'single_byte' of Coverpoint 'cp_wstrb'. It is invalid and will be ignored.
#    Time: 0 ns  Iteration: 7  Process: /uvm_pkg::uvm_phase::m_run_phases/#FORK#1847_7fefec463f4 File: ../env/axi_coverage.sv Line: 56
# ** Warning: (vsim-8474) A higher value '12' is found in bin 'single_byte' of Coverpoint 'cp_wstrb'. It is invalid and will be ignored.
#    Time: 0 ns  Iteration: 7  Process: /uvm_pkg::uvm_phase::m_run_phases/#FORK#1847_7fefec463f4 File: ../env/axi_coverage.sv Line: 56
# ** Warning: (vsim-8474) A higher value '14' is found in bin 'single_byte' of Coverpoint 'cp_wstrb'. It is invalid and will be ignored.
#    Time: 0 ns  Iteration: 7  Process: /uvm_pkg::uvm_phase::m_run_phases/#FORK#1847_7fefec463f4 File: ../env/axi_coverage.sv Line: 56
# ** Warning: (vsim-8549) After dropping the illegal, ignore or invalid values, the values list associated with scalar bin 'single_byte' in Coverpoint 'cp_wstrb' of Covergroup instance '\/axi_env_pkg::axi_coverage::write_cov ' has converged to empty list. The bin will be taken out of coverage calculation.
#    Time: 0 ns  Iteration: 7  Region: /uvm_pkg::uvm_phase::m_run_phases
# ** Warning: (vsim-8474) A higher value '15' is found in bin 'all_bytes' of Coverpoint 'cp_wstrb'. It is invalid and will be ignored.
#    Time: 0 ns  Iteration: 7  Process: /uvm_pkg::uvm_phase::m_run_phases/#FORK#1847_7fefec463f4 File: ../env/axi_coverage.sv Line: 57
# ** Warning: (vsim-8549) After dropping the illegal, ignore or invalid values, the values list associated with scalar bin 'all_bytes' in Coverpoint 'cp_wstrb' of Covergroup instance '\/axi_env_pkg::axi_coverage::write_cov ' has converged to empty list. The bin will be taken out of coverage calculation.
#    Time: 0 ns  Iteration: 7  Region: /uvm_pkg::uvm_phase::m_run_phases
# UVM_INFO ../env/s_agent/axi_s_seqr.sv(25) @ 0: uvm_test_top.env_h.s_uvc_h.s_agent_h[0].s_seqr_h [Data in s seqr] Data got in slave seqr
# UVM_INFO @ 0: reporter [UVMTOP] UVM testbench topology:
# --------------------------------------------------------------------------------
# Name                             Type                                Size  Value
# --------------------------------------------------------------------------------
# uvm_test_top                     axi_incr_test                       -     @479 
#   env_h                          axi_env                             -     @491 
#     m_uvc_h                      uvm_agent                           -     @513 
#       m_agent_h[0]               uvm_agent                           -     @693 
#         m_drv_h                  uvm_driver #(REQ,RSP)               -     @814 
#           rsp_port               uvm_analysis_port                   -     @829 
#           seq_item_port          uvm_seq_item_pull_port              -     @821 
#         m_mon_h                  axi_m_mon#(ADDR_WIDTH, DATA_WIDTH)  -     @837 
#           s_port                 uvm_analysis_port                   -     @844 
#         m_seqr_h                 uvm_sequencer                       -     @705 
#           rsp_export             uvm_analysis_export                 -     @712 
#           seq_item_export        uvm_seq_item_pull_imp               -     @806 
#           arbitration_queue      array                               0     -    
#           lock_queue             array                               0     -    
#           num_last_reqs          integral                            32    'd1  
#           num_last_rsps          integral                            32    'd1  
#     ref_model_h                  axi_ref_model                       -     @558 
#       mon_imp                    uvm_analysis_imp                    -     @565 
#       sb_imp                     uvm_analysis_port                   -     @573 
#     s_uvc_h                      uvm_agent                           -     @520 
#       s_agent_h[0]               uvm_agent                           -     @860 
#         s_drv_h                  uvm_driver #(REQ,RSP)               -     @1036
#           rsp_port               uvm_analysis_port                   -     @1051
#           seq_item_port          uvm_seq_item_pull_port              -     @1043
#         s_mon_h                  axi_s_mon#(ADDR_WIDTH, DATA_WIDTH)  -     @1059
#           s_port                 uvm_analysis_port                   -     @1066
#         s_seqr_h                 uvm_sequencer                       -     @872 
#           item_collected_export  uvm_analysis_export                 -     @981 
#           item_req_fifo          uvm_tlm_analysis_fifo #(T)          -     @989 
#             analysis_export      uvm_analysis_imp                    -     @1028
#             get_ap               uvm_analysis_port                   -     @1020
#             get_peek_export      uvm_get_peek_imp                    -     @1004
#             put_ap               uvm_analysis_port                   -     @1012
#             put_export           uvm_put_imp                         -     @996 
#           rsp_export             uvm_analysis_export                 -     @879 
#           seq_item_export        uvm_seq_item_pull_imp               -     @973 
#           arbitration_queue      array                               0     -    
#           lock_queue             array                               0     -    
#           num_last_reqs          integral                            32    'd1  
#           num_last_rsps          integral                            32    'd1  
#     sb_h                         axi_sb                              -     @527 
#       anl_imp_m                  uvm_analysis_imp_m                  -     @534 
#       anl_imp_ref                uvm_analysis_imp_ref                -     @542 
#     vseqr_h                      axi_virtual_seqr                    -     @581 
#       rsp_export                 uvm_analysis_export                 -     @588 
#       seq_item_export            uvm_seq_item_pull_imp               -     @682 
#       arbitration_queue          array                               0     -    
#       lock_queue                 array                               0     -    
#       num_last_reqs              integral                            32    'd1  
#       num_last_rsps              integral                            32    'd1  
# --------------------------------------------------------------------------------
# 
# UVM_INFO ../env/axi_sb.sv(65) @ 0: uvm_test_top.env_h.sb_h [before event in sb] aaaa
# UVM_INFO ../env/m_agent/axi_m_mon.sv(29) @ 0: uvm_test_top.env_h.m_uvc_h.m_agent_h[0].m_mon_h [M MON RUN PHASE before] Inside master mon run phase
# UVM_INFO ../env/m_agent/axi_m_mon.sv(36) @ 0: uvm_test_top.env_h.m_uvc_h.m_agent_h[0].m_mon_h [M MON run PHASE after] Inside master mon
# UVM_INFO ../env/m_agent/axi_m_mon.sv(41) @ 0: uvm_test_top.env_h.m_uvc_h.m_agent_h[0].m_mon_h [M MON write addr PHASE before] Inside master mon
# UVM_INFO ../env/m_agent/axi_m_mon.sv(61) @ 0: uvm_test_top.env_h.m_uvc_h.m_agent_h[0].m_mon_h [M MON write data PHASE before] Inside master mon
# UVM_INFO ../env/m_agent/axi_m_mon.sv(86) @ 0: uvm_test_top.env_h.m_uvc_h.m_agent_h[0].m_mon_h [M MON read addr PHASE before] Inside master mon
# UVM_INFO ../env/m_agent/axi_m_mon.sv(108) @ 0: uvm_test_top.env_h.m_uvc_h.m_agent_h[0].m_mon_h [M MON read data PHASE before] Inside master mon
# Before AW CHANNEL
# Before W CHANNEL
# Before AR CHANNEL
# Before R CHANNEL
# AWLEN IN M DRV:75
# cnt : 1
# AWLEN IN M DRV:154
# cnt : 2
# AWLEN IN M DRV:228
# cnt : 3
# AWLEN IN M DRV:183
# cnt : 4
# AWLEN IN M DRV:159
# cnt : 5
# AWLEN IN M DRV:255
# cnt : 6
# AWLEN IN M DRV:223
# cnt : 7
# AWLEN IN M DRV:120
# cnt : 8
# AWLEN IN M DRV:190
# cnt : 9
# AWLEN IN M DRV:243
# cnt : 10
# AWLEN IN M DRV:248
# cnt : 11
# AWLEN IN M DRV:148
# cnt : 12
# AWLEN IN M DRV:98
# cnt : 13
# AWLEN IN M DRV:68
# cnt : 14
# AWLEN IN M DRV:103
# cnt : 15
# AWLEN IN M DRV:152
# cnt : 16
# AWLEN IN M DRV:230
# cnt : 17
# AWLEN IN M DRV:239
# cnt : 18
# AWLEN IN M DRV:133
# cnt : 19
# AWLEN IN M DRV:241
# cnt : 20
# AWLEN IN M DRV:111
# cnt : 21
# AWLEN IN M DRV:153
# cnt : 22
# AWLEN IN M DRV:144
# cnt : 23
# AWLEN IN M DRV:20
# cnt : 24
# AWLEN IN M DRV:179
# cnt : 25
# AWLEN IN M DRV:107
# cnt : 26
# AWLEN IN M DRV:133
# cnt : 27
# AWLEN IN M DRV:95
# cnt : 28
# AWLEN IN M DRV:116
# cnt : 29
# AWLEN IN M DRV:190
# cnt : 30
# AWLEN IN M DRV:214
# cnt : 31
# AWLEN IN M DRV:159
# cnt : 32
# AWLEN IN M DRV:244
# cnt : 33
# AWLEN IN M DRV:125
# cnt : 34
# AWLEN IN M DRV:108
# cnt : 35
# AWLEN IN M DRV:95
# cnt : 36
# AWLEN IN M DRV:96
# cnt : 37
# AWLEN IN M DRV:111
# cnt : 38
# AWLEN IN M DRV:162
# cnt : 39
# AWLEN IN M DRV:114
# cnt : 40
# AWLEN IN M DRV:11
# cnt : 41
# AWLEN IN M DRV:34
# cnt : 42
# AWLEN IN M DRV:154
# cnt : 43
# AWLEN IN M DRV:161
# cnt : 44
# AWLEN IN M DRV:196
# cnt : 45
# AWLEN IN M DRV:189
# cnt : 46
# AWLEN IN M DRV:97
# cnt : 47
# AWLEN IN M DRV:132
# cnt : 48
# AWLEN IN M DRV:129
# cnt : 49
# AWLEN IN M DRV:154
# cnt : 50
# AWLEN IN M DRV:72
# cnt : 51
# AWLEN IN M DRV:86
# cnt : 52
# AWLEN IN M DRV:226
# cnt : 53
# AWLEN IN M DRV:164
# cnt : 54
# AWLEN IN M DRV:20
# cnt : 55
# AWLEN IN M DRV:72
# cnt : 56
# AWLEN IN M DRV:219
# cnt : 57
# AWLEN IN M DRV:31
# cnt : 58
# AWLEN IN M DRV:104
# cnt : 59
# AWLEN IN M DRV:186
# cnt : 60
# AWLEN IN M DRV:106
# cnt : 61
# AWLEN IN M DRV:231
# cnt : 62
# AWLEN IN M DRV:188
# cnt : 63
# AWLEN IN M DRV:23
# cnt : 64
# AWLEN IN M DRV:251
# cnt : 65
# AWLEN IN M DRV:50
# cnt : 66
# AWLEN IN M DRV:12
# cnt : 67
# AWLEN IN M DRV:87
# cnt : 68
# AWLEN IN M DRV:181
# cnt : 69
# AWLEN IN M DRV:61
# cnt : 70
# AWLEN IN M DRV:180
# cnt : 71
# AWLEN IN M DRV:80
# cnt : 72
# AWLEN IN M DRV:129
# cnt : 73
# AWLEN IN M DRV:32
# cnt : 74
# AWLEN IN M DRV:73
# cnt : 75
# AWLEN IN M DRV:201
# cnt : 76
# AWLEN IN M DRV:25
# cnt : 77
# AWLEN IN M DRV:23
# cnt : 78
# AWLEN IN M DRV:216
# cnt : 79
# AWLEN IN M DRV:100
# cnt : 80
# AWLEN IN M DRV:149
# cnt : 81
# AWLEN IN M DRV:253
# cnt : 82
# AWLEN IN M DRV:126
# cnt : 83
# AWLEN IN M DRV:202
# cnt : 84
# AWLEN IN M DRV:13
# cnt : 85
# AWLEN IN M DRV:97
# cnt : 86
# AWLEN IN M DRV:10
# cnt : 87
# AWLEN IN M DRV:97
# cnt : 88
# AWLEN IN M DRV:46
# cnt : 89
# AWLEN IN M DRV:90
# cnt : 90
# AWLEN IN M DRV:228
# cnt : 91
# AWLEN IN M DRV:172
# cnt : 92
# AWLEN IN M DRV:211
# cnt : 93
# AWLEN IN M DRV:17
# cnt : 94
# AWLEN IN M DRV:75
# cnt : 95
# AWLEN IN M DRV:163
# cnt : 96
# AWLEN IN M DRV:74
# cnt : 97
# AWLEN IN M DRV:95
# cnt : 98
# AWLEN IN M DRV:212
# cnt : 99
# AWLEN IN M DRV:214
# cnt : 100
# AWLEN IN M DRV:4
# cnt : 101
# AWLEN IN M DRV:228
# cnt : 102
# AWLEN IN M DRV:190
# cnt : 103
# AWLEN IN M DRV:70
# cnt : 104
# AWLEN IN M DRV:6
# cnt : 105
# AWLEN IN M DRV:239
# cnt : 106
# AWLEN IN M DRV:245
# cnt : 107
# AWLEN IN M DRV:91
# cnt : 108
# AWLEN IN M DRV:85
# cnt : 109
# AWLEN IN M DRV:124
# cnt : 110
# AWLEN IN M DRV:30
# cnt : 111
# AWLEN IN M DRV:178
# cnt : 112
# AWLEN IN M DRV:137
# cnt : 113
# AWLEN IN M DRV:139
# cnt : 114
# AWLEN IN M DRV:2
# cnt : 115
# AWLEN IN M DRV:74
# cnt : 116
# AWLEN IN M DRV:82
# cnt : 117
# AWLEN IN M DRV:203
# cnt : 118
# AWLEN IN M DRV:236
# cnt : 119
# AWLEN IN M DRV:145
# cnt : 120
# AWLEN IN M DRV:31
# cnt : 121
# AWLEN IN M DRV:63
# cnt : 122
# AWLEN IN M DRV:88
# cnt : 123
# AWLEN IN M DRV:43
# cnt : 124
# AWLEN IN M DRV:66
# cnt : 125
# AWLEN IN M DRV:206
# cnt : 126
# AWLEN IN M DRV:82
# cnt : 127
# AWLEN IN M DRV:14
# cnt : 128
# AWLEN IN M DRV:253
# cnt : 129
# AWLEN IN M DRV:99
# cnt : 130
# AWLEN IN M DRV:78
# cnt : 131
# AWLEN IN M DRV:149
# cnt : 132
# AWLEN IN M DRV:140
# cnt : 133
# AWLEN IN M DRV:40
# cnt : 134
# AWLEN IN M DRV:45
# cnt : 135
# AWLEN IN M DRV:48
# cnt : 136
# AWLEN IN M DRV:60
# cnt : 137
# AWLEN IN M DRV:246
# cnt : 138
# AWLEN IN M DRV:201
# cnt : 139
# AWLEN IN M DRV:234
# cnt : 140
# AWLEN IN M DRV:93
# cnt : 141
# AWLEN IN M DRV:44
# cnt : 142
# AWLEN IN M DRV:134
# cnt : 143
# AWLEN IN M DRV:24
# cnt : 144
# AWLEN IN M DRV:46
# cnt : 145
# AWLEN IN M DRV:254
# cnt : 146
# AWLEN IN M DRV:71
# cnt : 147
# AWLEN IN M DRV:239
# cnt : 148
# AWLEN IN M DRV:120
# cnt : 149
# AWLEN IN M DRV:7
# cnt : 150
# AWLEN IN M DRV:210
# cnt : 151
# AWLEN IN M DRV:67
# cnt : 152
# AWLEN IN M DRV:67
# cnt : 153
# AWLEN IN M DRV:0
# cnt : 154
# AWLEN IN M DRV:30
# cnt : 155
# AWLEN IN M DRV:135
# cnt : 156
# AWLEN IN M DRV:150
# cnt : 157
# AWLEN IN M DRV:111
# cnt : 158
# AWLEN IN M DRV:7
# cnt : 159
# AWLEN IN M DRV:188
# cnt : 160
# AWLEN IN M DRV:171
# cnt : 161
# AWLEN IN M DRV:42
# cnt : 162
# AWLEN IN M DRV:62
# cnt : 163
# AWLEN IN M DRV:75
# cnt : 164
# AWLEN IN M DRV:142
# cnt : 165
# AWLEN IN M DRV:181
# cnt : 166
# AWLEN IN M DRV:25
# cnt : 167
# AWLEN IN M DRV:69
# cnt : 168
# AWLEN IN M DRV:245
# cnt : 169
# AWLEN IN M DRV:40
# cnt : 170
# AWLEN IN M DRV:98
# cnt : 171
# AWLEN IN M DRV:32
# cnt : 172
# AWLEN IN M DRV:92
# cnt : 173
# AWLEN IN M DRV:24
# cnt : 174
# AWLEN IN M DRV:184
# cnt : 175
# AWLEN IN M DRV:164
# cnt : 176
# AWLEN IN M DRV:123
# cnt : 177
# AWLEN IN M DRV:68
# cnt : 178
# AWLEN IN M DRV:195
# cnt : 179
# AWLEN IN M DRV:12
# cnt : 180
# AWLEN IN M DRV:194
# cnt : 181
# AWLEN IN M DRV:31
# cnt : 182
# AWLEN IN M DRV:203
# cnt : 183
# AWLEN IN M DRV:192
# cnt : 184
# AWLEN IN M DRV:71
# cnt : 185
# AWLEN IN M DRV:105
# cnt : 186
# AWLEN IN M DRV:51
# cnt : 187
# AWLEN IN M DRV:33
# cnt : 188
# AWLEN IN M DRV:146
# cnt : 189
# AWLEN IN M DRV:45
# cnt : 190
# AWLEN IN M DRV:0
# cnt : 191
# AWLEN IN M DRV:48
# cnt : 192
# AWLEN IN M DRV:198
# cnt : 193
# AWLEN IN M DRV:188
# cnt : 194
# AWLEN IN M DRV:103
# cnt : 195
# AWLEN IN M DRV:2
# cnt : 196
# AWLEN IN M DRV:240
# cnt : 197
# AWLEN IN M DRV:88
# cnt : 198
# AWLEN IN M DRV:122
# cnt : 199
# AWLEN IN M DRV:253
# cnt : 200
# AWLEN IN M DRV:112
# cnt : 201
# AWLEN IN M DRV:35
# cnt : 202
# AWLEN IN M DRV:232
# cnt : 203
# AWLEN IN M DRV:71
# cnt : 204
# AWLEN IN M DRV:172
# cnt : 205
# AWLEN IN M DRV:91
# cnt : 206
# AWLEN IN M DRV:190
# cnt : 207
# AWLEN IN M DRV:86
# cnt : 208
# AWLEN IN M DRV:1
# cnt : 209
# AWLEN IN M DRV:124
# cnt : 210
# AWLEN IN M DRV:22
# cnt : 211
# AWLEN IN M DRV:18
# cnt : 212
# AWLEN IN M DRV:13
# cnt : 213
# AWLEN IN M DRV:180
# cnt : 214
# AWLEN IN M DRV:162
# cnt : 215
# AWLEN IN M DRV:111
# cnt : 216
# AWLEN IN M DRV:190
# cnt : 217
# AWLEN IN M DRV:124
# cnt : 218
# AWLEN IN M DRV:73
# cnt : 219
# AWLEN IN M DRV:231
# cnt : 220
# AWLEN IN M DRV:130
# cnt : 221
# AWLEN IN M DRV:180
# cnt : 222
# AWLEN IN M DRV:189
# cnt : 223
# AWLEN IN M DRV:157
# cnt : 224
# AWLEN IN M DRV:130
# cnt : 225
# AWLEN IN M DRV:62
# cnt : 226
# AWLEN IN M DRV:108
# cnt : 227
# AWLEN IN M DRV:227
# cnt : 228
# AWLEN IN M DRV:211
# cnt : 229
# AWLEN IN M DRV:55
# cnt : 230
# AWLEN IN M DRV:123
# cnt : 231
# AWLEN IN M DRV:28
# cnt : 232
# AWLEN IN M DRV:244
# cnt : 233
# AWLEN IN M DRV:253
# cnt : 234
# AWLEN IN M DRV:15
# cnt : 235
# AWLEN IN M DRV:130
# cnt : 236
# AWLEN IN M DRV:151
# cnt : 237
# AWLEN IN M DRV:229
# cnt : 238
# AWLEN IN M DRV:32
# cnt : 239
# AWLEN IN M DRV:28
# cnt : 240
# AWLEN IN M DRV:62
# cnt : 241
# AWLEN IN M DRV:24
# cnt : 242
# AWLEN IN M DRV:129
# cnt : 243
# AWLEN IN M DRV:156
# cnt : 244
# AWLEN IN M DRV:112
# cnt : 245
# AWLEN IN M DRV:66
# cnt : 246
# AWLEN IN M DRV:81
# cnt : 247
# AWLEN IN M DRV:254
# cnt : 248
# AWLEN IN M DRV:25
# cnt : 249
# AWLEN IN M DRV:218
# cnt : 250
# AWLEN IN M DRV:47
# cnt : 251
# AWLEN IN M DRV:217
# cnt : 252
# AWLEN IN M DRV:99
# cnt : 253
# AWLEN IN M DRV:252
# cnt : 254
# AWLEN IN M DRV:118
# cnt : 255
# AWLEN IN M DRV:43
# cnt : 256
# AWLEN IN M DRV:167
# cnt : 257
# AWLEN IN M DRV:84
# cnt : 258
# AWLEN IN M DRV:79
# cnt : 259
# AWLEN IN M DRV:12
# cnt : 260
# AWLEN IN M DRV:134
# cnt : 261
# AWLEN IN M DRV:157
# cnt : 262
# AWLEN IN M DRV:135
# cnt : 263
# AWLEN IN M DRV:170
# cnt : 264
# AWLEN IN M DRV:70
# cnt : 265
# AWLEN IN M DRV:213
# cnt : 266
# AWLEN IN M DRV:94
# cnt : 267
# AWLEN IN M DRV:191
# cnt : 268
# AWLEN IN M DRV:237
# cnt : 269
# AWLEN IN M DRV:220
# cnt : 270
# AWLEN IN M DRV:35
# cnt : 271
# AWLEN IN M DRV:147
# cnt : 272
# AWLEN IN M DRV:128
# cnt : 273
# AWLEN IN M DRV:220
# cnt : 274
# AWLEN IN M DRV:88
# cnt : 275
# AWLEN IN M DRV:235
# cnt : 276
# AWLEN IN M DRV:113
# cnt : 277
# AWLEN IN M DRV:167
# cnt : 278
# AWLEN IN M DRV:95
# cnt : 279
# AWLEN IN M DRV:139
# cnt : 280
# AWLEN IN M DRV:100
# cnt : 281
# AWLEN IN M DRV:114
# cnt : 282
# AWLEN IN M DRV:219
# cnt : 283
# AWLEN IN M DRV:146
# cnt : 284
# AWLEN IN M DRV:177
# cnt : 285
# AWLEN IN M DRV:144
# cnt : 286
# AWLEN IN M DRV:245
# cnt : 287
# AWLEN IN M DRV:172
# cnt : 288
# AWLEN IN M DRV:22
# cnt : 289
# AWLEN IN M DRV:42
# cnt : 290
# AWLEN IN M DRV:245
# cnt : 291
# AWLEN IN M DRV:101
# cnt : 292
# AWLEN IN M DRV:252
# cnt : 293
# AWLEN IN M DRV:48
# cnt : 294
# AWLEN IN M DRV:26
# cnt : 295
# AWLEN IN M DRV:124
# cnt : 296
# AWLEN IN M DRV:187
# cnt : 297
# AWLEN IN M DRV:95
# cnt : 298
# AWLEN IN M DRV:30
# cnt : 299
# AWLEN IN M DRV:243
# cnt : 300
# AWLEN IN M DRV:90
# cnt : 301
# AWLEN IN M DRV:134
# cnt : 302
# AWLEN IN M DRV:150
# cnt : 303
# AWLEN IN M DRV:244
# cnt : 304
# AWLEN IN M DRV:231
# cnt : 305
# AWLEN IN M DRV:219
# cnt : 306
# AWLEN IN M DRV:197
# cnt : 307
# AWLEN IN M DRV:224
# cnt : 308
# AWLEN IN M DRV:86
# cnt : 309
# AWLEN IN M DRV:156
# cnt : 310
# AWLEN IN M DRV:221
# cnt : 311
# AWLEN IN M DRV:218
# cnt : 312
# AWLEN IN M DRV:2
# cnt : 313
# AWLEN IN M DRV:165
# cnt : 314
# AWLEN IN M DRV:192
# cnt : 315
# AWLEN IN M DRV:37
# cnt : 316
# AWLEN IN M DRV:82
# cnt : 317
# AWLEN IN M DRV:21
# cnt : 318
# AWLEN IN M DRV:94
# cnt : 319
# AWLEN IN M DRV:230
# cnt : 320
# AWLEN IN M DRV:138
# cnt : 321
# AWLEN IN M DRV:253
# cnt : 322
# AWLEN IN M DRV:198
# cnt : 323
# AWLEN IN M DRV:225
# cnt : 324
# AWLEN IN M DRV:57
# cnt : 325
# AWLEN IN M DRV:203
# cnt : 326
# AWLEN IN M DRV:72
# cnt : 327
# AWLEN IN M DRV:27
# cnt : 328
# AWLEN IN M DRV:61
# cnt : 329
# AWLEN IN M DRV:46
# cnt : 330
# AWLEN IN M DRV:13
# cnt : 331
# AWLEN IN M DRV:148
# cnt : 332
# AWLEN IN M DRV:135
# cnt : 333
# AWLEN IN M DRV:102
# cnt : 334
# AWLEN IN M DRV:22
# cnt : 335
# AWLEN IN M DRV:222
# cnt : 336
# AWLEN IN M DRV:163
# cnt : 337
# AWLEN IN M DRV:147
# cnt : 338
# AWLEN IN M DRV:17
# cnt : 339
# AWLEN IN M DRV:25
# cnt : 340
# AWLEN IN M DRV:237
# cnt : 341
# AWLEN IN M DRV:226
# cnt : 342
# AWLEN IN M DRV:144
# cnt : 343
# AWLEN IN M DRV:85
# cnt : 344
# AWLEN IN M DRV:210
# cnt : 345
# AWLEN IN M DRV:144
# cnt : 346
# AWLEN IN M DRV:19
# cnt : 347
# AWLEN IN M DRV:80
# cnt : 348
# AWLEN IN M DRV:125
# cnt : 349
# AWLEN IN M DRV:55
# cnt : 350
# AWLEN IN M DRV:163
# cnt : 351
# AWLEN IN M DRV:187
# cnt : 352
# AWLEN IN M DRV:235
# cnt : 353
# AWLEN IN M DRV:53
# cnt : 354
# AWLEN IN M DRV:109
# cnt : 355
# AWLEN IN M DRV:165
# cnt : 356
# AWLEN IN M DRV:157
# cnt : 357
# AWLEN IN M DRV:151
# cnt : 358
# AWLEN IN M DRV:227
# cnt : 359
# AWLEN IN M DRV:113
# cnt : 360
# AWLEN IN M DRV:248
# cnt : 361
# AWLEN IN M DRV:37
# cnt : 362
# AWLEN IN M DRV:251
# cnt : 363
# AWLEN IN M DRV:104
# cnt : 364
# AWLEN IN M DRV:184
# cnt : 365
# AWLEN IN M DRV:173
# cnt : 366
# AWLEN IN M DRV:22
# cnt : 367
# AWLEN IN M DRV:2
# cnt : 368
# AWLEN IN M DRV:15
# cnt : 369
# AWLEN IN M DRV:166
# cnt : 370
# AWLEN IN M DRV:26
# cnt : 371
# AWLEN IN M DRV:156
# cnt : 372
# AWLEN IN M DRV:153
# cnt : 373
# AWLEN IN M DRV:17
# cnt : 374
# AWLEN IN M DRV:90
# cnt : 375
# AWLEN IN M DRV:144
# cnt : 376
# AWLEN IN M DRV:13
# cnt : 377
# AWLEN IN M DRV:164
# cnt : 378
# AWLEN IN M DRV:133
# cnt : 379
# AWLEN IN M DRV:40
# cnt : 380
# AWLEN IN M DRV:141
# cnt : 381
# AWLEN IN M DRV:51
# cnt : 382
# AWLEN IN M DRV:192
# cnt : 383
# AWLEN IN M DRV:169
# cnt : 384
# AWLEN IN M DRV:165
# cnt : 385
# AWLEN IN M DRV:37
# cnt : 386
# AWLEN IN M DRV:166
# cnt : 387
# AWLEN IN M DRV:121
# cnt : 388
# AWLEN IN M DRV:200
# cnt : 389
# AWLEN IN M DRV:170
# cnt : 390
# AWLEN IN M DRV:31
# cnt : 391
# AWLEN IN M DRV:104
# cnt : 392
# AWLEN IN M DRV:7
# cnt : 393
# AWLEN IN M DRV:45
# cnt : 394
# AWLEN IN M DRV:19
# cnt : 395
# AWLEN IN M DRV:17
# cnt : 396
# AWLEN IN M DRV:157
# cnt : 397
# AWLEN IN M DRV:241
# cnt : 398
# AWLEN IN M DRV:194
# cnt : 399
# AWLEN IN M DRV:243
# cnt : 400
# WID: 48469 , AWID : 48469
# burst in s mon : 1
# awid in s mon : bd55 , awaddr : 1ccf817f
#                   15wlast : 0
# WID: 48469 , AWID : 48469
# burst in s mon : 1
# awid in s mon : bf1c , awaddr : 9c8a8aa8
# INIDE_SLAVE_MON_CTR=1
# arid in s mon : 60203
#                   25wlast : 0
# WID: 48469 , AWID : 48469
# m mon ar id : eb2b
# INIDE_SLAVE_MON_CTR=2
# arid in s mon : 59707
# burst in s mon : 1
# awid in s mon : 2b53 , awaddr : 3fc78386
#                   35wlast : 0
# WID: 48469 , AWID : 48469
# m mon ar id : e93b
# burst in s mon : 1
# awid in s mon : a632 , awaddr : a827f4dc
# INIDE_SLAVE_MON_CTR=3
# arid in s mon : 59859
#                   45wlast : 0
# WID: 48469 , AWID : 48469
# m mon ar id : e9d3
# INIDE_SLAVE_MON_CTR=4
# arid in s mon : 10426
# burst in s mon : 1
# awid in s mon : 8031 , awaddr : c93dacea
#                   55wlast : 0
# WID: 48469 , AWID : 48469
# m mon ar id : 28ba
# burst in s mon : 1
# awid in s mon : fb10 , awaddr : 35a749d
# INIDE_SLAVE_MON_CTR=5
# arid in s mon : 61524
#                   65wlast : 0
# WID: 48469 , AWID : 48469
# m mon ar id : f054
# INIDE_SLAVE_MON_CTR=6
# arid in s mon : 26459
# burst in s mon : 1
# awid in s mon : bbe1 , awaddr : afb12886
#                   75wlast : 0
# WID: 48469 , AWID : 48469
# m mon ar id : 675b
# burst in s mon : 1
# awid in s mon : bc15 , awaddr : a2c044cb
# INIDE_SLAVE_MON_CTR=7
# arid in s mon : 22357
#                   85wlast : 0
# WID: 48469 , AWID : 48469
# m mon ar id : 5755
# INIDE_SLAVE_MON_CTR=8
# arid in s mon : 58966
# burst in s mon : 1
# awid in s mon : 5bc8 , awaddr : 6054f9c7
#                   95wlast : 0
# WID: 48469 , AWID : 48469
# m mon ar id : e656
# burst in s mon : 1
# awid in s mon : d167 , awaddr : 12dc6082
# INIDE_SLAVE_MON_CTR=9
# arid in s mon : 64759
#                  105wlast : 0
# WID: 48469 , AWID : 48469
# m mon ar id : fcf7
# INIDE_SLAVE_MON_CTR=10
# arid in s mon : 43156
# burst in s mon : 1
# awid in s mon : 43d7 , awaddr : 3d2bf2ef
#                  115wlast : 0
# WID: 48469 , AWID : 48469
# m mon ar id : a894
# burst in s mon : 1
# awid in s mon : 59e0 , awaddr : 8c9d1d70
# INIDE_SLAVE_MON_CTR=11
# arid in s mon : 52439
#                  125wlast : 0
# WID: 48469 , AWID : 48469
# m mon ar id : ccd7
# INIDE_SLAVE_MON_CTR=12
# arid in s mon : 4905
# burst in s mon : 1
# awid in s mon : 7d1f , awaddr : da60b871
#                  135wlast : 0
# WID: 48469 , AWID : 48469
# m mon ar id : 1329
# burst in s mon : 1
# awid in s mon : 3181 , awaddr : 27324e15
# INIDE_SLAVE_MON_CTR=13
# arid in s mon : 35577
#                  145wlast : 0
# WID: 48469 , AWID : 48469
# m mon ar id : 8af9
# INIDE_SLAVE_MON_CTR=14
# arid in s mon : 25219
# burst in s mon : 1
# awid in s mon : 9de9 , awaddr : 9eb23e8b
#                  155wlast : 0
# WID: 48469 , AWID : 48469
# m mon ar id : 6283
# burst in s mon : 1
# awid in s mon : 870b , awaddr : 63116b02
# INIDE_SLAVE_MON_CTR=15
# arid in s mon : 47995
#                  165wlast : 0
# WID: 48469 , AWID : 48469
# m mon ar id : bb7b
# INIDE_SLAVE_MON_CTR=16
# arid in s mon : 51276
# burst in s mon : 1
# awid in s mon : de5 , awaddr : b783f1fb
#                  175wlast : 0
# WID: 48469 , AWID : 48469
# m mon ar id : c84c
# burst in s mon : 1
# awid in s mon : 3595 , awaddr : f71631f2
# INIDE_SLAVE_MON_CTR=17
# arid in s mon : 44353
#                  185wlast : 0
# WID: 48469 , AWID : 48469
# m mon ar id : ad41
# INIDE_SLAVE_MON_CTR=18
# arid in s mon : 34273
# burst in s mon : 1
# awid in s mon : 2178 , awaddr : d1c25ac5
#                  195wlast : 0
# WID: 48469 , AWID : 48469
# m mon ar id : 85e1
# burst in s mon : 1
# awid in s mon : ad86 , awaddr : f80e7970
# INIDE_SLAVE_MON_CTR=19
# arid in s mon : 40878
#                  205wlast : 0
# WID: 48469 , AWID : 48469
# m mon ar id : 9fae
# INIDE_SLAVE_MON_CTR=20
# arid in s mon : 65033
# burst in s mon : 1
# awid in s mon : fe69 , awaddr : f43eb415
#                  215wlast : 0
# WID: 48469 , AWID : 48469
# m mon ar id : fe09
# burst in s mon : 1
# awid in s mon : 177c , awaddr : dfd32856
# INIDE_SLAVE_MON_CTR=21
# arid in s mon : 39064
#                  225wlast : 0
# WID: 48469 , AWID : 48469
# m mon ar id : 9898
# INIDE_SLAVE_MON_CTR=22
# arid in s mon : 62773
# burst in s mon : 1
# awid in s mon : 661d , awaddr : f282cd28
#                  235wlast : 0
# WID: 48469 , AWID : 48469
# m mon ar id : f535
# burst in s mon : 1
# awid in s mon : e79f , awaddr : 49966b94
# INIDE_SLAVE_MON_CTR=23
# arid in s mon : 60350
#                  245wlast : 0
# WID: 48469 , AWID : 48469
# m mon ar id : ebbe
# INIDE_SLAVE_MON_CTR=24
# arid in s mon : 45043
# burst in s mon : 1
# awid in s mon : 5d92 , awaddr : 718eb6fb
#                  255wlast : 0
# WID: 48469 , AWID : 48469
# m mon ar id : aff3
# burst in s mon : 1
# awid in s mon : 74b6 , awaddr : 5e346e46
# INIDE_SLAVE_MON_CTR=25
# arid in s mon : 15796
#                  265wlast : 0
# WID: 48469 , AWID : 48469
# m mon ar id : 3db4
# INIDE_SLAVE_MON_CTR=26
# arid in s mon : 64427
# burst in s mon : 1
# awid in s mon : 2a80 , awaddr : 90217e07
#                  275wlast : 0
# WID: 48469 , AWID : 48469
# m mon ar id : fbab
# burst in s mon : 1
# awid in s mon : 1ffb , awaddr : de1c242b
# INIDE_SLAVE_MON_CTR=27
# arid in s mon : 15132
#                  285wlast : 0
# WID: 48469 , AWID : 48469
# m mon ar id : 3b1c
# INIDE_SLAVE_MON_CTR=28
# arid in s mon : 25003
# burst in s mon : 1
# awid in s mon : 4336 , awaddr : f2f30a26
#                  295wlast : 0
# WID: 48469 , AWID : 48469
# m mon ar id : 61ab
# burst in s mon : 1
# awid in s mon : 2877 , awaddr : 4ef26163
# INIDE_SLAVE_MON_CTR=29
# arid in s mon : 51408
#                  305wlast : 0
# WID: 48469 , AWID : 48469
# m mon ar id : c8d0
# INIDE_SLAVE_MON_CTR=30
# arid in s mon : 29970
# burst in s mon : 1
# awid in s mon : 359 , awaddr : 8514321b
#                  315wlast : 0
# WID: 48469 , AWID : 48469
# m mon ar id : 7512
# burst in s mon : 1
# awid in s mon : 36be , awaddr : 3a2a1763
# INIDE_SLAVE_MON_CTR=31
# arid in s mon : 11395
#                  325wlast : 0
# WID: 48469 , AWID : 48469
# m mon ar id : 2c83
# INIDE_SLAVE_MON_CTR=32
# arid in s mon : 43166
# burst in s mon : 1
# awid in s mon : 3127 , awaddr : 30aedbb2
#                  335wlast : 0
# WID: 48469 , AWID : 48469
# m mon ar id : a89e
# burst in s mon : 1
# awid in s mon : 5250 , awaddr : fb7311b3
# INIDE_SLAVE_MON_CTR=33
# arid in s mon : 11187
#                  345wlast : 0
# WID: 48469 , AWID : 48469
# m mon ar id : 2bb3
# INIDE_SLAVE_MON_CTR=34
# arid in s mon : 5180
# burst in s mon : 1
# awid in s mon : 2eeb , awaddr : 57f6b1da
#                  355wlast : 0
# WID: 48469 , AWID : 48469
# m mon ar id : 143c
# burst in s mon : 1
# awid in s mon : 2c50 , awaddr : b61a4947
# INIDE_SLAVE_MON_CTR=35
# arid in s mon : 33047
#                  365wlast : 0
# WID: 48469 , AWID : 48469
# m mon ar id : 8117
# INIDE_SLAVE_MON_CTR=36
# arid in s mon : 41870
# burst in s mon : 1
# awid in s mon : 810c , awaddr : 16b0cb04
#                  375wlast : 0
# WID: 48469 , AWID : 48469
# m mon ar id : a38e
# burst in s mon : 1
# awid in s mon : cb7a , awaddr : c3ff3ccc
# INIDE_SLAVE_MON_CTR=37
# arid in s mon : 14176
#                  385wlast : 0
# WID: 48469 , AWID : 48469
# m mon ar id : 3760
# INIDE_SLAVE_MON_CTR=38
# arid in s mon : 15499
# burst in s mon : 1
# awid in s mon : 2afe , awaddr : 8e1c0e3a
#                  395wlast : 0
# WID: 48469 , AWID : 48469
# m mon ar id : 3c8b
# burst in s mon : 1
# awid in s mon : 90ac , awaddr : d9f9aaa5
# INIDE_SLAVE_MON_CTR=39
# arid in s mon : 29379
#                  405wlast : 0
# WID: 48469 , AWID : 48469
# m mon ar id : 72c3
# INIDE_SLAVE_MON_CTR=40
# arid in s mon : 11568
# burst in s mon : 1
# awid in s mon : b6ce , awaddr : 95d54809
#                  415wlast : 0
# WID: 48469 , AWID : 48469
# m mon ar id : 2d30
# burst in s mon : 1
# awid in s mon : 6ad5 , awaddr : 5846b8ac
# INIDE_SLAVE_MON_CTR=41
# arid in s mon : 16179
#                  425wlast : 0
# WID: 48469 , AWID : 48469
# m mon ar id : 3f33
# INIDE_SLAVE_MON_CTR=42
# arid in s mon : 60092
# burst in s mon : 1
# awid in s mon : c8cc , awaddr : dd0d0981
#                  435wlast : 0
# WID: 48469 , AWID : 48469
# m mon ar id : eabc
# burst in s mon : 1
# awid in s mon : 13d6 , awaddr : 4e382595
# INIDE_SLAVE_MON_CTR=43
# arid in s mon : 36315
#                  445wlast : 0
# WID: 48469 , AWID : 48469
# m mon ar id : 8ddb
# INIDE_SLAVE_MON_CTR=44
# arid in s mon : 5087
# burst in s mon : 1
# awid in s mon : 6a29 , awaddr : 6e44428
#                  455wlast : 0
# WID: 48469 , AWID : 48469
# m mon ar id : 13df
# burst in s mon : 1
# awid in s mon : a989 , awaddr : 8e22ae73
# INIDE_SLAVE_MON_CTR=45
# arid in s mon : 47476
#                  465wlast : 0
# WID: 48469 , AWID : 48469
# m mon ar id : b974
# INIDE_SLAVE_MON_CTR=46
# arid in s mon : 36504
# burst in s mon : 1
# awid in s mon : 98df , awaddr : c6a75ec0
#                  475wlast : 0
# WID: 48469 , AWID : 48469
# m mon ar id : 8e98
# burst in s mon : 1
# awid in s mon : 4b94 , awaddr : 4b9ca46a
# INIDE_SLAVE_MON_CTR=47
# arid in s mon : 22723
#                  485wlast : 0
# WID: 48469 , AWID : 48469
# m mon ar id : 58c3
# INIDE_SLAVE_MON_CTR=48
# arid in s mon : 50465
# burst in s mon : 1
# awid in s mon : 4518 , awaddr : daf1d3b3
#                  495wlast : 0
# WID: 48469 , AWID : 48469
# m mon ar id : c521
# burst in s mon : 1
# awid in s mon : 4e73 , awaddr : f89bab64
# INIDE_SLAVE_MON_CTR=49
# arid in s mon : 9563
#                  505wlast : 0
# WID: 48469 , AWID : 48469
# m mon ar id : 255b
# INIDE_SLAVE_MON_CTR=50
# arid in s mon : 12754
# burst in s mon : 1
# awid in s mon : db50 , awaddr : 8a606626
#                  515wlast : 0
# WID: 48469 , AWID : 48469
# m mon ar id : 31d2
# burst in s mon : 1
# awid in s mon : 7d7d , awaddr : c780393b
# INIDE_SLAVE_MON_CTR=51
# arid in s mon : 32108
#                  525wlast : 0
# WID: 48469 , AWID : 48469
# m mon ar id : 7d6c
# INIDE_SLAVE_MON_CTR=52
# arid in s mon : 12915
# burst in s mon : 1
# awid in s mon : fd61 , awaddr : 1b68b1ed
#                  535wlast : 0
# WID: 48469 , AWID : 48469
# m mon ar id : 3273
# burst in s mon : 1
# awid in s mon : 61cd , awaddr : c00e0e00
# INIDE_SLAVE_MON_CTR=53
# arid in s mon : 58420
#                  545wlast : 0
# WID: 48469 , AWID : 48469
# m mon ar id : e434
# INIDE_SLAVE_MON_CTR=54
# arid in s mon : 21916
# burst in s mon : 1
# awid in s mon : 177f , awaddr : 969e498f
#                  555wlast : 0
# WID: 48469 , AWID : 48469
# m mon ar id : 559c
# burst in s mon : 1
# awid in s mon : 4ca , awaddr : 7041a920
# INIDE_SLAVE_MON_CTR=55
# arid in s mon : 31141
#                  565wlast : 0
# WID: 48469 , AWID : 48469
# m mon ar id : 79a5
# INIDE_SLAVE_MON_CTR=56
# arid in s mon : 36107
# burst in s mon : 1
# awid in s mon : f475 , awaddr : 805510db
#                  575wlast : 0
# WID: 48469 , AWID : 48469
# m mon ar id : 8d0b
# burst in s mon : 1
# awid in s mon : f2e1 , awaddr : df565a8e
# INIDE_SLAVE_MON_CTR=57
# arid in s mon : 65117
#                  585wlast : 0
# WID: 48469 , AWID : 48469
# m mon ar id : fe5d
# INIDE_SLAVE_MON_CTR=58
# arid in s mon : 21315
# burst in s mon : 1
# awid in s mon : ac6e , awaddr : 61a4eeb8
#                  595wlast : 0
# WID: 48469 , AWID : 48469
# m mon ar id : 5343
# burst in s mon : 1
# awid in s mon : 331 , awaddr : 808c5498
# INIDE_SLAVE_MON_CTR=59
# arid in s mon : 58658
#                  605wlast : 0
# WID: 48469 , AWID : 48469
# m mon ar id : e522
# INIDE_SLAVE_MON_CTR=60
# arid in s mon : 55026
# burst in s mon : 1
# awid in s mon : f611 , awaddr : 42b05cae
#                  615wlast : 0
# WID: 48469 , AWID : 48469
# m mon ar id : d6f2
# burst in s mon : 1
# awid in s mon : 1d0c , awaddr : 66eb0168
# INIDE_SLAVE_MON_CTR=61
# arid in s mon : 30931
#                  625wlast : 0
# WID: 48469 , AWID : 48469
# m mon ar id : 78d3
# INIDE_SLAVE_MON_CTR=62
# arid in s mon : 21841
# burst in s mon : 1
# awid in s mon : f21b , awaddr : 78564c4a
#                  635wlast : 0
# WID: 48469 , AWID : 48469
# m mon ar id : 5551
# burst in s mon : 1
# awid in s mon : 81c9 , awaddr : 2c5f9dd2
# INIDE_SLAVE_MON_CTR=63
# arid in s mon : 5800
#                  645wlast : 0
# WID: 48469 , AWID : 48469
# m mon ar id : 16a8
# INIDE_SLAVE_MON_CTR=64
# arid in s mon : 56378
# burst in s mon : 1
# awid in s mon : 8a9e , awaddr : 4a4ec5d0
#                  655wlast : 0
# WID: 48469 , AWID : 48469
# m mon ar id : dc3a
# burst in s mon : 1
# awid in s mon : 1790 , awaddr : 8a84fe10
# INIDE_SLAVE_MON_CTR=65
# arid in s mon : 43113
#                  665wlast : 0
# WID: 48469 , AWID : 48469
# m mon ar id : a869
# INIDE_SLAVE_MON_CTR=66
# arid in s mon : 31737
# burst in s mon : 1
# awid in s mon : fc91 , awaddr : a42b3ba2
#                  675wlast : 0
# WID: 48469 , AWID : 48469
# m mon ar id : 7bf9
# burst in s mon : 1
# awid in s mon : 103c , awaddr : 8278d5a6
# INIDE_SLAVE_MON_CTR=67
# arid in s mon : 34398
#                  685wlast : 0
# WID: 48469 , AWID : 48469
# m mon ar id : 865e
# INIDE_SLAVE_MON_CTR=68
# arid in s mon : 20639
# burst in s mon : 1
# awid in s mon : 492d , awaddr : c24a87bc
#                  695wlast : 0
# WID: 48469 , AWID : 48469
# m mon ar id : 509f
# burst in s mon : 1
# awid in s mon : 4f82 , awaddr : 556fafb4
# INIDE_SLAVE_MON_CTR=69
# arid in s mon : 43133
#                  705wlast : 0
# WID: 48469 , AWID : 48469
# m mon ar id : a87d
# INIDE_SLAVE_MON_CTR=70
# arid in s mon : 54666
# burst in s mon : 1
# awid in s mon : 1682 , awaddr : 82f68af7
#                  715wlast : 0
# WID: 48469 , AWID : 48469
# m mon ar id : d58a
# burst in s mon : 1
# awid in s mon : 4b17 , awaddr : 758b7900
# INIDE_SLAVE_MON_CTR=71
# arid in s mon : 2480
#                  725wlast : 0
# WID: 48469 , AWID : 48469
# m mon ar id : 9b0
# INIDE_SLAVE_MON_CTR=72
# arid in s mon : 58224
# burst in s mon : 1
# awid in s mon : 8ca1 , awaddr : af3cba3f
#                  735wlast : 0
# WID: 48469 , AWID : 48469
# m mon ar id : e370
# burst in s mon : 1
# awid in s mon : dcfb , awaddr : 6d641844
# INIDE_SLAVE_MON_CTR=73
# arid in s mon : 18096
#                  745wlast : 0
# WID: 48469 , AWID : 48469
# m mon ar id : 46b0
# INIDE_SLAVE_MON_CTR=74
# arid in s mon : 10861
# burst in s mon : 1
# awid in s mon : e6d0 , awaddr : bb38b45e
#                  755wlast : 0
# WID: 48469 , AWID : 48469
# m mon ar id : 2a6d
# abc : 1
# ref model mem : 483361155
# abc : 2
# ref model mem : 483361159
# abc : 3
# ref model mem : 483361163
# abc : 4
# ref model mem : 483361167
# abc : 5
# ref model mem : 483361171
# abc : 6
# ref model mem : 483361175
# abc : 7
# ref model mem : 483361179
# abc : 8
# ref model mem : 483361183
# abc : 9
# ref model mem : 483361187
# abc : 10
# ref model mem : 483361191
# abc : 11
# ref model mem : 483361195
# abc : 12
# ref model mem : 483361199
# abc : 13
# ref model mem : 483361203
# abc : 14
# ref model mem : 483361207
# abc : 15
# ref model mem : 483361211
# abc : 16
# ref model mem : 483361215
# abc : 17
# ref model mem : 483361219
# abc : 18
# ref model mem : 483361223
# abc : 19
# ref model mem : 483361227
# abc : 20
# ref model mem : 483361231
# abc : 21
# ref model mem : 483361235
# abc : 22
# ref model mem : 483361239
# abc : 23
# ref model mem : 483361243
# abc : 24
# ref model mem : 483361247
# abc : 25
# ref model mem : 483361251
# abc : 26
# ref model mem : 483361255
# abc : 27
# ref model mem : 483361259
# abc : 28
# ref model mem : 483361263
# abc : 29
# ref model mem : 483361267
# abc : 30
# ref model mem : 483361271
# abc : 31
# ref model mem : 483361275
# abc : 32
# ref model mem : 483361279
# abc : 33
# ref model mem : 483361283
# abc : 34
# ref model mem : 483361287
# abc : 35
# ref model mem : 483361291
# abc : 36
# ref model mem : 483361295
# abc : 37
# ref model mem : 483361299
# abc : 38
# ref model mem : 483361303
# abc : 39
# ref model mem : 483361307
# abc : 40
# ref model mem : 483361311
# abc : 41
# ref model mem : 483361315
# abc : 42
# ref model mem : 483361319
# abc : 43
# ref model mem : 483361323
# abc : 44
# ref model mem : 483361327
# abc : 45
# ref model mem : 483361331
# abc : 46
# ref model mem : 483361335
# abc : 47
# ref model mem : 483361339
# abc : 48
# ref model mem : 483361343
# abc : 49
# ref model mem : 483361347
# abc : 50
# ref model mem : 483361351
# abc : 51
# ref model mem : 483361355
# abc : 52
# ref model mem : 483361359
# abc : 53
# ref model mem : 483361363
# abc : 54
# ref model mem : 483361367
# abc : 55
# ref model mem : 483361371
# abc : 56
# ref model mem : 483361375
# abc : 57
# ref model mem : 483361379
# abc : 58
# ref model mem : 483361383
# abc : 59
# ref model mem : 483361387
# abc : 60
# ref model mem : 483361391
# abc : 61
# ref model mem : 483361395
# abc : 62
# ref model mem : 483361399
# abc : 63
# ref model mem : 483361403
# abc : 64
# ref model mem : 483361407
# abc : 65
# ref model mem : 483361411
# abc : 66
# ref model mem : 483361415
# abc : 67
# ref model mem : 483361419
# abc : 68
# ref model mem : 483361423
# abc : 69
# ref model mem : 483361427
# abc : 70
# ref model mem : 483361431
# abc : 71
# ref model mem : 483361435
# abc : 72
# ref model mem : 483361439
# abc : 73
# ref model mem : 483361443
# abc : 74
# ref model mem : 483361447
# abc : 75
# ref model mem : 483361451
# abc : 76
# ref model mem : 483361455
# xyz : 1
# xyz : 2
# xyz : 3
# xyz : 4
# xyz : 5
# xyz : 6
# xyz : 7
# xyz : 8
# xyz : 9
# xyz : 10
# xyz : 11
# xyz : 12
# xyz : 13
# xyz : 14
# xyz : 15
# xyz : 16
# xyz : 17
# xyz : 18
# xyz : 19
# xyz : 20
# xyz : 21
# xyz : 22
# xyz : 23
# xyz : 24
# xyz : 25
# xyz : 26
# xyz : 27
# xyz : 28
# xyz : 29
# xyz : 30
# xyz : 31
# xyz : 32
# xyz : 33
# xyz : 34
# xyz : 35
# xyz : 36
# xyz : 37
# xyz : 38
# xyz : 39
# xyz : 40
# xyz : 41
# xyz : 42
# xyz : 43
# xyz : 44
# xyz : 45
# xyz : 46
# xyz : 47
# xyz : 48
# xyz : 49
# xyz : 50
# xyz : 51
# xyz : 52
# xyz : 53
# xyz : 54
# xyz : 55
# xyz : 56
# xyz : 57
# xyz : 58
# xyz : 59
# xyz : 60
# xyz : 61
# xyz : 62
# xyz : 63
# xyz : 64
# xyz : 65
# burst in s mon : 1
# awid in s mon : 9071 , awaddr : ae6265c9
# INIDE_SLAVE_MON_CTR=75
# arid in s mon : 29068
#                  765wlast : 1
# AFFTER W CHANNEL
# WID: 48924 , AWID : 48924
# req kind_e : WRITE
# m mon ar id : 718c
# match arid : 0 , rid : 0
# UVM_INFO ../env/s_agent/axi_s_drv.sv(31) @ 765: uvm_test_top.env_h.s_uvc_h.s_agent_h[0].s_drv_h [ID MATCH] aaaaa
# s seqs arid : 60203
# INIDE_SLAVE_SEQ_CTR=1
# match arid : eb2b , rid : eb2b
# UVM_INFO ../env/s_agent/axi_s_drv.sv(31) @ 765: uvm_test_top.env_h.s_uvc_h.s_agent_h[0].s_drv_h [ID MATCH] aaaaa
# rd data in s drv: e1000000 , len : 64 , last:0 , valid : 1
# INIDE_SLAVE_MON_CTR=76
# arid in s mon : 45337
# burst in s mon : 1
# awid in s mon : 2634 , awaddr : 6530cd7c
#                  775wlast : 0
# WID: 48924 , AWID : 48924
# m mon ar id : b119
# m mon rid : eb2b
# rd data in s drv: 5ade4b3 , len : 64 , last:0 , valid : 1
# burst in s mon : 1
# awid in s mon : 4af5 , awaddr : bb5f7a7d
# INIDE_SLAVE_MON_CTR=77
# arid in s mon : 24484
#                  785wlast : 0
# WID: 48924 , AWID : 48924
# m mon rid : eb2b
# m mon ar id : 5fa4
# UVM_INFO ../env/m_agent/axi_base_m_seqs.sv(26) @ 785: uvm_test_top.env_h.m_uvc_h.m_agent_h[0].m_seqr_h@@vseqs_h.m_wseqs_h [IN V SEQS] Got B-channel response from driver
# rd data in s drv: 55d992b7 , len : 64 , last:0 , valid : 1
# INIDE_SLAVE_MON_CTR=78
# arid in s mon : 27438
# burst in s mon : 1
# awid in s mon : c008 , awaddr : 7cd54405
#                  795wlast : 0
# WID: 48924 , AWID : 48924
# m mon ar id : 6b2e
# m mon rid : eb2b
# rd data in s drv: edb2c52b , len : 64 , last:0 , valid : 1
# burst in s mon : 1
# awid in s mon : d76c , awaddr : bd05128
# INIDE_SLAVE_MON_CTR=79
# arid in s mon : 9050
#                  805wlast : 0
# WID: 48924 , AWID : 48924
# m mon rid : eb2b
# m mon ar id : 235a
# rd data in s drv: 1b923475 , len : 64 , last:0 , valid : 1
# INIDE_SLAVE_MON_CTR=80
# arid in s mon : 59726
# burst in s mon : 1
# awid in s mon : 3005 , awaddr : 989c46bf
#                  815wlast : 0
# WID: 48924 , AWID : 48924
# m mon ar id : e94e
# m mon rid : eb2b
# rd data in s drv: 4107e103 , len : 64 , last:0 , valid : 1
# burst in s mon : 1
# awid in s mon : 77ec , awaddr : 1db5cbd4
# INIDE_SLAVE_MON_CTR=81
# arid in s mon : 3496
#                  825wlast : 0
# WID: 48924 , AWID : 48924
# m mon rid : eb2b
# m mon ar id : da8
# rd data in s drv: b7108ab , len : 64 , last:0 , valid : 1
# INIDE_SLAVE_MON_CTR=82
# arid in s mon : 23075
# burst in s mon : 1
# awid in s mon : 9a08 , awaddr : f42cf487
#                  835wlast : 0
# WID: 48924 , AWID : 48924
# m mon ar id : 5a23
# m mon rid : eb2b
# rd data in s drv: cb5f6e0d , len : 64 , last:0 , valid : 1
# burst in s mon : 1
# awid in s mon : 4b22 , awaddr : 3936b934
# INIDE_SLAVE_MON_CTR=83
# arid in s mon : 53893
#                  845wlast : 0
# WID: 48924 , AWID : 48924
# m mon rid : eb2b
# m mon ar id : d285
# rd data in s drv: 4c64af6 , len : 64 , last:0 , valid : 1
# INIDE_SLAVE_MON_CTR=84
# arid in s mon : 57238
# burst in s mon : 1
# awid in s mon : 778b , awaddr : 5eb7d409
#                  855wlast : 0
# WID: 48924 , AWID : 48924
# m mon ar id : df96
# m mon rid : eb2b
# rd data in s drv: 7868e7e2 , len : 64 , last:0 , valid : 1
# burst in s mon : 1
# awid in s mon : 4b82 , awaddr : 5c8b3dea
# INIDE_SLAVE_MON_CTR=85
# arid in s mon : 61303
#                  865wlast : 0
# WID: 48924 , AWID : 48924
# m mon rid : eb2b
# m mon ar id : ef77
# rd data in s drv: 969e6246 , len : 64 , last:0 , valid : 1
# INIDE_SLAVE_MON_CTR=86
# arid in s mon : 23900
# burst in s mon : 1
# awid in s mon : dd3b , awaddr : 87fe3416
#                  875wlast : 0
# WID: 48924 , AWID : 48924
# m mon ar id : 5d5c
# m mon rid : eb2b
# rd data in s drv: fe2516af , len : 64 , last:0 , valid : 1
# burst in s mon : 1
# awid in s mon : 3a8a , awaddr : ab0e5f29
# INIDE_SLAVE_MON_CTR=87
# arid in s mon : 61299
#                  885wlast : 0
# WID: 48924 , AWID : 48924
# m mon rid : eb2b
# m mon ar id : ef73
# rd data in s drv: 8f210cad , len : 64 , last:0 , valid : 1
# INIDE_SLAVE_MON_CTR=88
# arid in s mon : 13152
# burst in s mon : 1
# awid in s mon : a371 , awaddr : 1e5e057b
#                  895wlast : 0
# WID: 48924 , AWID : 48924
# m mon ar id : 3360
# m mon rid : eb2b
# rd data in s drv: 86f1b2d8 , len : 64 , last:0 , valid : 1
# burst in s mon : 1
# awid in s mon : b271 , awaddr : d52e1d7
# INIDE_SLAVE_MON_CTR=89
# arid in s mon : 60289
#                  905wlast : 0
# WID: 48924 , AWID : 48924
# m mon rid : eb2b
# m mon ar id : eb81
# rd data in s drv: b2effe30 , len : 64 , last:0 , valid : 1
# INIDE_SLAVE_MON_CTR=90
# arid in s mon : 46097
# burst in s mon : 1
# awid in s mon : 75fe , awaddr : 42060fe4
#                  915wlast : 0
# WID: 48924 , AWID : 48924
# m mon ar id : b411
# m mon rid : eb2b
# rd data in s drv: f856f24 , len : 64 , last:0 , valid : 1
# burst in s mon : 1
# awid in s mon : 891 , awaddr : 361dccdd
# INIDE_SLAVE_MON_CTR=91
# arid in s mon : 13132
#                  925wlast : 0
# WID: 48924 , AWID : 48924
# m mon rid : eb2b
# m mon ar id : 334c
# rd data in s drv: 8fa19992 , len : 64 , last:0 , valid : 1
# INIDE_SLAVE_MON_CTR=92
# arid in s mon : 26239
# burst in s mon : 1
# awid in s mon : 9526 , awaddr : c1c05cb8
#                  935wlast : 0
# WID: 48924 , AWID : 48924
# m mon ar id : 667f
# m mon rid : eb2b
# rd data in s drv: c12df88d , len : 64 , last:0 , valid : 1
# burst in s mon : 1
# awid in s mon : 7593 , awaddr : c377508d
# INIDE_SLAVE_MON_CTR=93
# arid in s mon : 50062
#                  945wlast : 0
# WID: 48924 , AWID : 48924
# m mon rid : eb2b
# m mon ar id : c38e
# rd data in s drv: 9d43dc14 , len : 64 , last:0 , valid : 1
# INIDE_SLAVE_MON_CTR=94
# arid in s mon : 57647
# burst in s mon : 1
# awid in s mon : 8fb3 , awaddr : 1d1f7434
#                  955wlast : 0
# WID: 48924 , AWID : 48924
# m mon ar id : e12f
# m mon rid : eb2b
# rd data in s drv: 9d37c28c , len : 64 , last:0 , valid : 1
# burst in s mon : 1
# awid in s mon : 18fa , awaddr : 76973f7f
# INIDE_SLAVE_MON_CTR=95
# arid in s mon : 23728
#                  965wlast : 0
# WID: 48924 , AWID : 48924
# m mon rid : eb2b
# m mon ar id : 5cb0
# rd data in s drv: 77df5636 , len : 64 , last:0 , valid : 1
# INIDE_SLAVE_MON_CTR=96
# arid in s mon : 33600
# burst in s mon : 1
# awid in s mon : 50ca , awaddr : f750452c
#                  975wlast : 0
# WID: 48924 , AWID : 48924
# m mon ar id : 8340
# m mon rid : eb2b
# rd data in s drv: da7ff4a0 , len : 64 , last:0 , valid : 1
# burst in s mon : 1
# awid in s mon : 7d41 , awaddr : f04d0000
# INIDE_SLAVE_MON_CTR=97
# arid in s mon : 59131
#                  985wlast : 0
# WID: 48924 , AWID : 48924
# m mon rid : eb2b
# m mon ar id : e6fb
# rd data in s drv: 2acde036 , len : 64 , last:0 , valid : 1
# INIDE_SLAVE_MON_CTR=98
# arid in s mon : 11031
# burst in s mon : 1
# awid in s mon : 57bf , awaddr : f042ccb0
#                  995wlast : 0
# WID: 48924 , AWID : 48924
# m mon ar id : 2b17
# m mon rid : eb2b
# rd data in s drv: 526c7e49 , len : 64 , last:0 , valid : 1
# burst in s mon : 1
# awid in s mon : 1ca , awaddr : 624206a9
# INIDE_SLAVE_MON_CTR=99
# arid in s mon : 46713
#                 1005wlast : 0
# WID: 48924 , AWID : 48924
# m mon rid : eb2b
# m mon ar id : b679
# rd data in s drv: e2a6903e , len : 64 , last:0 , valid : 1
# INIDE_SLAVE_MON_CTR=100
# arid in s mon : 44059
# burst in s mon : 1
# awid in s mon : 85b , awaddr : bf0f3088
#                 1015wlast : 0
# WID: 48924 , AWID : 48924
# m mon ar id : ac1b
# m mon rid : eb2b
# rd data in s drv: 4c6eda17 , len : 64 , last:0 , valid : 1
# burst in s mon : 1
# awid in s mon : b9ac , awaddr : 584aa9bc
# INIDE_SLAVE_MON_CTR=101
# arid in s mon : 55528
#                 1025wlast : 0
# WID: 48924 , AWID : 48924
# m mon rid : eb2b
# m mon ar id : d8e8
# rd data in s drv: 17ae72b5 , len : 64 , last:0 , valid : 1
# INIDE_SLAVE_MON_CTR=102
# arid in s mon : 4360
# burst in s mon : 1
# awid in s mon : 3ed6 , awaddr : f9190d79
#                 1035wlast : 0
# WID: 48924 , AWID : 48924
# m mon ar id : 1108
# m mon rid : eb2b
# rd data in s drv: 72423ef6 , len : 64 , last:0 , valid : 1
# burst in s mon : 1
# awid in s mon : beb5 , awaddr : a5672a54
# INIDE_SLAVE_MON_CTR=103
# arid in s mon : 3534
#                 1045wlast : 0
# WID: 48924 , AWID : 48924
# m mon rid : eb2b
# m mon ar id : dce
# rd data in s drv: a7683d63 , len : 64 , last:0 , valid : 1
# INIDE_SLAVE_MON_CTR=104
# arid in s mon : 47514
# burst in s mon : 1
# awid in s mon : aaa1 , awaddr : 3c609a4
#                 1055wlast : 0
# WID: 48924 , AWID : 48924
# m mon ar id : b99a
# m mon rid : eb2b
# rd data in s drv: 5e775e75 , len : 64 , last:0 , valid : 1
# burst in s mon : 1
# awid in s mon : ce39 , awaddr : bcd685da
# INIDE_SLAVE_MON_CTR=105
# arid in s mon : 33182
#                 1065wlast : 0
# WID: 48924 , AWID : 48924
# m mon rid : eb2b
# m mon ar id : 819e
# rd data in s drv: 8a2632a1 , len : 64 , last:0 , valid : 1
# INIDE_SLAVE_MON_CTR=106
# arid in s mon : 56834
# burst in s mon : 1
# awid in s mon : e5fb , awaddr : 33f054d6
#                 1075wlast : 0
# WID: 48924 , AWID : 48924
# m mon ar id : de02
# m mon rid : eb2b
# rd data in s drv: 8b0568ca , len : 64 , last:0 , valid : 1
# burst in s mon : 1
# awid in s mon : 2e72 , awaddr : 6fd9d8b7
# INIDE_SLAVE_MON_CTR=107
# arid in s mon : 60674
#                 1085wlast : 0
# WID: 48924 , AWID : 48924
# m mon rid : eb2b
# m mon ar id : ed02
# rd data in s drv: 306ebe98 , len : 64 , last:0 , valid : 1
# INIDE_SLAVE_MON_CTR=108
# arid in s mon : 25794
# burst in s mon : 1
# awid in s mon : 5b4a , awaddr : c4f6daa3
#                 1095wlast : 0
# WID: 48924 , AWID : 48924
# m mon ar id : 64c2
# m mon rid : eb2b
# rd data in s drv: 780247cc , len : 64 , last:0 , valid : 1
# burst in s mon : 1
# awid in s mon : cd59 , awaddr : e85dbe73
# INIDE_SLAVE_MON_CTR=109
# arid in s mon : 24115
#                 1105wlast : 0
# WID: 48924 , AWID : 48924
# m mon rid : eb2b
# m mon ar id : 5e33
# rd data in s drv: 2ec8852e , len : 64 , last:0 , valid : 1
# INIDE_SLAVE_MON_CTR=110
# arid in s mon : 52571
# burst in s mon : 1
# awid in s mon : 2a73 , awaddr : 87db2d64
#                 1115wlast : 0
# WID: 48924 , AWID : 48924
# m mon ar id : cd5b
# m mon rid : eb2b
# rd data in s drv: d3202f19 , len : 64 , last:0 , valid : 1
# burst in s mon : 1
# awid in s mon : 9ce1 , awaddr : 75379691
# INIDE_SLAVE_MON_CTR=111
# arid in s mon : 47495
#                 1125wlast : 0
# WID: 48924 , AWID : 48924
# m mon rid : eb2b
# m mon ar id : b987
# rd data in s drv: 6e46a4bb , len : 64 , last:0 , valid : 1
# INIDE_SLAVE_MON_CTR=112
# arid in s mon : 11830
# burst in s mon : 1
# awid in s mon : 4b43 , awaddr : af9344e0
#                 1135wlast : 0
# WID: 48924 , AWID : 48924
# m mon ar id : 2e36
# m mon rid : eb2b
# rd data in s drv: d62fea62 , len : 64 , last:0 , valid : 1
# burst in s mon : 1
# awid in s mon : 815b , awaddr : cc92883b
# INIDE_SLAVE_MON_CTR=113
# arid in s mon : 55098
#                 1145wlast : 0
# WID: 48924 , AWID : 48924
# m mon rid : eb2b
# m mon ar id : d73a
# rd data in s drv: 4ca22cc8 , len : 64 , last:0 , valid : 1
# INIDE_SLAVE_MON_CTR=114
# arid in s mon : 39152
# burst in s mon : 1
# awid in s mon : 2e86 , awaddr : 32c0c956
#                 1155wlast : 0
# WID: 48924 , AWID : 48924
# m mon ar id : 98f0
# m mon rid : eb2b
# rd data in s drv: 9a798827 , len : 64 , last:0 , valid : 1
# burst in s mon : 1
# awid in s mon : f4d5 , awaddr : 2a222b93
# INIDE_SLAVE_MON_CTR=115
# arid in s mon : 15358
#                 1165wlast : 0
# WID: 48924 , AWID : 48924
# m mon rid : eb2b
# m mon ar id : 3bfe
# rd data in s drv: e48eb7c9 , len : 64 , last:0 , valid : 1
# INIDE_SLAVE_MON_CTR=116
# arid in s mon : 17798
# burst in s mon : 1
# awid in s mon : 18be , awaddr : bc932eb6
#                 1175wlast : 0
# WID: 48924 , AWID : 48924
# m mon ar id : 4586
# m mon rid : eb2b
# rd data in s drv: 9698b3ba , len : 64 , last:0 , valid : 1
# burst in s mon : 1
# awid in s mon : e352 , awaddr : c5f6496
# INIDE_SLAVE_MON_CTR=117
# arid in s mon : 46781
#                 1185wlast : 0
# WID: 48924 , AWID : 48924
# m mon rid : eb2b
# m mon ar id : b6bd
# rd data in s drv: 95c69d3a , len : 64 , last:0 , valid : 1
# INIDE_SLAVE_MON_CTR=118
# arid in s mon : 1174
# burst in s mon : 1
# awid in s mon : 8542 , awaddr : e70196b
#                 1195wlast : 0
# WID: 48924 , AWID : 48924
# m mon ar id : 496
# m mon rid : eb2b
# rd data in s drv: ab357a0d , len : 64 , last:0 , valid : 1
# burst in s mon : 1
# awid in s mon : d529 , awaddr : 2580de02
# INIDE_SLAVE_MON_CTR=119
# arid in s mon : 62302
#                 1205wlast : 0
# WID: 48924 , AWID : 48924
# m mon rid : eb2b
# m mon ar id : f35e
# rd data in s drv: 45fb3108 , len : 64 , last:0 , valid : 1
# INIDE_SLAVE_MON_CTR=120
# arid in s mon : 28103
# burst in s mon : 1
# awid in s mon : aeb0 , awaddr : 420db6cc
#                 1215wlast : 0
# WID: 48924 , AWID : 48924
# m mon ar id : 6dc7
# m mon rid : eb2b
# rd data in s drv: f8edb6cd , len : 64 , last:0 , valid : 1
# burst in s mon : 1
# awid in s mon : cc23 , awaddr : ce2c621e
# INIDE_SLAVE_MON_CTR=121
# arid in s mon : 28778
#                 1225wlast : 0
# WID: 48924 , AWID : 48924
# m mon rid : eb2b
# m mon ar id : 706a
# rd data in s drv: 48390880 , len : 64 , last:0 , valid : 1
# INIDE_SLAVE_MON_CTR=122
# arid in s mon : 63653
# burst in s mon : 1
# awid in s mon : 796e , awaddr : 775d5562
#                 1235wlast : 0
# WID: 48924 , AWID : 48924
# m mon ar id : f8a5
# m mon rid : eb2b
# rd data in s drv: 2d32d58e , len : 64 , last:0 , valid : 1
# burst in s mon : 1
# awid in s mon : efba , awaddr : 657d2816
# INIDE_SLAVE_MON_CTR=123
# arid in s mon : 34193
#                 1245wlast : 0
# WID: 48924 , AWID : 48924
# m mon rid : eb2b
# m mon ar id : 8591
# rd data in s drv: a101506e , len : 64 , last:0 , valid : 1
# INIDE_SLAVE_MON_CTR=124
# arid in s mon : 63464
# burst in s mon : 1
# awid in s mon : 8e2e , awaddr : b2e00c9c
#                 1255wlast : 0
# WID: 48924 , AWID : 48924
# m mon ar id : f7e8
# m mon rid : eb2b
# rd data in s drv: a1e5009f , len : 64 , last:0 , valid : 1
# burst in s mon : 1
# awid in s mon : 21d4 , awaddr : ca2f809a
# INIDE_SLAVE_MON_CTR=125
# arid in s mon : 54192
#                 1265wlast : 0
# WID: 48924 , AWID : 48924
# m mon rid : eb2b
# m mon ar id : d3b0
# rd data in s drv: 9dce2577 , len : 64 , last:0 , valid : 1
# INIDE_SLAVE_MON_CTR=126
# arid in s mon : 46732
# burst in s mon : 1
# awid in s mon : a9c0 , awaddr : 6e2a89dc
#                 1275wlast : 0
# WID: 48924 , AWID : 48924
# m mon ar id : b68c
# m mon rid : eb2b
# rd data in s drv: a5695df0 , len : 64 , last:0 , valid : 1
# burst in s mon : 1
# awid in s mon : 43ad , awaddr : 20ab6a08
# INIDE_SLAVE_MON_CTR=127
# arid in s mon : 57462
#                 1285wlast : 0
# WID: 48924 , AWID : 48924
# m mon rid : eb2b
# m mon ar id : e076
# rd data in s drv: 5468ed03 , len : 64 , last:0 , valid : 1
# INIDE_SLAVE_MON_CTR=128
# arid in s mon : 20430
# burst in s mon : 1
# awid in s mon : 3cf8 , awaddr : bbc9ce66
#                 1295wlast : 0
# WID: 48924 , AWID : 48924
# m mon ar id : 4fce
# m mon rid : eb2b
# rd data in s drv: 7dc8f3b6 , len : 64 , last:0 , valid : 1
# burst in s mon : 1
# awid in s mon : 60dd , awaddr : 2ae0cd8c
# INIDE_SLAVE_MON_CTR=129
# arid in s mon : 17071
#                 1305wlast : 0
# WID: 48924 , AWID : 48924
# m mon rid : eb2b
# m mon ar id : 42af
# rd data in s drv: f2b21046 , len : 64 , last:0 , valid : 1
# INIDE_SLAVE_MON_CTR=130
# arid in s mon : 29688
# burst in s mon : 1
# awid in s mon : 82e5 , awaddr : c3ce3176
#                 1315wlast : 0
# WID: 48924 , AWID : 48924
# m mon ar id : 73f8
# m mon rid : eb2b
# rd data in s drv: 2e1d7a2d , len : 64 , last:0 , valid : 1
# burst in s mon : 1
# awid in s mon : e3b4 , awaddr : 3fdf9adb
# INIDE_SLAVE_MON_CTR=131
# arid in s mon : 30346
#                 1325wlast : 0
# WID: 48924 , AWID : 48924
# m mon rid : eb2b
# m mon ar id : 768a
# rd data in s drv: 3671919c , len : 64 , last:0 , valid : 1
# INIDE_SLAVE_MON_CTR=132
# arid in s mon : 7522
# burst in s mon : 1
# awid in s mon : aaa7 , awaddr : f7050652
#                 1335wlast : 0
# WID: 48924 , AWID : 48924
# m mon ar id : 1d62
# m mon rid : eb2b
# rd data in s drv: d607f9f8 , len : 64 , last:0 , valid : 1
# burst in s mon : 1
# awid in s mon : 4759 , awaddr : a574aff3
# INIDE_SLAVE_MON_CTR=133
# arid in s mon : 65159
#                 1345wlast : 0
# WID: 48924 , AWID : 48924
# m mon rid : eb2b
# m mon ar id : fe87
# rd data in s drv: f8a42ef9 , len : 64 , last:0 , valid : 1
# INIDE_SLAVE_MON_CTR=134
# arid in s mon : 16437
# burst in s mon : 1
# awid in s mon : 6954 , awaddr : cdd959f4
#                 1355wlast : 0
# WID: 48924 , AWID : 48924
# m mon ar id : 4035
# m mon rid : eb2b
# rd data in s drv: 10537db8 , len : 64 , last:0 , valid : 1
# burst in s mon : 1
# awid in s mon : a3c6 , awaddr : 99281896
# INIDE_SLAVE_MON_CTR=135
# arid in s mon : 32796
#                 1365wlast : 0
# WID: 48924 , AWID : 48924
# m mon rid : eb2b
# m mon ar id : 801c
# rd data in s drv: 8324c31c , len : 64 , last:0 , valid : 1
# INIDE_SLAVE_MON_CTR=136
# arid in s mon : 55432
# burst in s mon : 1
# awid in s mon : 85f3 , awaddr : 2ccf871f
#                 1375wlast : 0
# WID: 48924 , AWID : 48924
# m mon ar id : d888
# m mon rid : eb2b
# rd data in s drv: 761131a , len : 64 , last:0 , valid : 1
# burst in s mon : 1
# awid in s mon : d3 , awaddr : afec1502
# INIDE_SLAVE_MON_CTR=137
# arid in s mon : 58882
#                 1385wlast : 0
# WID: 48924 , AWID : 48924
# m mon rid : eb2b
# m mon ar id : e602
# rd data in s drv: d0872f96 , len : 64 , last:0 , valid : 1
# INIDE_SLAVE_MON_CTR=138
# arid in s mon : 64073
# burst in s mon : 1
# awid in s mon : e546 , awaddr : 1960c059
#                 1395wlast : 0
# WID: 48924 , AWID : 48924
# m mon ar id : fa49
# m mon rid : eb2b
# rd data in s drv: 4e7e289c , len : 64 , last:0 , valid : 1
# burst in s mon : 1
# awid in s mon : fa30 , awaddr : 4c17b0fa
# INIDE_SLAVE_MON_CTR=139
# arid in s mon : 8739
#                 1405wlast : 0
# WID: 48924 , AWID : 48924
# m mon rid : eb2b
# m mon ar id : 2223
# rd data in s drv: 9fd756d5 , len : 64 , last:1 , valid : 1
# INIDE_SLAVE_MON_CTR=140
# arid in s mon : 15170
# burst in s mon : 1
# awid in s mon : 9e42 , awaddr : 4c803502
#                 1415wlast : 0
# WID: 48924 , AWID : 48924
# m mon ar id : 3b42
# req kind : READ
# m mon rid : eb2b
# UVM_INFO ../env/axi_sb.sv(67) @ 1415: uvm_test_top.env_h.sb_h [after event in sb] aaaa
# UVM_INFO ../env/axi_sb.sv(65) @ 1415: uvm_test_top.env_h.sb_h [before event in sb] aaaa
# burst in s mon : 1
# awid in s mon : 234 , awaddr : d2ca9201
# INIDE_SLAVE_MON_CTR=141
# arid in s mon : 60475
#                 1425wlast : 0
# WID: 48924 , AWID : 48924
# m mon ar id : ec3b
# INIDE_SLAVE_MON_CTR=142
# arid in s mon : 6931
# burst in s mon : 1
# awid in s mon : 84ca , awaddr : 4722b66
#                 1435wlast : 0
# WID: 48924 , AWID : 48924
# m mon ar id : 1b13
# burst in s mon : 1
# awid in s mon : 148c , awaddr : 541fa03d
# INIDE_SLAVE_MON_CTR=143
# arid in s mon : 15421
#                 1445wlast : 0
# WID: 48924 , AWID : 48924
# m mon ar id : 3c3d
# INIDE_SLAVE_MON_CTR=144
# arid in s mon : 15811
# burst in s mon : 1
# awid in s mon : ac54 , awaddr : b2ac05c5
#                 1455wlast : 0
# WID: 48924 , AWID : 48924
# m mon ar id : 3dc3
# burst in s mon : 1
# awid in s mon : 652c , awaddr : 31a1936b
# INIDE_SLAVE_MON_CTR=145
# arid in s mon : 20031
#                 1465wlast : 0
# WID: 48924 , AWID : 48924
# m mon ar id : 4e3f
# INIDE_SLAVE_MON_CTR=146
# arid in s mon : 34178
# burst in s mon : 1
# awid in s mon : 2ddb , awaddr : 9bf77958
#                 1475wlast : 0
# WID: 48924 , AWID : 48924
# m mon ar id : 8582
# burst in s mon : 1
# awid in s mon : 2617 , awaddr : da2e2ffb
# INIDE_SLAVE_MON_CTR=147
# arid in s mon : 45900
#                 1485wlast : 0
# WID: 48924 , AWID : 48924
# m mon ar id : b34c
# INIDE_SLAVE_MON_CTR=148
# arid in s mon : 17925
# burst in s mon : 1
# awid in s mon : f18f , awaddr : 64008b61
#                 1495wlast : 0
# WID: 48924 , AWID : 48924
# m mon ar id : 4605
# burst in s mon : 1
# awid in s mon : 3bdf , awaddr : 5b10f3fb
# INIDE_SLAVE_MON_CTR=149
# arid in s mon : 21982
#                 1505wlast : 0
# WID: 48924 , AWID : 48924
# m mon ar id : 55de
# INIDE_SLAVE_MON_CTR=150
# arid in s mon : 29157
# burst in s mon : 1
# awid in s mon : e6b , awaddr : b8891c84
#                 1515wlast : 0
# WID: 48924 , AWID : 48924
# m mon ar id : 71e5
# burst in s mon : 1
# awid in s mon : 578d , awaddr : 8b6bd8ba
# INIDE_SLAVE_MON_CTR=151
# arid in s mon : 5093
#                 1525wlast : 0
# WID: 48924 , AWID : 48924
# m mon ar id : 13e5
# INIDE_SLAVE_MON_CTR=152
# arid in s mon : 36034
# burst in s mon : 1
# awid in s mon : 58dd , awaddr : b169004a
#                 1535wlast : 0
# WID: 48924 , AWID : 48924
# m mon ar id : 8cc2
# burst in s mon : 1
# awid in s mon : 2788 , awaddr : 7f63de04
# INIDE_SLAVE_MON_CTR=153
# arid in s mon : 1610
#                 1545wlast : 0
# WID: 48924 , AWID : 48924
# m mon ar id : 64a
# INIDE_SLAVE_MON_CTR=154
# arid in s mon : 11145
# burst in s mon : 1
# awid in s mon : 6e20 , awaddr : 12988572
#                 1555wlast : 0
# WID: 48924 , AWID : 48924
# m mon ar id : 2b89
# burst in s mon : 1
# awid in s mon : 7b62 , awaddr : a3af1c2c
# INIDE_SLAVE_MON_CTR=155
# arid in s mon : 32294
#                 1565wlast : 0
# WID: 48924 , AWID : 48924
# m mon ar id : 7e26
# INIDE_SLAVE_MON_CTR=156
# arid in s mon : 50556
# burst in s mon : 1
# awid in s mon : 1164 , awaddr : aa2804
#                 1575wlast : 0
# WID: 48924 , AWID : 48924
# m mon ar id : c57c
# burst in s mon : 1
# awid in s mon : 62c1 , awaddr : 123caa5f
# INIDE_SLAVE_MON_CTR=157
# arid in s mon : 60703
#                 1585wlast : 0
# WID: 48924 , AWID : 48924
# m mon ar id : ed1f
# INIDE_SLAVE_MON_CTR=158
# arid in s mon : 44266
# burst in s mon : 1
# awid in s mon : 5dc4 , awaddr : b7d6dbe6
#                 1595wlast : 0
# WID: 48924 , AWID : 48924
# m mon ar id : acea
# burst in s mon : 1
# awid in s mon : 8ff7 , awaddr : 8c3724f
# INIDE_SLAVE_MON_CTR=159
# arid in s mon : 1704
#                 1605wlast : 0
# WID: 48924 , AWID : 48924
# m mon ar id : 6a8
# INIDE_SLAVE_MON_CTR=160
# arid in s mon : 10197
# burst in s mon : 1
# awid in s mon : a825 , awaddr : 547ad5b4
#                 1615wlast : 0
# WID: 48924 , AWID : 48924
# m mon ar id : 27d5
# burst in s mon : 1
# awid in s mon : 5101 , awaddr : cd7a18c4
# INIDE_SLAVE_MON_CTR=161
# arid in s mon : 3642
#                 1625wlast : 0
# WID: 48924 , AWID : 48924
# m mon ar id : e3a
# INIDE_SLAVE_MON_CTR=162
# arid in s mon : 35057
# burst in s mon : 1
# awid in s mon : 5a2 , awaddr : 152dd7ee
#                 1635wlast : 0
# WID: 48924 , AWID : 48924
# m mon ar id : 88f1
# burst in s mon : 1
# awid in s mon : 9f65 , awaddr : a16770df
# INIDE_SLAVE_MON_CTR=163
# arid in s mon : 60036
#                 1645wlast : 0
# WID: 48924 , AWID : 48924
# m mon ar id : ea84
# INIDE_SLAVE_MON_CTR=164
# arid in s mon : 58209
# burst in s mon : 1
# awid in s mon : fa88 , awaddr : bc8667d2
#                 1655wlast : 0
# WID: 48924 , AWID : 48924
# m mon ar id : e361
# burst in s mon : 1
# awid in s mon : 2dd0 , awaddr : f54ef2f5
# INIDE_SLAVE_MON_CTR=165
# arid in s mon : 61637
#                 1665wlast : 0
# WID: 48924 , AWID : 48924
# m mon ar id : f0c5
# INIDE_SLAVE_MON_CTR=166
# arid in s mon : 65240
# burst in s mon : 1
# awid in s mon : 8757 , awaddr : 7412a67e
#                 1675wlast : 0
# WID: 48924 , AWID : 48924
# m mon ar id : fed8
# burst in s mon : 1
# awid in s mon : 5f0a , awaddr : aef70723
# INIDE_SLAVE_MON_CTR=167
# arid in s mon : 9525
#                 1685wlast : 0
# WID: 48924 , AWID : 48924
# m mon ar id : 2535
# INIDE_SLAVE_MON_CTR=168
# arid in s mon : 62464
# burst in s mon : 1
# awid in s mon : 603f , awaddr : 1f8a722b
#                 1695wlast : 0
# WID: 48924 , AWID : 48924
# m mon ar id : f400
# burst in s mon : 1
# awid in s mon : b991 , awaddr : 3470c8cb
# INIDE_SLAVE_MON_CTR=169
# arid in s mon : 52680
#                 1705wlast : 0
# WID: 48924 , AWID : 48924
# m mon ar id : cdc8
# INIDE_SLAVE_MON_CTR=170
# arid in s mon : 60644
# burst in s mon : 1
# awid in s mon : 1927 , awaddr : 8a781b64
#                 1715wlast : 0
# WID: 48924 , AWID : 48924
# m mon ar id : ece4
# burst in s mon : 1
# awid in s mon : cafb , awaddr : 746cdd28
# INIDE_SLAVE_MON_CTR=171
# arid in s mon : 13903
#                 1725wlast : 0
# WID: 48924 , AWID : 48924
# m mon ar id : 364f
# INIDE_SLAVE_MON_CTR=172
# arid in s mon : 25671
# burst in s mon : 1
# awid in s mon : c939 , awaddr : fd48f7bb
#                 1735wlast : 0
# WID: 48924 , AWID : 48924
# m mon ar id : 6447
# burst in s mon : 1
# awid in s mon : 76c8 , awaddr : a6403a3f
# INIDE_SLAVE_MON_CTR=173
# arid in s mon : 14884
#                 1745wlast : 0
# WID: 48924 , AWID : 48924
# m mon ar id : 3a24
# INIDE_SLAVE_MON_CTR=174
# arid in s mon : 51883
# burst in s mon : 1
# awid in s mon : 5abc , awaddr : 913511b
#                 1755wlast : 0
# WID: 48924 , AWID : 48924
# m mon ar id : caab
# burst in s mon : 1
# awid in s mon : d467 , awaddr : 27768be5
# INIDE_SLAVE_MON_CTR=175
# arid in s mon : 46661
#                 1765wlast : 0
# WID: 48924 , AWID : 48924
# m mon ar id : b645
# INIDE_SLAVE_MON_CTR=176
# arid in s mon : 21501
# burst in s mon : 1
# awid in s mon : 657d , awaddr : d27c9105
#                 1775wlast : 0
# WID: 48924 , AWID : 48924
# m mon ar id : 53fd
# burst in s mon : 1
# awid in s mon : aa12 , awaddr : b46c96c2
# INIDE_SLAVE_MON_CTR=177
# arid in s mon : 20855
#                 1785wlast : 0
# WID: 48924 , AWID : 48924
# m mon ar id : 5177
# INIDE_SLAVE_MON_CTR=178
# arid in s mon : 28499
# burst in s mon : 1
# awid in s mon : 38cb , awaddr : 576a2a83
#                 1795wlast : 0
# WID: 48924 , AWID : 48924
# m mon ar id : 6f53
# burst in s mon : 1
# awid in s mon : 2e19 , awaddr : ad0c6a21
# INIDE_SLAVE_MON_CTR=179
# arid in s mon : 37609
#                 1805wlast : 0
# WID: 48924 , AWID : 48924
# m mon ar id : 92e9
# INIDE_SLAVE_MON_CTR=180
# arid in s mon : 28467
# burst in s mon : 1
# awid in s mon : dc8d , awaddr : c00848dd
#                 1815wlast : 0
# WID: 48924 , AWID : 48924
# m mon ar id : 6f33
# burst in s mon : 1
# awid in s mon : 3bed , awaddr : 92eb567d
# INIDE_SLAVE_MON_CTR=181
# arid in s mon : 49327
#                 1825wlast : 0
# WID: 48924 , AWID : 48924
# m mon ar id : c0af
# INIDE_SLAVE_MON_CTR=182
# arid in s mon : 51207
# burst in s mon : 1
# awid in s mon : 2054 , awaddr : 95b09ad
#                 1835wlast : 0
# WID: 48924 , AWID : 48924
# m mon ar id : c807
# burst in s mon : 1
# awid in s mon : 17bc , awaddr : 1ca6ce77
# INIDE_SLAVE_MON_CTR=183
# arid in s mon : 11207
#                 1845wlast : 0
# WID: 48924 , AWID : 48924
# m mon ar id : 2bc7
# INIDE_SLAVE_MON_CTR=184
# arid in s mon : 51737
# burst in s mon : 1
# awid in s mon : 518 , awaddr : c149b1cc
#                 1855wlast : 0
# WID: 48924 , AWID : 48924
# m mon ar id : ca19
# burst in s mon : 1
# awid in s mon : 53ce , awaddr : 839d15c3
# INIDE_SLAVE_MON_CTR=185
# arid in s mon : 7600
#                 1865wlast : 0
# WID: 48924 , AWID : 48924
# m mon ar id : 1db0
# INIDE_SLAVE_MON_CTR=186
# arid in s mon : 54846
# burst in s mon : 1
# awid in s mon : 9938 , awaddr : 578c0b2d
#                 1875wlast : 0
# WID: 48924 , AWID : 48924
# m mon ar id : d63e
# burst in s mon : 1
# awid in s mon : 62a0 , awaddr : 1c553c48
# INIDE_SLAVE_MON_CTR=187
# arid in s mon : 32760
#                 1885wlast : 0
# WID: 48924 , AWID : 48924
# m mon ar id : 7ff8
# INIDE_SLAVE_MON_CTR=188
# arid in s mon : 65405
# burst in s mon : 1
# awid in s mon : 71c6 , awaddr : 9deb480b
#                 1895wlast : 0
# WID: 48924 , AWID : 48924
# m mon ar id : ff7d
# burst in s mon : 1
# awid in s mon : d9f0 , awaddr : 3202d7c7
# INIDE_SLAVE_MON_CTR=189
# arid in s mon : 15695
#                 1905wlast : 0
# WID: 48924 , AWID : 48924
# m mon ar id : 3d4f
# INIDE_SLAVE_MON_CTR=190
# arid in s mon : 27562
# burst in s mon : 1
# awid in s mon : 325d , awaddr : fe2f8597
#                 1915wlast : 0
# WID: 48924 , AWID : 48924
# m mon ar id : 6baa
# burst in s mon : 1
# awid in s mon : 1d73 , awaddr : c085f644
# INIDE_SLAVE_MON_CTR=191
# arid in s mon : 26224
#                 1925wlast : 0
# WID: 48924 , AWID : 48924
# m mon ar id : 6670
# INIDE_SLAVE_MON_CTR=192
# arid in s mon : 50000
# burst in s mon : 1
# awid in s mon : 6550 , awaddr : bfe54c76
#                 1935wlast : 0
# WID: 48924 , AWID : 48924
# m mon ar id : c350
# burst in s mon : 1
# awid in s mon : 37d4 , awaddr : bbbc3ed4
# INIDE_SLAVE_MON_CTR=193
# arid in s mon : 37771
#                 1945wlast : 0
# WID: 48924 , AWID : 48924
# m mon ar id : 938b
# INIDE_SLAVE_MON_CTR=194
# arid in s mon : 1822
# burst in s mon : 1
# awid in s mon : 8750 , awaddr : d1736ba5
#                 1955wlast : 0
# WID: 48924 , AWID : 48924
# m mon ar id : 71e
# burst in s mon : 1
# awid in s mon : 3442 , awaddr : 714b4320
# INIDE_SLAVE_MON_CTR=195
# arid in s mon : 52601
#                 1965wlast : 0
# WID: 48924 , AWID : 48924
# m mon ar id : cd79
# INIDE_SLAVE_MON_CTR=196
# arid in s mon : 40468
# burst in s mon : 1
# awid in s mon : 822a , awaddr : 13a8f5bb
#                 1975wlast : 0
# WID: 48924 , AWID : 48924
# m mon ar id : 9e14
# burst in s mon : 1
# awid in s mon : f514 , awaddr : 8683cdef
# INIDE_SLAVE_MON_CTR=197
# arid in s mon : 42402
#                 1985wlast : 0
# WID: 48924 , AWID : 48924
# m mon ar id : a5a2
# INIDE_SLAVE_MON_CTR=198
# arid in s mon : 6233
# burst in s mon : 1
# awid in s mon : f6ef , awaddr : a8af1905
#                 1995wlast : 0
# WID: 48924 , AWID : 48924
# m mon ar id : 1859
# burst in s mon : 1
# awid in s mon : 328 , awaddr : f4f567de
# INIDE_SLAVE_MON_CTR=199
# arid in s mon : 23525
#                 2005wlast : 0
# WID: 48924 , AWID : 48924
# m mon ar id : 5be5
# INIDE_SLAVE_MON_CTR=200
# arid in s mon : 48882
#                 2015wlast : 0
# WID: 48924 , AWID : 48924
# m mon ar id : bef2
#                 2025wlast : 0
# WID: 48924 , AWID : 48924
#                 2035wlast : 0
# WID: 48924 , AWID : 48924
#                 2045wlast : 0
# WID: 48924 , AWID : 48924
#                 2055wlast : 0
# WID: 48924 , AWID : 48924
#                 2065wlast : 0
# WID: 48924 , AWID : 48924
#                 2075wlast : 0
# WID: 48924 , AWID : 48924
#                 2085wlast : 0
# WID: 48924 , AWID : 48924
#                 2095wlast : 0
# WID: 48924 , AWID : 48924
#                 2105wlast : 0
# WID: 48924 , AWID : 48924
#                 2115wlast : 0
# WID: 48924 , AWID : 48924
#                 2125wlast : 0
# WID: 48924 , AWID : 48924
#                 2135wlast : 0
# WID: 48924 , AWID : 48924
#                 2145wlast : 0
# WID: 48924 , AWID : 48924
#                 2155wlast : 0
# WID: 48924 , AWID : 48924
#                 2165wlast : 0
# WID: 48924 , AWID : 48924
#                 2175wlast : 0
# WID: 48924 , AWID : 48924
#                 2185wlast : 0
# WID: 48924 , AWID : 48924
#                 2195wlast : 0
# WID: 48924 , AWID : 48924
#                 2205wlast : 0
# WID: 48924 , AWID : 48924
#                 2215wlast : 0
# WID: 48924 , AWID : 48924
#                 2225wlast : 0
# WID: 48924 , AWID : 48924
#                 2235wlast : 0
# WID: 48924 , AWID : 48924
#                 2245wlast : 0
# WID: 48924 , AWID : 48924
#                 2255wlast : 0
# WID: 48924 , AWID : 48924
#                 2265wlast : 0
# WID: 48924 , AWID : 48924
#                 2275wlast : 0
# WID: 48924 , AWID : 48924
#                 2285wlast : 0
# WID: 48924 , AWID : 48924
#                 2295wlast : 0
# WID: 48924 , AWID : 48924
#                 2305wlast : 0
# WID: 48924 , AWID : 48924
#                 2315wlast : 0
# WID: 48924 , AWID : 48924
#                 2325wlast : 0
# WID: 48924 , AWID : 48924
#                 2335wlast : 0
# WID: 48924 , AWID : 48924
#                 2345wlast : 0
# WID: 48924 , AWID : 48924
#                 2355wlast : 0
# WID: 48924 , AWID : 48924
#                 2365wlast : 0
# WID: 48924 , AWID : 48924
#                 2375wlast : 0
# WID: 48924 , AWID : 48924
#                 2385wlast : 0
# WID: 48924 , AWID : 48924
#                 2395wlast : 0
# WID: 48924 , AWID : 48924
#                 2405wlast : 0
# WID: 48924 , AWID : 48924
#                 2415wlast : 0
# WID: 48924 , AWID : 48924
#                 2425wlast : 0
# WID: 48924 , AWID : 48924
#                 2435wlast : 0
# WID: 48924 , AWID : 48924
#                 2445wlast : 0
# WID: 48924 , AWID : 48924
#                 2455wlast : 0
# WID: 48924 , AWID : 48924
#                 2465wlast : 0
# WID: 48924 , AWID : 48924
#                 2475wlast : 0
# WID: 48924 , AWID : 48924
#                 2485wlast : 0
# WID: 48924 , AWID : 48924
#                 2495wlast : 0
# WID: 48924 , AWID : 48924
#                 2505wlast : 0
# WID: 48924 , AWID : 48924
#                 2515wlast : 0
# WID: 48924 , AWID : 48924
#                 2525wlast : 0
# WID: 48924 , AWID : 48924
#                 2535wlast : 0
# WID: 48924 , AWID : 48924
#                 2545wlast : 0
# WID: 48924 , AWID : 48924
#                 2555wlast : 0
# WID: 48924 , AWID : 48924
#                 2565wlast : 0
# WID: 48924 , AWID : 48924
#                 2575wlast : 0
# WID: 48924 , AWID : 48924
#                 2585wlast : 0
# WID: 48924 , AWID : 48924
#                 2595wlast : 0
# WID: 48924 , AWID : 48924
#                 2605wlast : 0
# WID: 48924 , AWID : 48924
#                 2615wlast : 0
# WID: 48924 , AWID : 48924
#                 2625wlast : 0
# WID: 48924 , AWID : 48924
#                 2635wlast : 0
# WID: 48924 , AWID : 48924
#                 2645wlast : 0
# WID: 48924 , AWID : 48924
#                 2655wlast : 0
# WID: 48924 , AWID : 48924
#                 2665wlast : 0
# WID: 48924 , AWID : 48924
#                 2675wlast : 0
# WID: 48924 , AWID : 48924
#                 2685wlast : 0
# WID: 48924 , AWID : 48924
#                 2695wlast : 0
# WID: 48924 , AWID : 48924
#                 2705wlast : 0
# WID: 48924 , AWID : 48924
#                 2715wlast : 0
# WID: 48924 , AWID : 48924
#                 2725wlast : 0
# WID: 48924 , AWID : 48924
#                 2735wlast : 0
# WID: 48924 , AWID : 48924
#                 2745wlast : 0
# WID: 48924 , AWID : 48924
#                 2755wlast : 0
# WID: 48924 , AWID : 48924
#                 2765wlast : 0
# WID: 48924 , AWID : 48924
#                 2775wlast : 0
# WID: 48924 , AWID : 48924
#                 2785wlast : 0
# WID: 48924 , AWID : 48924
#                 2795wlast : 0
# WID: 48924 , AWID : 48924
#                 2805wlast : 0
# WID: 48924 , AWID : 48924
#                 2815wlast : 0
# WID: 48924 , AWID : 48924
#                 2825wlast : 0
# WID: 48924 , AWID : 48924
#                 2835wlast : 0
# WID: 48924 , AWID : 48924
#                 2845wlast : 0
# WID: 48924 , AWID : 48924
#                 2855wlast : 0
# WID: 48924 , AWID : 48924
#                 2865wlast : 0
# WID: 48924 , AWID : 48924
#                 2875wlast : 0
# WID: 48924 , AWID : 48924
#                 2885wlast : 0
# WID: 48924 , AWID : 48924
#                 2895wlast : 0
# WID: 48924 , AWID : 48924
#                 2905wlast : 0
# WID: 48924 , AWID : 48924
#                 2915wlast : 0
# WID: 48924 , AWID : 48924
#                 2925wlast : 0
# WID: 48924 , AWID : 48924
#                 2935wlast : 0
# WID: 48924 , AWID : 48924
#                 2945wlast : 0
# WID: 48924 , AWID : 48924
#                 2955wlast : 0
# WID: 48924 , AWID : 48924
#                 2965wlast : 0
# WID: 48924 , AWID : 48924
#                 2975wlast : 0
# WID: 48924 , AWID : 48924
#                 2985wlast : 0
# WID: 48924 , AWID : 48924
#                 2995wlast : 0
# WID: 48924 , AWID : 48924
#                 3005wlast : 0
# WID: 48924 , AWID : 48924
#                 3015wlast : 0
# WID: 48924 , AWID : 48924
#                 3025wlast : 0
# WID: 48924 , AWID : 48924
#                 3035wlast : 0
# WID: 48924 , AWID : 48924
#                 3045wlast : 0
# WID: 48924 , AWID : 48924
# abc : 1
# ref model mem : 2626325164
# abc : 2
# ref model mem : 2626325168
# abc : 3
# ref model mem : 2626325172
# abc : 4
# ref model mem : 2626325176
# abc : 5
# ref model mem : 2626325180
# abc : 6
# ref model mem : 2626325184
# abc : 7
# ref model mem : 2626325188
# abc : 8
# ref model mem : 2626325192
# abc : 9
# ref model mem : 2626325196
# abc : 10
# ref model mem : 2626325200
# abc : 11
# ref model mem : 2626325204
# abc : 12
# ref model mem : 2626325208
# abc : 13
# ref model mem : 2626325212
# abc : 14
# ref model mem : 2626325216
# abc : 15
# ref model mem : 2626325220
# abc : 16
# ref model mem : 2626325224
# abc : 17
# ref model mem : 2626325228
# abc : 18
# ref model mem : 2626325232
# abc : 19
# ref model mem : 2626325236
# abc : 20
# ref model mem : 2626325240
# abc : 21
# ref model mem : 2626325244
# abc : 22
# ref model mem : 2626325248
# abc : 23
# ref model mem : 2626325252
# abc : 24
# ref model mem : 2626325256
# abc : 25
# ref model mem : 2626325260
# abc : 26
# ref model mem : 2626325264
# abc : 27
# ref model mem : 2626325268
# abc : 28
# ref model mem : 2626325272
# abc : 29
# ref model mem : 2626325276
# abc : 30
# ref model mem : 2626325280
# abc : 31
# ref model mem : 2626325284
# abc : 32
# ref model mem : 2626325288
# abc : 33
# ref model mem : 2626325292
# abc : 34
# ref model mem : 2626325296
# abc : 35
# ref model mem : 2626325300
# abc : 36
# ref model mem : 2626325304
# abc : 37
# ref model mem : 2626325308
# abc : 38
# ref model mem : 2626325312
# abc : 39
# ref model mem : 2626325316
# abc : 40
# ref model mem : 2626325320
# abc : 41
# ref model mem : 2626325324
# abc : 42
# ref model mem : 2626325328
# abc : 43
# ref model mem : 2626325332
# abc : 44
# ref model mem : 2626325336
# abc : 45
# ref model mem : 2626325340
# abc : 46
# ref model mem : 2626325344
# abc : 47
# ref model mem : 2626325348
# abc : 48
# ref model mem : 2626325352
# abc : 49
# ref model mem : 2626325356
# abc : 50
# ref model mem : 2626325360
# abc : 51
# ref model mem : 2626325364
# abc : 52
# ref model mem : 2626325368
# abc : 53
# ref model mem : 2626325372
# abc : 54
# ref model mem : 2626325376
# abc : 55
# ref model mem : 2626325380
# abc : 56
# ref model mem : 2626325384
# abc : 57
# ref model mem : 2626325388
# abc : 58
# ref model mem : 2626325392
# abc : 59
# ref model mem : 2626325396
# abc : 60
# ref model mem : 2626325400
# abc : 61
# ref model mem : 2626325404
# abc : 62
# ref model mem : 2626325408
# abc : 63
# ref model mem : 2626325412
# abc : 64
# ref model mem : 2626325416
# abc : 65
# ref model mem : 2626325420
# abc : 66
# ref model mem : 2626325424
# abc : 67
# ref model mem : 2626325428
# abc : 68
# ref model mem : 2626325432
# abc : 69
# ref model mem : 2626325436
# abc : 70
# ref model mem : 2626325440
# abc : 71
# ref model mem : 2626325444
# abc : 72
# ref model mem : 2626325448
# abc : 73
# ref model mem : 2626325452
# abc : 74
# ref model mem : 2626325456
# abc : 75
# ref model mem : 2626325460
# abc : 76
# ref model mem : 2626325464
# abc : 77
# ref model mem : 2626325468
# abc : 78
# ref model mem : 2626325472
# abc : 79
# ref model mem : 2626325476
# abc : 80
# ref model mem : 2626325480
# abc : 81
# ref model mem : 2626325484
# abc : 82
# ref model mem : 2626325488
# abc : 83
# ref model mem : 2626325492
# abc : 84
# ref model mem : 2626325496
# abc : 85
# ref model mem : 2626325500
# abc : 86
# ref model mem : 2626325504
# abc : 87
# ref model mem : 2626325508
# abc : 88
# ref model mem : 2626325512
# abc : 89
# ref model mem : 2626325516
# abc : 90
# ref model mem : 2626325520
# abc : 91
# ref model mem : 2626325524
# abc : 92
# ref model mem : 2626325528
# abc : 93
# ref model mem : 2626325532
# abc : 94
# ref model mem : 2626325536
# abc : 95
# ref model mem : 2626325540
# abc : 96
# ref model mem : 2626325544
# abc : 97
# ref model mem : 2626325548
# abc : 98
# ref model mem : 2626325552
# abc : 99
# ref model mem : 2626325556
# abc : 100
# ref model mem : 2626325560
# abc : 101
# ref model mem : 2626325564
# abc : 102
# ref model mem : 2626325568
# abc : 103
# ref model mem : 2626325572
# abc : 104
# ref model mem : 2626325576
# abc : 105
# ref model mem : 2626325580
# abc : 106
# ref model mem : 2626325584
# abc : 107
# ref model mem : 2626325588
# abc : 108
# ref model mem : 2626325592
# abc : 109
# ref model mem : 2626325596
# abc : 110
# ref model mem : 2626325600
# abc : 111
# ref model mem : 2626325604
# abc : 112
# ref model mem : 2626325608
# abc : 113
# ref model mem : 2626325612
# abc : 114
# ref model mem : 2626325616
# abc : 115
# ref model mem : 2626325620
# abc : 116
# ref model mem : 2626325624
# abc : 117
# ref model mem : 2626325628
# abc : 118
# ref model mem : 2626325632
# abc : 119
# ref model mem : 2626325636
# abc : 120
# ref model mem : 2626325640
# abc : 121
# ref model mem : 2626325644
# abc : 122
# ref model mem : 2626325648
# abc : 123
# ref model mem : 2626325652
# abc : 124
# ref model mem : 2626325656
# abc : 125
# ref model mem : 2626325660
# abc : 126
# ref model mem : 2626325664
# abc : 127
# ref model mem : 2626325668
# abc : 128
# ref model mem : 2626325672
# abc : 129
# ref model mem : 2626325676
# abc : 130
# ref model mem : 2626325680
# abc : 131
# ref model mem : 2626325684
# abc : 132
# ref model mem : 2626325688
# abc : 133
# ref model mem : 2626325692
# abc : 134
# ref model mem : 2626325696
# abc : 135
# ref model mem : 2626325700
# abc : 136
# ref model mem : 2626325704
# abc : 137
# ref model mem : 2626325708
# abc : 138
# ref model mem : 2626325712
# abc : 139
# ref model mem : 2626325716
# abc : 140
# ref model mem : 2626325720
# abc : 141
# ref model mem : 2626325724
# abc : 142
# ref model mem : 2626325728
# abc : 143
# ref model mem : 2626325732
# abc : 144
# ref model mem : 2626325736
# abc : 145
# ref model mem : 2626325740
# abc : 146
# ref model mem : 2626325744
# abc : 147
# ref model mem : 2626325748
# abc : 148
# ref model mem : 2626325752
# abc : 149
# ref model mem : 2626325756
# abc : 150
# ref model mem : 2626325760
# abc : 151
# ref model mem : 2626325764
# abc : 152
# ref model mem : 2626325768
# abc : 153
# ref model mem : 2626325772
# abc : 154
# ref model mem : 2626325776
# abc : 155
# ref model mem : 2626325780
# abc : 156
# ref model mem : 2626325784
# abc : 157
# ref model mem : 2626325788
# abc : 158
# ref model mem : 2626325792
# abc : 159
# ref model mem : 2626325796
# abc : 160
# ref model mem : 2626325800
# abc : 161
# ref model mem : 2626325804
# abc : 162
# ref model mem : 2626325808
# abc : 163
# ref model mem : 2626325812
# abc : 164
# ref model mem : 2626325816
# abc : 165
# ref model mem : 2626325820
# abc : 166
# ref model mem : 2626325824
# abc : 167
# ref model mem : 2626325828
# abc : 168
# ref model mem : 2626325832
# abc : 169
# ref model mem : 2626325836
# abc : 170
# ref model mem : 2626325840
# abc : 171
# ref model mem : 2626325844
# abc : 172
# ref model mem : 2626325848
# abc : 173
# ref model mem : 2626325852
# abc : 174
# ref model mem : 2626325856
# abc : 175
# ref model mem : 2626325860
# abc : 176
# ref model mem : 2626325864
# abc : 177
# ref model mem : 2626325868
# abc : 178
# ref model mem : 2626325872
# abc : 179
# ref model mem : 2626325876
# abc : 180
# ref model mem : 2626325880
# abc : 181
# ref model mem : 2626325884
# abc : 182
# ref model mem : 2626325888
# abc : 183
# ref model mem : 2626325892
# abc : 184
# ref model mem : 2626325896
# abc : 185
# ref model mem : 2626325900
# abc : 186
# ref model mem : 2626325904
# abc : 187
# ref model mem : 2626325908
# abc : 188
# ref model mem : 2626325912
# abc : 189
# ref model mem : 2626325916
# abc : 190
# ref model mem : 2626325920
# abc : 191
# ref model mem : 2626325924
# abc : 192
# ref model mem : 2626325928
# abc : 193
# ref model mem : 2626325932
# abc : 194
# ref model mem : 2626325936
# abc : 195
# ref model mem : 2626325940
# abc : 196
# ref model mem : 2626325944
# abc : 197
# ref model mem : 2626325948
# abc : 198
# ref model mem : 2626325952
# abc : 199
# ref model mem : 2626325956
# abc : 200
# ref model mem : 2626325960
# abc : 201
# ref model mem : 2626325964
# abc : 202
# ref model mem : 2626325968
# abc : 203
# ref model mem : 2626325972
# abc : 204
# ref model mem : 2626325976
# abc : 205
# ref model mem : 2626325980
# abc : 206
# ref model mem : 2626325984
# abc : 207
# ref model mem : 2626325988
# abc : 208
# ref model mem : 2626325992
# abc : 209
# ref model mem : 2626325996
# abc : 210
# ref model mem : 2626326000
# abc : 211
# ref model mem : 2626326004
# abc : 212
# ref model mem : 2626326008
# abc : 213
# ref model mem : 2626326012
# abc : 214
# ref model mem : 2626326016
# abc : 215
# ref model mem : 2626326020
# abc : 216
# ref model mem : 2626326024
# abc : 217
# ref model mem : 2626326028
# abc : 218
# ref model mem : 2626326032
# abc : 219
# ref model mem : 2626326036
# abc : 220
# ref model mem : 2626326040
# abc : 221
# ref model mem : 2626326044
# abc : 222
# ref model mem : 2626326048
# abc : 223
# ref model mem : 2626326052
# abc : 224
# ref model mem : 2626326056
# abc : 225
# ref model mem : 2626326060
# abc : 226
# ref model mem : 2626326064
# abc : 227
# ref model mem : 2626326068
# abc : 228
# ref model mem : 2626326072
# abc : 229
# ref model mem : 2626326076
# xyz : 1
# xyz : 2
# xyz : 3
# xyz : 4
# xyz : 5
# xyz : 6
# xyz : 7
# xyz : 8
# xyz : 9
# xyz : 10
# xyz : 11
# xyz : 12
# xyz : 13
# xyz : 14
# xyz : 15
# xyz : 16
# xyz : 17
# xyz : 18
# xyz : 19
# xyz : 20
# xyz : 21
# xyz : 22
# xyz : 23
# xyz : 24
# xyz : 25
# xyz : 26
# xyz : 27
# xyz : 28
# xyz : 29
# xyz : 30
# xyz : 31
# xyz : 32
# xyz : 33
# xyz : 34
# xyz : 35
# xyz : 36
# xyz : 37
# xyz : 38
# xyz : 39
# xyz : 40
# xyz : 41
# xyz : 42
# xyz : 43
# xyz : 44
# xyz : 45
# xyz : 46
# xyz : 47
# xyz : 48
# xyz : 49
# xyz : 50
# xyz : 51
# xyz : 52
# xyz : 53
# xyz : 54
# xyz : 55
# xyz : 56
# xyz : 57
# xyz : 58
# xyz : 59
# xyz : 60
# xyz : 61
# xyz : 62
# xyz : 63
# xyz : 64
# xyz : 65
# xyz : 66
# xyz : 67
# xyz : 68
# xyz : 69
# xyz : 70
# xyz : 71
# xyz : 72
# xyz : 73
# xyz : 74
# xyz : 75
# xyz : 76
# xyz : 77
# xyz : 78
# xyz : 79
# xyz : 80
# xyz : 81
# xyz : 82
# xyz : 83
# xyz : 84
# xyz : 85
# xyz : 86
# xyz : 87
# xyz : 88
# xyz : 89
# xyz : 90
# xyz : 91
# xyz : 92
# xyz : 93
# xyz : 94
# xyz : 95
# xyz : 96
# xyz : 97
# xyz : 98
# xyz : 99
# xyz : 100
# xyz : 101
# xyz : 102
# xyz : 103
# xyz : 104
# xyz : 105
# xyz : 106
# xyz : 107
# xyz : 108
# xyz : 109
# xyz : 110
# xyz : 111
# xyz : 112
# xyz : 113
# xyz : 114
# xyz : 115
# xyz : 116
# xyz : 117
# xyz : 118
# xyz : 119
# xyz : 120
# xyz : 121
# xyz : 122
# xyz : 123
# xyz : 124
# xyz : 125
# xyz : 126
# xyz : 127
# xyz : 128
# xyz : 129
# xyz : 130
# xyz : 131
# xyz : 132
# xyz : 133
# xyz : 134
# xyz : 135
# xyz : 136
# xyz : 137
# xyz : 138
# xyz : 139
# xyz : 140
# xyz : 141
# xyz : 142
# xyz : 143
# xyz : 144
# xyz : 145
# xyz : 146
# xyz : 147
# xyz : 148
# xyz : 149
# xyz : 150
# xyz : 151
# xyz : 152
# xyz : 153
# xyz : 154
# xyz : 155
# xyz : 156
# xyz : 157
# xyz : 158
# xyz : 159
# xyz : 160
# xyz : 161
# xyz : 162
# xyz : 163
# xyz : 164
# xyz : 165
# xyz : 166
# xyz : 167
# xyz : 168
# xyz : 169
# xyz : 170
# xyz : 171
# xyz : 172
# xyz : 173
# xyz : 174
# xyz : 175
# xyz : 176
# xyz : 177
# xyz : 178
# xyz : 179
# xyz : 180
# xyz : 181
# xyz : 182
# xyz : 183
# xyz : 184
# xyz : 185
# xyz : 186
# xyz : 187
# xyz : 188
# xyz : 189
# xyz : 190
# xyz : 191
# xyz : 192
# xyz : 193
# xyz : 194
# xyz : 195
# xyz : 196
# xyz : 197
# xyz : 198
# xyz : 199
# xyz : 200
# xyz : 201
# xyz : 202
# xyz : 203
# xyz : 204
# xyz : 205
# xyz : 206
# xyz : 207
# xyz : 208
# xyz : 209
# xyz : 210
# xyz : 211
# xyz : 212
# xyz : 213
# xyz : 214
# xyz : 215
# xyz : 216
# xyz : 217
# xyz : 218
# xyz : 219
# xyz : 220
# xyz : 221
# xyz : 222
# xyz : 223
# xyz : 224
# xyz : 225
# xyz : 226
# xyz : 227
# xyz : 228
# xyz : 229
# ** Warning: (vsim-3829) Non-existent associative array entry. Returning default value.
#    Time: 3055 ns  Iteration: 2  Process: /axi_s_agent_pkg::axi_s_mon #(32, 32)::monitor/#FORK#34_7fefec26b8e File: ../env/axi_ref_model.sv Line: 83
# xyz : 230
# ** Warning: (vsim-3829) Non-existent associative array entry. Returning default value.
#    Time: 3055 ns  Iteration: 2  Process: /axi_s_agent_pkg::axi_s_mon #(32, 32)::monitor/#FORK#34_7fefec26b8e File: ../env/axi_ref_model.sv Line: 83
# xyz : 231
# ** Warning: (vsim-3829) Non-existent associative array entry. Returning default value.
#    Time: 3055 ns  Iteration: 2  Process: /axi_s_agent_pkg::axi_s_mon #(32, 32)::monitor/#FORK#34_7fefec26b8e File: ../env/axi_ref_model.sv Line: 83
# xyz : 232
# ** Warning: (vsim-3829) Non-existent associative array entry. Returning default value.
#    Time: 3055 ns  Iteration: 2  Process: /axi_s_agent_pkg::axi_s_mon #(32, 32)::monitor/#FORK#34_7fefec26b8e File: ../env/axi_ref_model.sv Line: 83
# xyz : 233
# ** Warning: (vsim-3829) Non-existent associative array entry. Returning default value.
#    Time: 3055 ns  Iteration: 2  Process: /axi_s_agent_pkg::axi_s_mon #(32, 32)::monitor/#FORK#34_7fefec26b8e File: ../env/axi_ref_model.sv Line: 83
# xyz : 234
#                 3055wlast : 1
# AFFTER W CHANNEL
# WID: 11091 , AWID : 11091
# req kind_e : WRITE
# match arid : 0 , rid : 0
# UVM_INFO ../env/s_agent/axi_s_drv.sv(31) @ 3055: uvm_test_top.env_h.s_uvc_h.s_agent_h[0].s_drv_h [ID MATCH] aaaaa
# ** Warning: (vsim-3829) Non-existent associative array entry. Returning default value.
#    Time: 3055 ns  Iteration: 8  Process: /uvm_pkg::uvm_sequence_base::start/#FORK#294_7fefec268bc File: ../env/s_agent/axi_base_s_seqs.sv Line: 108
# ** Warning: (vsim-3829) Non-existent associative array entry. Returning default value.
#    Time: 3055 ns  Iteration: 8  Process: /uvm_pkg::uvm_sequence_base::start/#FORK#294_7fefec268bc File: ../env/s_agent/axi_base_s_seqs.sv Line: 108
# ** Warning: (vsim-3829) Non-existent associative array entry. Returning default value.
#    Time: 3055 ns  Iteration: 8  Process: /uvm_pkg::uvm_sequence_base::start/#FORK#294_7fefec268bc File: ../env/s_agent/axi_base_s_seqs.sv Line: 108
# ** Warning: (vsim-3829) Non-existent associative array entry. Returning default value.
#    Time: 3055 ns  Iteration: 8  Process: /uvm_pkg::uvm_sequence_base::start/#FORK#294_7fefec268bc File: ../env/s_agent/axi_base_s_seqs.sv Line: 108
# ** Warning: (vsim-3829) Non-existent associative array entry. Returning default value.
#    Time: 3055 ns  Iteration: 8  Process: /uvm_pkg::uvm_sequence_base::start/#FORK#294_7fefec268bc File: ../env/s_agent/axi_base_s_seqs.sv Line: 108
# s seqs arid : 59707
# INIDE_SLAVE_SEQ_CTR=2
# match arid : e93b , rid : e93b
# UVM_INFO ../env/s_agent/axi_s_drv.sv(31) @ 3055: uvm_test_top.env_h.s_uvc_h.s_agent_h[0].s_drv_h [ID MATCH] aaaaa
# rd data in s drv: 766d2096 , len : 233 , last:0 , valid : 1
#                 3065wlast : 0
# WID: 11091 , AWID : 11091
# m mon rid : e93b
# rd data in s drv: c6d5f5ef , len : 233 , last:0 , valid : 1
#                 3075wlast : 0
# WID: 11091 , AWID : 11091
# m mon rid : e93b
# UVM_INFO ../env/m_agent/axi_base_m_seqs.sv(26) @ 3075: uvm_test_top.env_h.m_uvc_h.m_agent_h[0].m_seqr_h@@vseqs_h.m_wseqs_h [IN V SEQS] Got B-channel response from driver
# rd data in s drv: b8665e42 , len : 233 , last:0 , valid : 1
#                 3085wlast : 0
# WID: 11091 , AWID : 11091
# m mon rid : e93b
# rd data in s drv: eaba05fa , len : 233 , last:0 , valid : 1
#                 3095wlast : 0
# WID: 11091 , AWID : 11091
# m mon rid : e93b
# rd data in s drv: 74abeee2 , len : 233 , last:0 , valid : 1
#                 3105wlast : 0
# WID: 11091 , AWID : 11091
# m mon rid : e93b
# rd data in s drv: b4ecdf42 , len : 233 , last:0 , valid : 1
#                 3115wlast : 0
# WID: 11091 , AWID : 11091
# m mon rid : e93b
# rd data in s drv: 680aea50 , len : 233 , last:0 , valid : 1
#                 3125wlast : 0
# WID: 11091 , AWID : 11091
# m mon rid : e93b
# rd data in s drv: 41508d27 , len : 233 , last:0 , valid : 1
#                 3135wlast : 0
# WID: 11091 , AWID : 11091
# m mon rid : e93b
# rd data in s drv: 757fd52b , len : 233 , last:0 , valid : 1
#                 3145wlast : 0
# WID: 11091 , AWID : 11091
# m mon rid : e93b
# rd data in s drv: d32c40dd , len : 233 , last:0 , valid : 1
#                 3155wlast : 0
# WID: 11091 , AWID : 11091
# m mon rid : e93b
# rd data in s drv: 7e1a8503 , len : 233 , last:0 , valid : 1
#                 3165wlast : 0
# WID: 11091 , AWID : 11091
# m mon rid : e93b
# rd data in s drv: 9876ccc3 , len : 233 , last:0 , valid : 1
#                 3175wlast : 0
# WID: 11091 , AWID : 11091
# m mon rid : e93b
# rd data in s drv: 3552c05f , len : 233 , last:0 , valid : 1
#                 3185wlast : 0
# WID: 11091 , AWID : 11091
# m mon rid : e93b
# rd data in s drv: c6f0b6fa , len : 233 , last:0 , valid : 1
#                 3195wlast : 0
# WID: 11091 , AWID : 11091
# m mon rid : e93b
# rd data in s drv: 55a017e3 , len : 233 , last:0 , valid : 1
#                 3205wlast : 0
# WID: 11091 , AWID : 11091
# m mon rid : e93b
# rd data in s drv: 7fafae0b , len : 233 , last:0 , valid : 1
#                 3215wlast : 0
# WID: 11091 , AWID : 11091
# m mon rid : e93b
# rd data in s drv: 9c7f49d , len : 233 , last:0 , valid : 1
#                 3225wlast : 0
# WID: 11091 , AWID : 11091
# m mon rid : e93b
# rd data in s drv: 9fcbf764 , len : 233 , last:0 , valid : 1
#                 3235wlast : 0
# WID: 11091 , AWID : 11091
# m mon rid : e93b
# rd data in s drv: db71c6d , len : 233 , last:0 , valid : 1
#                 3245wlast : 0
# WID: 11091 , AWID : 11091
# m mon rid : e93b
# rd data in s drv: 82caf15f , len : 233 , last:0 , valid : 1
#                 3255wlast : 0
# WID: 11091 , AWID : 11091
# m mon rid : e93b
# rd data in s drv: ebb6cac7 , len : 233 , last:0 , valid : 1
#                 3265wlast : 0
# WID: 11091 , AWID : 11091
# m mon rid : e93b
# rd data in s drv: dcb588e5 , len : 233 , last:0 , valid : 1
#                 3275wlast : 0
# WID: 11091 , AWID : 11091
# m mon rid : e93b
# rd data in s drv: f05524ae , len : 233 , last:0 , valid : 1
#                 3285wlast : 0
# WID: 11091 , AWID : 11091
# m mon rid : e93b
# rd data in s drv: 38e8f576 , len : 233 , last:0 , valid : 1
#                 3295wlast : 0
# WID: 11091 , AWID : 11091
# m mon rid : e93b
# rd data in s drv: 8b56e4dc , len : 233 , last:0 , valid : 1
#                 3305wlast : 0
# WID: 11091 , AWID : 11091
# m mon rid : e93b
# rd data in s drv: 577cb86a , len : 233 , last:0 , valid : 1
#                 3315wlast : 0
# WID: 11091 , AWID : 11091
# m mon rid : e93b
# rd data in s drv: 6259d2f7 , len : 233 , last:0 , valid : 1
#                 3325wlast : 0
# WID: 11091 , AWID : 11091
# m mon rid : e93b
# rd data in s drv: ad626940 , len : 233 , last:0 , valid : 1
#                 3335wlast : 0
# WID: 11091 , AWID : 11091
# m mon rid : e93b
