# vsim -coverage -voptargs="+acc" axi_tb_top -c -do "coverage save -onexit -directive -cvg -codeall axi_b2b_test.ucdb; run -all; exit" "+UVM_TESTNAME=axi_b2b_test" -l axi_b2b_test.log 
# Start time: 12:46:38 on May 13,2026
# ** Note: (vsim-8009) Loading existing optimized design _opt1
# //  Questa Sim-64
# //  Version 2023.4 linux_x86_64 Oct  9 2023
# //
# //  Copyright 1991-2023 Mentor Graphics Corporation
# //  All Rights Reserved.
# //
# //  QuestaSim and its associated documentation contain trade
# //  secrets and commercial or financial information that are the property of
# //  Mentor Graphics Corporation and are privileged, confidential,
# //  and exempt from disclosure under the Freedom of Information Act,
# //  5 U.S.C. Section 552. Furthermore, this information
# //  is prohibited from disclosure under the Trade Secrets Act,
# //  18 U.S.C. Section 1905.
# //
# Loading sv_std.std
# Loading work.axi_s_inf(fast)
# Loading work.axi_m_inf(fast)
# Loading mtiUvm.uvm_pkg(fast)
# Loading work.axi_s_agent_pkg(fast)
# Loading work.axi_m_agent_pkg(fast)
# Loading work.axi_env_pkg(fast)
# Loading work.axi_test_pkg(fast)
# Loading mtiUvm.questa_uvm_pkg(fast)
# Loading work.axi_tb_top(fast)
# Loading work.axi_m_inf(fast__2)
# Loading work.axi_s_inf(fast__2)
# ** Warning: (vsim-8441) Clocking block output s_vif.s_drv_cb.RDATA is not legal in this
# or another expression.
#    Time: 0 ns  Iteration: 0  Region: /axi_s_agent_pkg::axi_s_drv #(32, 32) File: ../env/s_agent/axi_s_drv.sv Line: 113
# ** Warning: (vsim-8441) Clocking block output s_vif.s_drv_cb.RVALID is not legal in this
# or another expression.
#    Time: 0 ns  Iteration: 0  Region: /axi_s_agent_pkg::axi_s_drv #(32, 32) File: ../env/s_agent/axi_s_drv.sv Line: 115
# ** Warning: (vsim-8441) Clocking block output s_vif.s_drv_cb.RLAST is not legal in this
# or another expression.
#    Time: 0 ns  Iteration: 0  Region: /axi_s_agent_pkg::axi_s_drv #(32, 32) File: ../env/s_agent/axi_s_drv.sv Line: 116
# ** Warning: (vsim-8441) Clocking block output s_vif.s_drv_cb.RDATA is not legal in this
# or another expression.
#    Time: 0 ns  Iteration: 0  Region: /axi_s_agent_pkg::axi_s_drv #(32, 32) File: ../env/s_agent/axi_s_drv.sv Line: 113
# ** Warning: (vsim-8441) Clocking block output s_vif.s_drv_cb.RLAST is not legal in this
# or another expression.
#    Time: 0 ns  Iteration: 0  Region: /axi_s_agent_pkg::axi_s_drv #(32, 32) File: ../env/s_agent/axi_s_drv.sv Line: 116
# ** Warning: (vsim-8441) Clocking block output s_vif.s_drv_cb.RVALID is not legal in this
# or another expression.
#    Time: 0 ns  Iteration: 0  Region: /axi_s_agent_pkg::axi_s_drv #(32, 32) File: ../env/s_agent/axi_s_drv.sv Line: 115
# ** Warning: (vsim-8441) Clocking block output s_vif.s_drv_cb.RVALID is not legal in this
# or another expression.
#    Time: 0 ns  Iteration: 0  Region: /axi_s_agent_pkg::axi_s_drv #(32, 32) File: ../env/s_agent/axi_s_drv.sv Line: 115
# ** Warning: (vsim-8441) Clocking block output s_vif.s_drv_cb.RLAST is not legal in this
# or another expression.
#    Time: 0 ns  Iteration: 0  Region: /axi_s_agent_pkg::axi_s_drv #(32, 32) File: ../env/s_agent/axi_s_drv.sv Line: 116
# Loading /tools/mentor/questa/2023.4/questasim/uvm-1.1d/linux_x86_64/uvm_dpi.so
# coverage save -onexit -directive -cvg -codeall axi_b2b_test.ucdb
#  run -all
# ----------------------------------------------------------------
# UVM-1.1d
# (C) 2007-2013 Mentor Graphics Corporation
# (C) 2007-2013 Cadence Design Systems, Inc.
# (C) 2006-2013 Synopsys, Inc.
# (C) 2011-2013 Cypress Semiconductor Corp.
# ----------------------------------------------------------------
# 
#   ***********       IMPORTANT RELEASE NOTES         ************
# 
#   You are using a version of the UVM library that has been compiled
#   with `UVM_NO_DEPRECATED undefined.
#   See http://www.eda.org/svdb/view.php?id=3313 for more details.
# 
#   You are using a version of the UVM library that has been compiled
#   with `UVM_OBJECT_MUST_HAVE_CONSTRUCTOR undefined.
#   See http://www.eda.org/svdb/view.php?id=3770 for more details.
# 
#       (Specify +UVM_NO_RELNOTES to turn off this notice)
# 
# UVM_INFO verilog_src/questa_uvm_pkg-1.2/src/questa_uvm_pkg.sv(277) @ 0: reporter [Questa UVM] QUESTA_UVM-1.2.3
# UVM_INFO verilog_src/questa_uvm_pkg-1.2/src/questa_uvm_pkg.sv(278) @ 0: reporter [Questa UVM]  questa_uvm::init(+struct)
# UVM_INFO @ 0: reporter [RNTST] Running test axi_b2b_test...
# UVM_INFO ../env/s_agent/axi_s_seqr.sv(25) @ 0: uvm_test_top.env_h.s_uvc_h.s_agent_h[0].s_seqr_h [Data in s seqr] Data got in slave seqr
# UVM_INFO @ 0: reporter [UVMTOP] UVM testbench topology:
# --------------------------------------------------------------------------------
# Name                             Type                                Size  Value
# --------------------------------------------------------------------------------
# uvm_test_top                     axi_b2b_test                        -     @479 
#   env_h                          axi_env                             -     @491 
#     m_uvc_h                      uvm_agent                           -     @513 
#       m_agent_h[0]               uvm_agent                           -     @693 
#         m_drv_h                  uvm_driver #(REQ,RSP)               -     @814 
#           rsp_port               uvm_analysis_port                   -     @829 
#           seq_item_port          uvm_seq_item_pull_port              -     @821 
#         m_mon_h                  axi_m_mon#(ADDR_WIDTH, DATA_WIDTH)  -     @837 
#           s_port                 uvm_analysis_port                   -     @844 
#         m_seqr_h                 uvm_sequencer                       -     @705 
#           rsp_export             uvm_analysis_export                 -     @712 
#           seq_item_export        uvm_seq_item_pull_imp               -     @806 
#           arbitration_queue      array                               0     -    
#           lock_queue             array                               0     -    
#           num_last_reqs          integral                            32    'd1  
#           num_last_rsps          integral                            32    'd1  
#     ref_model_h                  axi_ref_model                       -     @558 
#       mon_imp                    uvm_analysis_imp                    -     @565 
#       sb_imp                     uvm_analysis_port                   -     @573 
#     s_uvc_h                      uvm_agent                           -     @520 
#       s_agent_h[0]               uvm_agent                           -     @860 
#         s_drv_h                  uvm_driver #(REQ,RSP)               -     @1036
#           rsp_port               uvm_analysis_port                   -     @1051
#           seq_item_port          uvm_seq_item_pull_port              -     @1043
#         s_mon_h                  axi_s_mon#(ADDR_WIDTH, DATA_WIDTH)  -     @1059
#           s_port                 uvm_analysis_port                   -     @1066
#         s_seqr_h                 uvm_sequencer                       -     @872 
#           item_collected_export  uvm_analysis_export                 -     @981 
#           item_req_fifo          uvm_tlm_analysis_fifo #(T)          -     @989 
#             analysis_export      uvm_analysis_imp                    -     @1028
#             get_ap               uvm_analysis_port                   -     @1020
#             get_peek_export      uvm_get_peek_imp                    -     @1004
#             put_ap               uvm_analysis_port                   -     @1012
#             put_export           uvm_put_imp                         -     @996 
#           rsp_export             uvm_analysis_export                 -     @879 
#           seq_item_export        uvm_seq_item_pull_imp               -     @973 
#           arbitration_queue      array                               0     -    
#           lock_queue             array                               0     -    
#           num_last_reqs          integral                            32    'd1  
#           num_last_rsps          integral                            32    'd1  
#     sb_h                         axi_sb                              -     @527 
#       anl_imp_m                  uvm_analysis_imp_m                  -     @534 
#       anl_imp_ref                uvm_analysis_imp_ref                -     @542 
#     vseqr_h                      axi_virtual_seqr                    -     @581 
#       rsp_export                 uvm_analysis_export                 -     @588 
#       seq_item_export            uvm_seq_item_pull_imp               -     @682 
#       arbitration_queue          array                               0     -    
#       lock_queue                 array                               0     -    
#       num_last_reqs              integral                            32    'd1  
#       num_last_rsps              integral                            32    'd1  
# --------------------------------------------------------------------------------
# 
# UVM_INFO ../env/axi_sb.sv(80) @ 0: uvm_test_top.env_h.sb_h [before event in sb] aaaa
# UVM_INFO ../env/m_agent/axi_m_mon.sv(28) @ 0: uvm_test_top.env_h.m_uvc_h.m_agent_h[0].m_mon_h [M MON RUN PHASE before] Inside master mon run phase
# UVM_INFO ../env/m_agent/axi_m_mon.sv(36) @ 0: uvm_test_top.env_h.m_uvc_h.m_agent_h[0].m_mon_h [M MON run PHASE after] Inside master mon
# UVM_INFO ../env/m_agent/axi_m_mon.sv(41) @ 0: uvm_test_top.env_h.m_uvc_h.m_agent_h[0].m_mon_h [M MON write addr PHASE before] Inside master mon
# UVM_INFO ../env/m_agent/axi_m_mon.sv(60) @ 0: uvm_test_top.env_h.m_uvc_h.m_agent_h[0].m_mon_h [M MON write data PHASE before] Inside master mon
# UVM_INFO ../env/m_agent/axi_m_mon.sv(99) @ 0: uvm_test_top.env_h.m_uvc_h.m_agent_h[0].m_mon_h [M MON read addr PHASE before] Inside master mon
# UVM_INFO ../env/m_agent/axi_m_mon.sv(118) @ 0: uvm_test_top.env_h.m_uvc_h.m_agent_h[0].m_mon_h [M MON read data PHASE before] Inside master mon
# Before AW CHANNEL
# Before W CHANNEL
# Before AR CHANNEL
# Before R CHANNEL
# AWLEN IN M DRV:38
# cnt : 1
# AWLEN IN M DRV:141
# cnt : 2
# AWLEN IN M DRV:7
# cnt : 3
# AWLEN IN M DRV:185
# cnt : 4
# AWLEN IN M DRV:96
# cnt : 5
# AWLEN IN M DRV:197
# cnt : 6
# AWLEN IN M DRV:34
# cnt : 7
# AWLEN IN M DRV:153
# cnt : 8
# AWLEN IN M DRV:35
# cnt : 9
# AWLEN IN M DRV:44
# cnt : 10
# AWLEN IN M DRV:86
# cnt : 11
# AWLEN IN M DRV:119
# cnt : 12
# AWLEN IN M DRV:34
# cnt : 13
# AWLEN IN M DRV:11
# cnt : 14
# AWLEN IN M DRV:78
# cnt : 15
# AWLEN IN M DRV:168
# cnt : 16
# AWLEN IN M DRV:13
# cnt : 17
# AWLEN IN M DRV:215
# cnt : 18
# AWLEN IN M DRV:50
# cnt : 19
# AWLEN IN M DRV:173
# cnt : 20
# AWLEN IN M DRV:35
# cnt : 21
# AWLEN IN M DRV:126
# cnt : 22
# AWLEN IN M DRV:88
# cnt : 23
# AWLEN IN M DRV:228
# cnt : 24
# AWLEN IN M DRV:51
# cnt : 25
# AWLEN IN M DRV:126
# cnt : 26
# AWLEN IN M DRV:43
# cnt : 27
# AWLEN IN M DRV:26
# cnt : 28
# AWLEN IN M DRV:85
# cnt : 29
# AWLEN IN M DRV:170
# cnt : 30
# AWLEN IN M DRV:46
# cnt : 31
# AWLEN IN M DRV:142
# cnt : 32
# AWLEN IN M DRV:70
# cnt : 33
# AWLEN IN M DRV:171
# cnt : 34
# AWLEN IN M DRV:78
# cnt : 35
# AWLEN IN M DRV:11
# cnt : 36
# AWLEN IN M DRV:40
# cnt : 37
# AWLEN IN M DRV:23
# cnt : 38
# AWLEN IN M DRV:66
# cnt : 39
# AWLEN IN M DRV:1
# cnt : 40
# AWLEN IN M DRV:21
# cnt : 41
# AWLEN IN M DRV:188
# cnt : 42
# AWLEN IN M DRV:45
# cnt : 43
# AWLEN IN M DRV:128
# cnt : 44
# AWLEN IN M DRV:58
# cnt : 45
# AWLEN IN M DRV:231
# cnt : 46
# AWLEN IN M DRV:85
# cnt : 47
# AWLEN IN M DRV:177
# cnt : 48
# AWLEN IN M DRV:0
# cnt : 49
# AWLEN IN M DRV:16
# cnt : 50
# AWLEN IN M DRV:84
# cnt : 51
# AWLEN IN M DRV:157
# cnt : 52
# AWLEN IN M DRV:3
# cnt : 53
# AWLEN IN M DRV:116
# cnt : 54
# AWLEN IN M DRV:48
# cnt : 55
# AWLEN IN M DRV:87
# cnt : 56
# AWLEN IN M DRV:62
# cnt : 57
# AWLEN IN M DRV:236
# cnt : 58
# AWLEN IN M DRV:66
# cnt : 59
# AWLEN IN M DRV:96
# cnt : 60
# AWLEN IN M DRV:73
# cnt : 61
# AWLEN IN M DRV:245
# cnt : 62
# AWLEN IN M DRV:64
# cnt : 63
# AWLEN IN M DRV:227
# cnt : 64
# AWLEN IN M DRV:26
# cnt : 65
# AWLEN IN M DRV:73
# cnt : 66
# AWLEN IN M DRV:66
# cnt : 67
# AWLEN IN M DRV:25
# cnt : 68
# AWLEN IN M DRV:16
# cnt : 69
# AWLEN IN M DRV:221
# cnt : 70
# AWLEN IN M DRV:61
# cnt : 71
# AWLEN IN M DRV:9
# cnt : 72
# AWLEN IN M DRV:95
# cnt : 73
# AWLEN IN M DRV:226
# cnt : 74
# AWLEN IN M DRV:89
# cnt : 75
# AWLEN IN M DRV:117
# cnt : 76
# AWLEN IN M DRV:32
# cnt : 77
# AWLEN IN M DRV:132
# cnt : 78
# AWLEN IN M DRV:81
# cnt : 79
# AWLEN IN M DRV:208
# cnt : 80
# AWLEN IN M DRV:74
# cnt : 81
# AWLEN IN M DRV:117
# cnt : 82
# AWLEN IN M DRV:80
# cnt : 83
# AWLEN IN M DRV:70
# cnt : 84
# AWLEN IN M DRV:47
# cnt : 85
# AWLEN IN M DRV:61
# cnt : 86
# AWLEN IN M DRV:83
# cnt : 87
# AWLEN IN M DRV:122
# cnt : 88
# AWLEN IN M DRV:70
# cnt : 89
# AWLEN IN M DRV:191
# cnt : 90
# AWLEN IN M DRV:78
# cnt : 91
# AWLEN IN M DRV:124
# cnt : 92
# AWLEN IN M DRV:72
# cnt : 93
# AWLEN IN M DRV:189
# cnt : 94
# AWLEN IN M DRV:80
# cnt : 95
# AWLEN IN M DRV:205
# cnt : 96
# AWLEN IN M DRV:84
# cnt : 97
# AWLEN IN M DRV:176
# cnt : 98
# AWLEN IN M DRV:20
# cnt : 99
# AWLEN IN M DRV:132
# cnt : 100
# AWLEN IN M DRV:65
# cnt : 101
# AWLEN IN M DRV:230
# cnt : 102
# AWLEN IN M DRV:12
# cnt : 103
# AWLEN IN M DRV:185
# cnt : 104
# AWLEN IN M DRV:8
# cnt : 105
# AWLEN IN M DRV:14
# cnt : 106
# AWLEN IN M DRV:75
# cnt : 107
# AWLEN IN M DRV:187
# cnt : 108
# AWLEN IN M DRV:50
# cnt : 109
# AWLEN IN M DRV:129
# cnt : 110
# AWLEN IN M DRV:81
# cnt : 111
# AWLEN IN M DRV:217
# cnt : 112
# AWLEN IN M DRV:8
# cnt : 113
# AWLEN IN M DRV:183
# cnt : 114
# AWLEN IN M DRV:41
# cnt : 115
# AWLEN IN M DRV:89
# cnt : 116
# AWLEN IN M DRV:63
# cnt : 117
# AWLEN IN M DRV:204
# cnt : 118
# AWLEN IN M DRV:64
# cnt : 119
# AWLEN IN M DRV:93
# cnt : 120
# AWLEN IN M DRV:17
# cnt : 121
# AWLEN IN M DRV:185
# cnt : 122
# AWLEN IN M DRV:8
# cnt : 123
# AWLEN IN M DRV:45
# cnt : 124
# AWLEN IN M DRV:61
# cnt : 125
# AWLEN IN M DRV:243
# cnt : 126
# AWLEN IN M DRV:63
# cnt : 127
# AWLEN IN M DRV:125
# cnt : 128
# AWLEN IN M DRV:26
# cnt : 129
# AWLEN IN M DRV:162
# cnt : 130
# AWLEN IN M DRV:34
# cnt : 131
# AWLEN IN M DRV:217
# cnt : 132
# AWLEN IN M DRV:83
# cnt : 133
# AWLEN IN M DRV:138
# cnt : 134
# AWLEN IN M DRV:96
# cnt : 135
# AWLEN IN M DRV:72
# cnt : 136
# AWLEN IN M DRV:14
# cnt : 137
# AWLEN IN M DRV:50
# cnt : 138
# AWLEN IN M DRV:94
# cnt : 139
# AWLEN IN M DRV:24
# cnt : 140
# AWLEN IN M DRV:26
# cnt : 141
# AWLEN IN M DRV:168
# cnt : 142
# AWLEN IN M DRV:62
# cnt : 143
# AWLEN IN M DRV:166
# cnt : 144
# AWLEN IN M DRV:47
# cnt : 145
# AWLEN IN M DRV:203
# cnt : 146
# AWLEN IN M DRV:68
# cnt : 147
# AWLEN IN M DRV:192
# cnt : 148
# AWLEN IN M DRV:74
# cnt : 149
# AWLEN IN M DRV:12
# cnt : 150
# AWLEN IN M DRV:57
# cnt : 151
# AWLEN IN M DRV:255
# cnt : 152
# AWLEN IN M DRV:45
# cnt : 153
# AWLEN IN M DRV:239
# cnt : 154
# AWLEN IN M DRV:23
# cnt : 155
# AWLEN IN M DRV:26
# cnt : 156
# AWLEN IN M DRV:75
# cnt : 157
# AWLEN IN M DRV:228
# cnt : 158
# AWLEN IN M DRV:25
# cnt : 159
# AWLEN IN M DRV:2
# cnt : 160
# AWLEN IN M DRV:95
# cnt : 161
# AWLEN IN M DRV:54
# cnt : 162
# AWLEN IN M DRV:27
# cnt : 163
# AWLEN IN M DRV:14
# cnt : 164
# AWLEN IN M DRV:74
# cnt : 165
# AWLEN IN M DRV:207
# cnt : 166
# AWLEN IN M DRV:53
# cnt : 167
# AWLEN IN M DRV:106
# cnt : 168
# AWLEN IN M DRV:8
# cnt : 169
# AWLEN IN M DRV:144
# cnt : 170
# AWLEN IN M DRV:9
# cnt : 171
# AWLEN IN M DRV:48
# cnt : 172
# AWLEN IN M DRV:45
# cnt : 173
# AWLEN IN M DRV:40
# cnt : 174
# AWLEN IN M DRV:18
# cnt : 175
# AWLEN IN M DRV:141
# cnt : 176
# AWLEN IN M DRV:87
# cnt : 177
# AWLEN IN M DRV:62
# cnt : 178
# AWLEN IN M DRV:41
# cnt : 179
# AWLEN IN M DRV:1
# cnt : 180
# AWLEN IN M DRV:63
# cnt : 181
# AWLEN IN M DRV:245
# cnt : 182
# AWLEN IN M DRV:87
# cnt : 183
# AWLEN IN M DRV:76
# cnt : 184
# AWLEN IN M DRV:0
# cnt : 185
# AWLEN IN M DRV:151
# cnt : 186
# AWLEN IN M DRV:90
# cnt : 187
# AWLEN IN M DRV:238
# cnt : 188
# AWLEN IN M DRV:39
# cnt : 189
# AWLEN IN M DRV:145
# cnt : 190
# AWLEN IN M DRV:35
# cnt : 191
# AWLEN IN M DRV:35
# cnt : 192
# AWLEN IN M DRV:51
# cnt : 193
# AWLEN IN M DRV:90
# cnt : 194
# AWLEN IN M DRV:31
# cnt : 195
# AWLEN IN M DRV:33
# cnt : 196
# AWLEN IN M DRV:41
# cnt : 197
# AWLEN IN M DRV:16
# cnt : 198
# AWLEN IN M DRV:11
# cnt : 199
# AWLEN IN M DRV:127
# cnt : 200
# INIDE_SLAVE_MON_CTR=1
# arid in s mon : 31282
# m mon ar id : 7a32
# INIDE_SLAVE_MON_CTR=2
# arid in s mon : 28936
# m mon ar id : 7108
# INIDE_SLAVE_MON_CTR=3
# arid in s mon : 35198
# m mon ar id : 897e
# INIDE_SLAVE_MON_CTR=4
# arid in s mon : 7915
# m mon ar id : 1eeb
# INIDE_SLAVE_MON_CTR=5
# arid in s mon : 29180
# m mon ar id : 71fc
# INIDE_SLAVE_MON_CTR=6
# arid in s mon : 21255
# m mon ar id : 5307
# INIDE_SLAVE_MON_CTR=7
# arid in s mon : 21001
# m mon ar id : 5209
# INIDE_SLAVE_MON_CTR=8
# arid in s mon : 47319
# m mon ar id : b8d7
# INIDE_SLAVE_MON_CTR=9
# arid in s mon : 20867
# m mon ar id : 5183
# INIDE_SLAVE_MON_CTR=10
# arid in s mon : 45911
# m mon ar id : b357
# INIDE_SLAVE_MON_CTR=11
# arid in s mon : 31203
# m mon ar id : 79e3
# INIDE_SLAVE_MON_CTR=12
# arid in s mon : 27690
# m mon ar id : 6c2a
# INIDE_SLAVE_MON_CTR=13
# arid in s mon : 25703
# m mon ar id : 6467
# INIDE_SLAVE_MON_CTR=14
# arid in s mon : 2783
# m mon ar id : adf
# INIDE_SLAVE_MON_CTR=15
# arid in s mon : 17876
# m mon ar id : 45d4
# INIDE_SLAVE_MON_CTR=16
# arid in s mon : 46526
# m mon ar id : b5be
# INIDE_SLAVE_MON_CTR=17
# arid in s mon : 37930
# m mon ar id : 942a
# INIDE_SLAVE_MON_CTR=18
# arid in s mon : 1641
# m mon ar id : 669
# INIDE_SLAVE_MON_CTR=19
# arid in s mon : 33626
# m mon ar id : 835a
# INIDE_SLAVE_MON_CTR=20
# arid in s mon : 36471
# m mon ar id : 8e77
# INIDE_SLAVE_MON_CTR=21
# arid in s mon : 36064
# m mon ar id : 8ce0
# INIDE_SLAVE_MON_CTR=22
# arid in s mon : 52252
# m mon ar id : cc1c
# INIDE_SLAVE_MON_CTR=23
# arid in s mon : 6879
# m mon ar id : 1adf
# INIDE_SLAVE_MON_CTR=24
# arid in s mon : 38572
# m mon ar id : 96ac
# INIDE_SLAVE_MON_CTR=25
# arid in s mon : 48852
# m mon ar id : bed4
# INIDE_SLAVE_MON_CTR=26
# arid in s mon : 7841
# m mon ar id : 1ea1
# INIDE_SLAVE_MON_CTR=27
# arid in s mon : 32659
# m mon ar id : 7f93
# INIDE_SLAVE_MON_CTR=28
# arid in s mon : 62872
# m mon ar id : f598
# INIDE_SLAVE_MON_CTR=29
# arid in s mon : 49979
# m mon ar id : c33b
# INIDE_SLAVE_MON_CTR=30
# arid in s mon : 61088
# m mon ar id : eea0
# INIDE_SLAVE_MON_CTR=31
# arid in s mon : 53904
# m mon ar id : d290
# INIDE_SLAVE_MON_CTR=32
# arid in s mon : 273
# m mon ar id : 111
# INIDE_SLAVE_MON_CTR=33
# arid in s mon : 40358
# m mon ar id : 9da6
# INIDE_SLAVE_MON_CTR=34
# arid in s mon : 58276
# m mon ar id : e3a4
# INIDE_SLAVE_MON_CTR=35
# arid in s mon : 1351
# m mon ar id : 547
# INIDE_SLAVE_MON_CTR=36
# arid in s mon : 26158
# m mon ar id : 662e
# INIDE_SLAVE_MON_CTR=37
# arid in s mon : 55326
# m mon ar id : d81e
# INIDE_SLAVE_MON_CTR=38
# arid in s mon : 31454
# abc : 1
# ref model mem : 481
# abc : 2
# ref model mem : 489
# abc : 3
# ref model mem : 497
# abc : 4
# ref model mem : 505
# abc : 5
# ref model mem : 513
# abc : 6
# ref model mem : 521
# abc : 7
# ref model mem : 529
# abc : 8
# ref model mem : 537
# abc : 9
# ref model mem : 545
# abc : 10
# ref model mem : 553
# abc : 11
# ref model mem : 561
# abc : 12
# ref model mem : 569
# abc : 13
# ref model mem : 577
# abc : 14
# ref model mem : 585
# abc : 15
# ref model mem : 593
# abc : 16
# ref model mem : 601
# abc : 17
# ref model mem : 609
# abc : 18
# ref model mem : 617
# abc : 19
# ref model mem : 625
# abc : 20
# ref model mem : 633
# abc : 21
# ref model mem : 641
# abc : 22
# ref model mem : 649
# abc : 23
# ref model mem : 657
# abc : 24
# ref model mem : 665
# abc : 25
# ref model mem : 673
# abc : 26
# ref model mem : 681
# abc : 27
# ref model mem : 689
# abc : 28
# ref model mem : 697
# abc : 29
# ref model mem : 705
# abc : 30
# ref model mem : 713
# abc : 31
# ref model mem : 721
# abc : 32
# ref model mem : 729
# abc : 33
# ref model mem : 737
# abc : 34
# ref model mem : 745
# abc : 35
# ref model mem : 753
# abc : 36
# ref model mem : 761
# abc : 37
# ref model mem : 769
# abc : 38
# ref model mem : 777
# abc : 39
# ref model mem : 785
# xyz : 1
# xyz : 2
# xyz : 3
# xyz : 4
# xyz : 5
# xyz : 6
# xyz : 7
# xyz : 8
# xyz : 9
# xyz : 10
# AR ADDR IN SB : 1d9
# xyz : 11
# xyz : 12
# xyz : 13
# xyz : 14
# xyz : 15
# xyz : 16
# xyz : 17
# xyz : 18
# xyz : 19
# xyz : 20
# AR ADDR IN SB : 219
# xyz : 21
# xyz : 22
# xyz : 23
# xyz : 24
# xyz : 25
# xyz : 26
# xyz : 27
# AR ADDR IN SB : 1e9
# AFFTER W CHANNEL
# m mon ar id : 7ade
# match arid : 0 , rid : 0
# UVM_INFO ../env/s_agent/axi_s_drv.sv(31) @ 395: uvm_test_top.env_h.s_uvc_h.s_agent_h[0].s_drv_h [ID MATCH] aaaaa
# s seqs arid : 31282
# INIDE_SLAVE_SEQ_CTR=1
# match arid : 7a32 , rid : 7a32
# UVM_INFO ../env/s_agent/axi_s_drv.sv(31) @ 395: uvm_test_top.env_h.s_uvc_h.s_agent_h[0].s_drv_h [ID MATCH] aaaaa
# s seqs arid : 17876
# INIDE_SLAVE_SEQ_CTR=2
# match arid : 45d4 , rid : 45d4
# UVM_INFO ../env/s_agent/axi_s_drv.sv(31) @ 395: uvm_test_top.env_h.s_uvc_h.s_agent_h[0].s_drv_h [ID MATCH] aaaaa
# s seqs arid : 49979
# INIDE_SLAVE_SEQ_CTR=3
# match arid : c33b , rid : c33b
# UVM_INFO ../env/s_agent/axi_s_drv.sv(31) @ 395: uvm_test_top.env_h.s_uvc_h.s_agent_h[0].s_drv_h [ID MATCH] aaaaa
# rd data in s drv: 0 , len : 9 , last:0 , valid : 1
# INIDE_SLAVE_MON_CTR=39
# arid in s mon : 34905
# xyz : 1
# xyz : 2
# xyz : 3
# xyz : 4
# xyz : 5
# xyz : 6
# AR ADDR IN SB : 301
# m mon ar id : 8859
# m mon rid : 7a32
# s seqs arid : 34905
# INIDE_SLAVE_SEQ_CTR=4
# match arid : 8859 , rid : 8859
# UVM_INFO ../env/s_agent/axi_s_drv.sv(31) @ 405: uvm_test_top.env_h.s_uvc_h.s_agent_h[0].s_drv_h [ID MATCH] aaaaa
# rd data in s drv: 0 , len : 9 , last:0 , valid : 1
# INIDE_SLAVE_MON_CTR=40
# arid in s mon : 56093
# m mon rid : 7a32
# m mon ar id : db1d
# req wid : 26408 , bid:26408
# UVM_INFO ../env/m_agent/axi_base_m_seqs.sv(26) @ 415: uvm_test_top.env_h.m_uvc_h.m_agent_h[0].m_seqr_h@@vseqs_h.m_wseqs_h [IN V SEQS] Got B-channel response from driver
# rd data in s drv: 0 , len : 9 , last:0 , valid : 1
# INIDE_SLAVE_MON_CTR=41
# arid in s mon : 8173
# m mon ar id : 1fed
# m mon rid : 7a32
# rd data in s drv: 0 , len : 9 , last:0 , valid : 1
# INIDE_SLAVE_MON_CTR=42
# arid in s mon : 48675
# m mon rid : 7a32
# m mon ar id : be23
# rd data in s drv: 0 , len : 9 , last:0 , valid : 1
# INIDE_SLAVE_MON_CTR=43
# arid in s mon : 42563
# m mon ar id : a643
# m mon rid : 7a32
# rd data in s drv: 0 , len : 9 , last:0 , valid : 1
# INIDE_SLAVE_MON_CTR=44
# arid in s mon : 56402
# m mon rid : 7a32
# m mon ar id : dc52
# rd data in s drv: 0 , len : 9 , last:0 , valid : 1
# INIDE_SLAVE_MON_CTR=45
# arid in s mon : 19394
# m mon ar id : 4bc2
# m mon rid : 7a32
# rd data in s drv: 0 , len : 9 , last:0 , valid : 1
# INIDE_SLAVE_MON_CTR=46
# arid in s mon : 59561
# abc : 1
# ref model mem : 570
# abc : 2
# ref model mem : 578
# abc : 3
# ref model mem : 586
# abc : 4
# ref model mem : 594
# abc : 5
# ref model mem : 602
# abc : 6
# ref model mem : 610
# abc : 7
# ref model mem : 618
# abc : 8
# ref model mem : 626
# xyz : 1
# xyz : 2
# xyz : 3
# xyz : 4
# xyz : 5
# AR ADDR IN SB : 232
# AFFTER W CHANNEL
# m mon rid : 7a32
# m mon ar id : e8a9
# match arid : 0 , rid : 0
# UVM_INFO ../env/s_agent/axi_s_drv.sv(31) @ 475: uvm_test_top.env_h.s_uvc_h.s_agent_h[0].s_drv_h [ID MATCH] aaaaa
# s seqs arid : 28936
# INIDE_SLAVE_SEQ_CTR=5
# match arid : 7108 , rid : 7108
# UVM_INFO ../env/s_agent/axi_s_drv.sv(31) @ 475: uvm_test_top.env_h.s_uvc_h.s_agent_h[0].s_drv_h [ID MATCH] aaaaa
# rd data in s drv: 0 , len : 9 , last:0 , valid : 1
# INIDE_SLAVE_MON_CTR=47
# arid in s mon : 43967
# m mon ar id : abbf
# m mon rid : 7a32
# rd data in s drv: 0 , len : 9 , last:1 , valid : 1
# INIDE_SLAVE_MON_CTR=48
# arid in s mon : 44769
# req kind : READ
# INSIDE BEORE SAMPLE
# -----------------------------------------------
# Name            Type               Size  Value 
# -----------------------------------------------
# axi_m_seq_item  uvm_sequence_item  -     @1998 
#   AWID          integral           16    'h0   
#   AWADDR        integral           32    'h0   
#   AWLEN         integral           8     'd0   
#   AWSIZE        integral           3     'd0   
#   AWBURST       integral           2     'd0   
#   WID           integral           16    'h0   
#   WDATA         da(integral)       0     -     
#   WSTRB         da(integral)       0     -     
#   WLAST         integral           1     'd0   
#   BID           integral           16    'h0   
#   BRESP         integral           2     'd0   
#   ARID          integral           16    'h7a32
#   ARADDR        integral           32    'h1d9 
#   ARLEN         integral           8     'd9   
#   ARSIZE        integral           3     'd3   
#   ARBURST       integral           2     'd1   
#   RID           integral           16    'h7a32
#   RDATA         da(integral)       10    -     
#     [0]         integral           32    'h0   
#     [1]         integral           32    'h0   
#     [2]         integral           32    'h0   
#     [3]         integral           32    'h0   
#     [4]         integral           32    'h0   
#     [5]         integral           32    'h0   
#     [6]         integral           32    'h0   
#     [7]         integral           32    'h0   
#     [8]         integral           32    'h0   
#     [9]         integral           32    'h0   
#   RRESP         integral           2     'd0   
#   RLAST         integral           1     'd0   
#   burst_kind_e  burst_kind         2     FIXED 
#   kind_e        trans_kind         2     READ  
# -----------------------------------------------
# RDATa IN SB : 0 0 0 0 0 0 0 0 0 0
# m mon rid : 7a32
# m mon ar id : aee1
# req wid : 6816 , bid:6816
# UVM_INFO ../env/m_agent/axi_base_m_seqs.sv(26) @ 495: uvm_test_top.env_h.m_uvc_h.m_agent_h[0].m_seqr_h@@vseqs_h.m_wseqs_h [IN V SEQS] Got B-channel response from driver
# UVM_INFO ../env/axi_sb.sv(82) @ 495: uvm_test_top.env_h.sb_h [after event in sb] aaaa
# UVM_INFO ../env/axi_sb.sv(80) @ 495: uvm_test_top.env_h.sb_h [before event in sb] aaaa
# rd data in s drv: 0 , len : 9 , last:0 , valid : 1
# INIDE_SLAVE_MON_CTR=49
# arid in s mon : 52972
# m mon ar id : ceec
# m mon rid : 45d4
# rd data in s drv: 0 , len : 9 , last:0 , valid : 1
# INIDE_SLAVE_MON_CTR=50
# arid in s mon : 6355
# m mon rid : 45d4
# m mon ar id : 18d3
# rd data in s drv: 0 , len : 9 , last:0 , valid : 1
# INIDE_SLAVE_MON_CTR=51
# arid in s mon : 48262
# m mon ar id : bc86
# m mon rid : 45d4
# rd data in s drv: 0 , len : 9 , last:0 , valid : 1
# INIDE_SLAVE_MON_CTR=52
# arid in s mon : 2685
# m mon rid : 45d4
# m mon ar id : a7d
# rd data in s drv: 0 , len : 9 , last:0 , valid : 1
# INIDE_SLAVE_MON_CTR=53
# arid in s mon : 42269
# m mon ar id : a51d
# m mon rid : 45d4
# rd data in s drv: 0 , len : 9 , last:0 , valid : 1
# INIDE_SLAVE_MON_CTR=54
# arid in s mon : 27503
# m mon rid : 45d4
# m mon ar id : 6b6f
# rd data in s drv: 0 , len : 9 , last:0 , valid : 1
# INIDE_SLAVE_MON_CTR=55
# arid in s mon : 34515
# m mon ar id : 86d3
# m mon rid : 45d4
# rd data in s drv: 0 , len : 9 , last:0 , valid : 1
# INIDE_SLAVE_MON_CTR=56
# arid in s mon : 40717
# m mon rid : 45d4
# m mon ar id : 9f0d
# rd data in s drv: 0 , len : 9 , last:0 , valid : 1
# INIDE_SLAVE_MON_CTR=57
# arid in s mon : 13078
# m mon ar id : 3316
# m mon rid : 45d4
# rd data in s drv: 0 , len : 9 , last:1 , valid : 1
# INIDE_SLAVE_MON_CTR=58
# arid in s mon : 32216
# req kind : READ
# INSIDE BEORE SAMPLE
# -----------------------------------------------
# Name            Type               Size  Value 
# -----------------------------------------------
# axi_m_seq_item  uvm_sequence_item  -     @2698 
#   AWID          integral           16    'h0   
#   AWADDR        integral           32    'h0   
#   AWLEN         integral           8     'd0   
#   AWSIZE        integral           3     'd0   
#   AWBURST       integral           2     'd0   
#   WID           integral           16    'h0   
#   WDATA         da(integral)       0     -     
#   WSTRB         da(integral)       0     -     
#   WLAST         integral           1     'd0   
#   BID           integral           16    'h0   
#   BRESP         integral           2     'd0   
#   ARID          integral           16    'h45d4
#   ARADDR        integral           32    'h219 
#   ARLEN         integral           8     'd9   
#   ARSIZE        integral           3     'd3   
#   ARBURST       integral           2     'd1   
#   RID           integral           16    'h45d4
#   RDATA         da(integral)       10    -     
#     [0]         integral           32    'h0   
#     [1]         integral           32    'h0   
#     [2]         integral           32    'h0   
#     [3]         integral           32    'h0   
#     [4]         integral           32    'h0   
#     [5]         integral           32    'h0   
#     [6]         integral           32    'h0   
#     [7]         integral           32    'h0   
#     [8]         integral           32    'h0   
#     [9]         integral           32    'h0   
#   RRESP         integral           2     'd0   
#   RLAST         integral           1     'd0   
#   burst_kind_e  burst_kind         2     FIXED 
#   kind_e        trans_kind         2     READ  
# -----------------------------------------------
# RDATa IN SB : 0 0 0 0 0 0 0 0 0 0
# m mon rid : 45d4
# m mon ar id : 7dd8
# UVM_INFO ../env/axi_sb.sv(82) @ 595: uvm_test_top.env_h.sb_h [after event in sb] aaaa
# UVM_INFO ../env/axi_sb.sv(80) @ 595: uvm_test_top.env_h.sb_h [before event in sb] aaaa
# rd data in s drv: 0 , len : 6 , last:0 , valid : 1
# INIDE_SLAVE_MON_CTR=59
# arid in s mon : 36317
# m mon ar id : 8ddd
# m mon rid : c33b
# rd data in s drv: 0 , len : 6 , last:0 , valid : 1
# INIDE_SLAVE_MON_CTR=60
# arid in s mon : 33691
# m mon rid : c33b
# m mon ar id : 839b
# rd data in s drv: 0 , len : 6 , last:0 , valid : 1
# INIDE_SLAVE_MON_CTR=61
# arid in s mon : 17906
# m mon ar id : 45f2
# m mon rid : c33b
# rd data in s drv: 0 , len : 6 , last:0 , valid : 1
# INIDE_SLAVE_MON_CTR=62
# arid in s mon : 31200
# m mon rid : c33b
# m mon ar id : 79e0
# rd data in s drv: 0 , len : 6 , last:0 , valid : 1
# INIDE_SLAVE_MON_CTR=63
# arid in s mon : 54887
# m mon ar id : d667
# m mon rid : c33b
# rd data in s drv: 0 , len : 6 , last:0 , valid : 1
# INIDE_SLAVE_MON_CTR=64
# arid in s mon : 60217
# m mon rid : c33b
# m mon ar id : eb39
# rd data in s drv: 0 , len : 6 , last:1 , valid : 1
# INIDE_SLAVE_MON_CTR=65
# arid in s mon : 15306
# m mon ar id : 3bca
# req kind : READ
# INSIDE BEORE SAMPLE
# -----------------------------------------------
# Name            Type               Size  Value 
# -----------------------------------------------
# axi_m_seq_item  uvm_sequence_item  -     @4182 
#   AWID          integral           16    'h0   
#   AWADDR        integral           32    'h0   
#   AWLEN         integral           8     'd0   
#   AWSIZE        integral           3     'd0   
#   AWBURST       integral           2     'd0   
#   WID           integral           16    'h0   
#   WDATA         da(integral)       0     -     
#   WSTRB         da(integral)       0     -     
#   WLAST         integral           1     'd0   
#   BID           integral           16    'h0   
#   BRESP         integral           2     'd0   
#   ARID          integral           16    'hc33b
#   ARADDR        integral           32    'h1e9 
#   ARLEN         integral           8     'd6   
#   ARSIZE        integral           3     'd3   
#   ARBURST       integral           2     'd1   
#   RID           integral           16    'hc33b
#   RDATA         da(integral)       7     -     
#     [0]         integral           32    'h0   
#     [1]         integral           32    'h0   
#     [2]         integral           32    'h0   
#     [3]         integral           32    'h0   
#     [4]         integral           32    'h0   
#     [5]         integral           32    'h0   
#     [6]         integral           32    'h0   
#   RRESP         integral           2     'd0   
#   RLAST         integral           1     'd0   
#   burst_kind_e  burst_kind         2     FIXED 
#   kind_e        trans_kind         2     READ  
# -----------------------------------------------
# RDATa IN SB : 0 0 0 0 0 0 0
# m mon rid : c33b
# UVM_INFO ../env/axi_sb.sv(82) @ 665: uvm_test_top.env_h.sb_h [after event in sb] aaaa
# UVM_INFO ../env/axi_sb.sv(80) @ 665: uvm_test_top.env_h.sb_h [before event in sb] aaaa
# rd data in s drv: 0 , len : 5 , last:0 , valid : 1
# INIDE_SLAVE_MON_CTR=66
# arid in s mon : 19842
# m mon rid : 8859
# m mon ar id : 4d82
# rd data in s drv: 0 , len : 5 , last:0 , valid : 1
# INIDE_SLAVE_MON_CTR=67
# arid in s mon : 42698
# m mon ar id : a6ca
# m mon rid : 8859
# rd data in s drv: 0 , len : 5 , last:0 , valid : 1
# INIDE_SLAVE_MON_CTR=68
# arid in s mon : 45363
# m mon rid : 8859
# m mon ar id : b133
# rd data in s drv: 0 , len : 5 , last:0 , valid : 1
# INIDE_SLAVE_MON_CTR=69
# arid in s mon : 44591
# m mon ar id : ae2f
# m mon rid : 8859
# rd data in s drv: 0 , len : 5 , last:0 , valid : 1
# INIDE_SLAVE_MON_CTR=70
# arid in s mon : 23906
# m mon rid : 8859
# m mon ar id : 5d62
# rd data in s drv: 0 , len : 5 , last:1 , valid : 1
# INIDE_SLAVE_MON_CTR=71
# arid in s mon : 19496
# m mon ar id : 4c28
# req kind : READ
# INSIDE BEORE SAMPLE
# -----------------------------------------------
# Name            Type               Size  Value 
# -----------------------------------------------
# axi_m_seq_item  uvm_sequence_item  -     @5867 
#   AWID          integral           16    'h0   
#   AWADDR        integral           32    'h0   
#   AWLEN         integral           8     'd0   
#   AWSIZE        integral           3     'd0   
#   AWBURST       integral           2     'd0   
#   WID           integral           16    'h0   
#   WDATA         da(integral)       0     -     
#   WSTRB         da(integral)       0     -     
#   WLAST         integral           1     'd0   
#   BID           integral           16    'h0   
#   BRESP         integral           2     'd0   
#   ARID          integral           16    'h8859
#   ARADDR        integral           32    'h301 
#   ARLEN         integral           8     'd5   
#   ARSIZE        integral           3     'd3   
#   ARBURST       integral           2     'd1   
#   RID           integral           16    'h8859
#   RDATA         da(integral)       6     -     
#     [0]         integral           32    'h0   
#     [1]         integral           32    'h0   
#     [2]         integral           32    'h0   
#     [3]         integral           32    'h0   
#     [4]         integral           32    'h0   
#     [5]         integral           32    'h0   
#   RRESP         integral           2     'd0   
#   RLAST         integral           1     'd0   
#   burst_kind_e  burst_kind         2     FIXED 
#   kind_e        trans_kind         2     READ  
# -----------------------------------------------
# RDATa IN SB : 0 0 0 0 0 0
# m mon rid : 8859
# UVM_INFO ../env/axi_sb.sv(82) @ 725: uvm_test_top.env_h.sb_h [after event in sb] aaaa
# UVM_INFO ../env/axi_sb.sv(80) @ 725: uvm_test_top.env_h.sb_h [before event in sb] aaaa
# rd data in s drv: 0 , len : 4 , last:0 , valid : 1
# INIDE_SLAVE_MON_CTR=72
# arid in s mon : 25780
# m mon rid : 7108
# m mon ar id : 64b4
# rd data in s drv: 0 , len : 4 , last:0 , valid : 1
# INIDE_SLAVE_MON_CTR=73
# arid in s mon : 33351
# m mon ar id : 8247
# m mon rid : 7108
# rd data in s drv: 0 , len : 4 , last:0 , valid : 1
# INIDE_SLAVE_MON_CTR=74
# arid in s mon : 41754
# m mon rid : 7108
# m mon ar id : a31a
# rd data in s drv: 0 , len : 4 , last:0 , valid : 1
# INIDE_SLAVE_MON_CTR=75
# arid in s mon : 20854
# m mon ar id : 5176
# m mon rid : 7108
# rd data in s drv: 0 , len : 4 , last:1 , valid : 1
# INIDE_SLAVE_MON_CTR=76
# arid in s mon : 8855
# req kind : READ
# INSIDE BEORE SAMPLE
# -----------------------------------------------
# Name            Type               Size  Value 
# -----------------------------------------------
# axi_m_seq_item  uvm_sequence_item  -     @2018 
#   AWID          integral           16    'h0   
#   AWADDR        integral           32    'h0   
#   AWLEN         integral           8     'd0   
#   AWSIZE        integral           3     'd0   
#   AWBURST       integral           2     'd0   
#   WID           integral           16    'h0   
#   WDATA         da(integral)       0     -     
#   WSTRB         da(integral)       0     -     
#   WLAST         integral           1     'd0   
#   BID           integral           16    'h0   
#   BRESP         integral           2     'd0   
#   ARID          integral           16    'h7108
#   ARADDR        integral           32    'h232 
#   ARLEN         integral           8     'd4   
#   ARSIZE        integral           3     'd3   
#   ARBURST       integral           2     'd1   
#   RID           integral           16    'h7108
#   RDATA         da(integral)       5     -     
#     [0]         integral           32    'h0   
#     [1]         integral           32    'h0   
#     [2]         integral           32    'h0   
#     [3]         integral           32    'h0   
#     [4]         integral           32    'h0   
#   RRESP         integral           2     'd0   
#   RLAST         integral           1     'd0   
#   burst_kind_e  burst_kind         2     FIXED 
#   kind_e        trans_kind         2     READ  
# -----------------------------------------------
# RDATa IN SB : 0 0 0 0 0
# m mon rid : 7108
# m mon ar id : 2297
# UVM_INFO ../env/axi_sb.sv(82) @ 775: uvm_test_top.env_h.sb_h [after event in sb] aaaa
# UVM_INFO ../env/axi_sb.sv(80) @ 775: uvm_test_top.env_h.sb_h [before event in sb] aaaa
# INIDE_SLAVE_MON_CTR=77
# arid in s mon : 53040
# xyz : 1
# AR ADDR IN SB : 239
# m mon ar id : cf30
# s seqs arid : 53040
# INIDE_SLAVE_SEQ_CTR=6
# match arid : cf30 , rid : cf30
# UVM_INFO ../env/s_agent/axi_s_drv.sv(31) @ 785: uvm_test_top.env_h.s_uvc_h.s_agent_h[0].s_drv_h [ID MATCH] aaaaa
# rd data in s drv: 0 , len : 0 , last:1 , valid : 1
# INIDE_SLAVE_MON_CTR=78
# arid in s mon : 52605
# m mon ar id : cd7d
# req kind : READ
# INSIDE BEORE SAMPLE
# -----------------------------------------------
# Name            Type               Size  Value 
# -----------------------------------------------
# axi_m_seq_item  uvm_sequence_item  -     @14819
#   AWID          integral           16    'h0   
#   AWADDR        integral           32    'h0   
#   AWLEN         integral           8     'd0   
#   AWSIZE        integral           3     'd0   
#   AWBURST       integral           2     'd0   
#   WID           integral           16    'h0   
#   WDATA         da(integral)       0     -     
#   WSTRB         da(integral)       0     -     
#   WLAST         integral           1     'd0   
#   BID           integral           16    'h0   
#   BRESP         integral           2     'd0   
#   ARID          integral           16    'hcf30
#   ARADDR        integral           32    'h239 
#   ARLEN         integral           8     'd0   
#   ARSIZE        integral           3     'd3   
#   ARBURST       integral           2     'd1   
#   RID           integral           16    'hcf30
#   RDATA         da(integral)       1     -     
#     [0]         integral           32    'h0   
#   RRESP         integral           2     'd0   
#   RLAST         integral           1     'd0   
#   burst_kind_e  burst_kind         2     FIXED 
#   kind_e        trans_kind         2     READ  
# -----------------------------------------------
# RDATa IN SB : 0
# m mon rid : cf30
# UVM_INFO ../env/axi_sb.sv(82) @ 795: uvm_test_top.env_h.sb_h [after event in sb] aaaa
# UVM_INFO ../env/axi_sb.sv(80) @ 795: uvm_test_top.env_h.sb_h [before event in sb] aaaa
# INIDE_SLAVE_MON_CTR=79
# arid in s mon : 56265
# m mon ar id : dbc9
# INIDE_SLAVE_MON_CTR=80
# arid in s mon : 31238
# m mon ar id : 7a06
# INIDE_SLAVE_MON_CTR=81
# arid in s mon : 61693
# m mon ar id : f0fd
# INIDE_SLAVE_MON_CTR=82
# arid in s mon : 62795
# m mon ar id : f54b
# INIDE_SLAVE_MON_CTR=83
# arid in s mon : 54123
# m mon ar id : d36b
# INIDE_SLAVE_MON_CTR=84
# arid in s mon : 30610
# m mon ar id : 7792
# INIDE_SLAVE_MON_CTR=85
# arid in s mon : 27708
# m mon ar id : 6c3c
# INIDE_SLAVE_MON_CTR=86
# arid in s mon : 31298
# m mon ar id : 7a42
# INIDE_SLAVE_MON_CTR=87
# arid in s mon : 26663
# m mon ar id : 6827
# INIDE_SLAVE_MON_CTR=88
# arid in s mon : 27406
# m mon ar id : 6b0e
# INIDE_SLAVE_MON_CTR=89
# arid in s mon : 5462
# m mon ar id : 1556
# INIDE_SLAVE_MON_CTR=90
# arid in s mon : 48932
# m mon ar id : bf24
# INIDE_SLAVE_MON_CTR=91
# arid in s mon : 5592
# m mon ar id : 15d8
# INIDE_SLAVE_MON_CTR=92
# arid in s mon : 12460
# m mon ar id : 30ac
# INIDE_SLAVE_MON_CTR=93
# arid in s mon : 7732
# m mon ar id : 1e34
# INIDE_SLAVE_MON_CTR=94
# arid in s mon : 37020
# m mon ar id : 909c
# INIDE_SLAVE_MON_CTR=95
# arid in s mon : 12475
# xyz : 1
# xyz : 2
# xyz : 3
# xyz : 4
# AR ADDR IN SB : 23a
# m mon ar id : 30bb
# s seqs arid : 12475
# INIDE_SLAVE_SEQ_CTR=7
# match arid : 30bb , rid : 30bb
# UVM_INFO ../env/s_agent/axi_s_drv.sv(31) @ 965: uvm_test_top.env_h.s_uvc_h.s_agent_h[0].s_drv_h [ID MATCH] aaaaa
# rd data in s drv: 0 , len : 3 , last:0 , valid : 1
# INIDE_SLAVE_MON_CTR=96
# arid in s mon : 12814
# m mon ar id : 320e
# m mon rid : 30bb
# rd data in s drv: 0 , len : 3 , last:0 , valid : 1
# INIDE_SLAVE_MON_CTR=97
# arid in s mon : 53371
# m mon rid : 30bb
# m mon ar id : d07b
# rd data in s drv: 0 , len : 3 , last:0 , valid : 1
# INIDE_SLAVE_MON_CTR=98
# arid in s mon : 58560
# xyz : 1
# xyz : 2
# xyz : 3
# xyz : 4
# xyz : 5
# xyz : 6
# xyz : 7
# xyz : 8
# xyz : 9
# AR ADDR IN SB : 281
# m mon ar id : e4c0
# m mon rid : 30bb
# s seqs arid : 58560
# INIDE_SLAVE_SEQ_CTR=8
# match arid : e4c0 , rid : e4c0
# UVM_INFO ../env/s_agent/axi_s_drv.sv(31) @ 995: uvm_test_top.env_h.s_uvc_h.s_agent_h[0].s_drv_h [ID MATCH] aaaaa
# rd data in s drv: 0 , len : 3 , last:1 , valid : 1
# INIDE_SLAVE_MON_CTR=99
# arid in s mon : 14820
# req kind : READ
# INSIDE BEORE SAMPLE
# -----------------------------------------------
# Name            Type               Size  Value 
# -----------------------------------------------
# axi_m_seq_item  uvm_sequence_item  -     @20907
#   AWID          integral           16    'h0   
#   AWADDR        integral           32    'h0   
#   AWLEN         integral           8     'd0   
#   AWSIZE        integral           3     'd0   
#   AWBURST       integral           2     'd0   
#   WID           integral           16    'h0   
#   WDATA         da(integral)       0     -     
#   WSTRB         da(integral)       0     -     
#   WLAST         integral           1     'd0   
#   BID           integral           16    'h0   
#   BRESP         integral           2     'd0   
#   ARID          integral           16    'h30bb
#   ARADDR        integral           32    'h23a 
#   ARLEN         integral           8     'd3   
#   ARSIZE        integral           3     'd3   
#   ARBURST       integral           2     'd1   
#   RID           integral           16    'h30bb
#   RDATA         da(integral)       4     -     
#     [0]         integral           32    'h0   
#     [1]         integral           32    'h0   
#     [2]         integral           32    'h0   
#     [3]         integral           32    'h0   
#   RRESP         integral           2     'd0   
#   RLAST         integral           1     'd0   
#   burst_kind_e  burst_kind         2     FIXED 
#   kind_e        trans_kind         2     READ  
# -----------------------------------------------
# RDATa IN SB : 0 0 0 0
# m mon rid : 30bb
# m mon ar id : 39e4
# UVM_INFO ../env/axi_sb.sv(82) @ 1005: uvm_test_top.env_h.sb_h [after event in sb] aaaa
# UVM_INFO ../env/axi_sb.sv(80) @ 1005: uvm_test_top.env_h.sb_h [before event in sb] aaaa
# rd data in s drv: 0 , len : 8 , last:0 , valid : 1
# INIDE_SLAVE_MON_CTR=100
# arid in s mon : 19785
# m mon ar id : 4d49
# m mon rid : e4c0
# rd data in s drv: 0 , len : 8 , last:0 , valid : 1
# m mon rid : e4c0
# rd data in s drv: 0 , len : 8 , last:0 , valid : 1
# m mon rid : e4c0
# rd data in s drv: 0 , len : 8 , last:0 , valid : 1
# m mon rid : e4c0
# rd data in s drv: 0 , len : 8 , last:0 , valid : 1
# m mon rid : e4c0
# rd data in s drv: 0 , len : 8 , last:0 , valid : 1
# m mon rid : e4c0
# rd data in s drv: 0 , len : 8 , last:0 , valid : 1
# m mon rid : e4c0
# rd data in s drv: 0 , len : 8 , last:0 , valid : 1
# m mon rid : e4c0
# rd data in s drv: 0 , len : 8 , last:1 , valid : 1
# req kind : READ
# INSIDE BEORE SAMPLE
# -----------------------------------------------
# Name            Type               Size  Value 
# -----------------------------------------------
# axi_m_seq_item  uvm_sequence_item  -     @22035
#   AWID          integral           16    'h0   
#   AWADDR        integral           32    'h0   
#   AWLEN         integral           8     'd0   
#   AWSIZE        integral           3     'd0   
#   AWBURST       integral           2     'd0   
#   WID           integral           16    'h0   
#   WDATA         da(integral)       0     -     
#   WSTRB         da(integral)       0     -     
#   WLAST         integral           1     'd0   
#   BID           integral           16    'h0   
#   BRESP         integral           2     'd0   
#   ARID          integral           16    'he4c0
#   ARADDR        integral           32    'h281 
#   ARLEN         integral           8     'd8   
#   ARSIZE        integral           3     'd3   
#   ARBURST       integral           2     'd1   
#   RID           integral           16    'he4c0
#   RDATA         da(integral)       9     -     
#     [0]         integral           32    'h0   
#     [1]         integral           32    'h0   
#     [2]         integral           32    'h0   
#     [3]         integral           32    'h0   
#     [4]         integral           32    'h0   
#     [5]         integral           32    'h0   
#     [6]         integral           32    'h0   
#     [7]         integral           32    'h0   
#     [8]         integral           32    'h0   
#   RRESP         integral           2     'd0   
#   RLAST         integral           1     'd0   
#   burst_kind_e  burst_kind         2     FIXED 
#   kind_e        trans_kind         2     READ  
# -----------------------------------------------
# RDATa IN SB : 0 0 0 0 0 0 0 0 0
# m mon rid : e4c0
# UVM_INFO ../env/axi_sb.sv(82) @ 1095: uvm_test_top.env_h.sb_h [after event in sb] aaaa
# UVM_INFO ../env/axi_sb.sv(80) @ 1095: uvm_test_top.env_h.sb_h [before event in sb] aaaa
# abc : 1
# ref model mem : 496
# abc : 2
# ref model mem : 504
# abc : 3
# ref model mem : 512
# abc : 4
# ref model mem : 520
# abc : 5
# ref model mem : 528
# abc : 6
# ref model mem : 536
# abc : 7
# ref model mem : 544
# abc : 8
# ref model mem : 552
# abc : 9
# ref model mem : 560
# abc : 10
# ref model mem : 568
# abc : 11
# ref model mem : 576
# abc : 12
# ref model mem : 584
# abc : 13
# ref model mem : 592
# abc : 14
# ref model mem : 600
# abc : 15
# ref model mem : 608
# abc : 16
# ref model mem : 616
# abc : 17
# ref model mem : 624
# abc : 18
# ref model mem : 632
# abc : 19
# ref model mem : 640
# abc : 20
# ref model mem : 648
# abc : 21
# ref model mem : 656
# abc : 22
# ref model mem : 664
# abc : 23
# ref model mem : 672
# abc : 24
# ref model mem : 680
# abc : 25
# ref model mem : 688
# abc : 26
# ref model mem : 696
# abc : 27
# ref model mem : 704
# abc : 28
# ref model mem : 712
# abc : 29
# ref model mem : 720
# abc : 30
# ref model mem : 728
# abc : 31
# ref model mem : 736
# abc : 32
# ref model mem : 744
# abc : 33
# ref model mem : 752
# abc : 34
# ref model mem : 760
# abc : 35
# ref model mem : 768
# abc : 36
# ref model mem : 776
# abc : 37
# ref model mem : 784
# abc : 38
# ref model mem : 792
# abc : 39
# ref model mem : 800
# abc : 40
# ref model mem : 808
# abc : 41
# ref model mem : 816
# abc : 42
# ref model mem : 824
# abc : 43
# ref model mem : 832
# abc : 44
# ref model mem : 840
# abc : 45
# ref model mem : 848
# abc : 46
# ref model mem : 856
# abc : 47
# ref model mem : 864
# abc : 48
# ref model mem : 872
# abc : 49
# ref model mem : 880
# abc : 50
# ref model mem : 888
# abc : 51
# ref model mem : 896
# abc : 52
# ref model mem : 904
# abc : 53
# ref model mem : 912
# abc : 54
# ref model mem : 920
# abc : 55
# ref model mem : 928
# abc : 56
# ref model mem : 936
# abc : 57
# ref model mem : 944
# abc : 58
# ref model mem : 952
# abc : 59
# ref model mem : 960
# abc : 60
# ref model mem : 968
# abc : 61
# ref model mem : 976
# abc : 62
# ref model mem : 984
# abc : 63
# ref model mem : 992
# abc : 64
# ref model mem : 1000
# abc : 65
# ref model mem : 1008
# abc : 66
# ref model mem : 1016
# abc : 67
# ref model mem : 1024
# abc : 68
# ref model mem : 1032
# abc : 69
# ref model mem : 1040
# abc : 70
# ref model mem : 1048
# abc : 71
# ref model mem : 1056
# abc : 72
# ref model mem : 1064
# abc : 73
# ref model mem : 1072
# abc : 74
# ref model mem : 1080
# abc : 75
# ref model mem : 1088
# abc : 76
# ref model mem : 1096
# abc : 77
# ref model mem : 1104
# abc : 78
# ref model mem : 1112
# abc : 79
# ref model mem : 1120
# abc : 80
# ref model mem : 1128
# abc : 81
# ref model mem : 1136
# abc : 82
# ref model mem : 1144
# abc : 83
# ref model mem : 1152
# abc : 84
# ref model mem : 1160
# abc : 85
# ref model mem : 1168
# abc : 86
# ref model mem : 1176
# abc : 87
# ref model mem : 1184
# abc : 88
# ref model mem : 1192
# abc : 89
# ref model mem : 1200
# abc : 90
# ref model mem : 1208
# abc : 91
# ref model mem : 1216
# abc : 92
# ref model mem : 1224
# abc : 93
# ref model mem : 1232
# abc : 94
# ref model mem : 1240
# abc : 95
# ref model mem : 1248
# abc : 96
# ref model mem : 1256
# abc : 97
# ref model mem : 1264
# xyz : 1
# xyz : 2
# xyz : 3
# xyz : 4
# AR ADDR IN SB : 1e8
# xyz : 5
# xyz : 6
# xyz : 7
# xyz : 8
# xyz : 9
# xyz : 10
# xyz : 11
# xyz : 12
# xyz : 13
# xyz : 14
# xyz : 15
# AR ADDR IN SB : 288
# xyz : 16
# AR ADDR IN SB : 328
# xyz : 17
# xyz : 18
# xyz : 19
# xyz : 20
# xyz : 21
# xyz : 22
# xyz : 23
# xyz : 24
# xyz : 25
# xyz : 26
# xyz : 27
# AR ADDR IN SB : 310
# xyz : 28
# xyz : 29
# xyz : 30
# xyz : 31
# AR ADDR IN SB : 268
# xyz : 32
# xyz : 33
# xyz : 34
# xyz : 35
# xyz : 36
# AR ADDR IN SB : 2f8
# xyz : 37
# xyz : 38
# xyz : 39
# xyz : 40
# xyz : 41
# xyz : 42
# xyz : 43
# xyz : 44
# xyz : 45
# xyz : 46
# AR ADDR IN SB : 228
# xyz : 47
# xyz : 48
# xyz : 49
# xyz : 50
# AR ADDR IN SB : 398
# xyz : 51
# xyz : 52
# xyz : 53
# xyz : 54
# xyz : 55
# xyz : 56
# xyz : 57
# xyz : 58
# xyz : 59
# xyz : 60
# xyz : 61
# AR ADDR IN SB : 350
# xyz : 62
# xyz : 63
# xyz : 64
# xyz : 65
# xyz : 66
# xyz : 67
# xyz : 68
# xyz : 69
# xyz : 70
# AR ADDR IN SB : 290
# AFFTER W CHANNEL
# match arid : 0 , rid : 0
# UVM_INFO ../env/s_agent/axi_s_drv.sv(31) @ 1445: uvm_test_top.env_h.s_uvc_h.s_agent_h[0].s_drv_h [ID MATCH] aaaaa
# s seqs arid : 35198
# INIDE_SLAVE_SEQ_CTR=9
# match arid : 897e , rid : 897e
# UVM_INFO ../env/s_agent/axi_s_drv.sv(31) @ 1445: uvm_test_top.env_h.s_uvc_h.s_agent_h[0].s_drv_h [ID MATCH] aaaaa
# s seqs arid : 21001
# INIDE_SLAVE_SEQ_CTR=10
# match arid : 5209 , rid : 5209
# UVM_INFO ../env/s_agent/axi_s_drv.sv(31) @ 1445: uvm_test_top.env_h.s_uvc_h.s_agent_h[0].s_drv_h [ID MATCH] aaaaa
# s seqs arid : 27690
# INIDE_SLAVE_SEQ_CTR=11
# match arid : 6c2a , rid : 6c2a
# UVM_INFO ../env/s_agent/axi_s_drv.sv(31) @ 1445: uvm_test_top.env_h.s_uvc_h.s_agent_h[0].s_drv_h [ID MATCH] aaaaa
# s seqs arid : 55326
# INIDE_SLAVE_SEQ_CTR=12
# match arid : d81e , rid : d81e
# UVM_INFO ../env/s_agent/axi_s_drv.sv(31) @ 1445: uvm_test_top.env_h.s_uvc_h.s_agent_h[0].s_drv_h [ID MATCH] aaaaa
# s seqs arid : 56093
# INIDE_SLAVE_SEQ_CTR=13
# match arid : db1d , rid : db1d
# UVM_INFO ../env/s_agent/axi_s_drv.sv(31) @ 1445: uvm_test_top.env_h.s_uvc_h.s_agent_h[0].s_drv_h [ID MATCH] aaaaa
# s seqs arid : 44591
# INIDE_SLAVE_SEQ_CTR=14
# match arid : ae2f , rid : ae2f
# UVM_INFO ../env/s_agent/axi_s_drv.sv(31) @ 1445: uvm_test_top.env_h.s_uvc_h.s_agent_h[0].s_drv_h [ID MATCH] aaaaa
# s seqs arid : 8855
# INIDE_SLAVE_SEQ_CTR=15
# match arid : 2297 , rid : 2297
# UVM_INFO ../env/s_agent/axi_s_drv.sv(31) @ 1445: uvm_test_top.env_h.s_uvc_h.s_agent_h[0].s_drv_h [ID MATCH] aaaaa
# s seqs arid : 31238
# INIDE_SLAVE_SEQ_CTR=16
# match arid : 7a06 , rid : 7a06
# UVM_INFO ../env/s_agent/axi_s_drv.sv(31) @ 1445: uvm_test_top.env_h.s_uvc_h.s_agent_h[0].s_drv_h [ID MATCH] aaaaa
# s seqs arid : 27406
# INIDE_SLAVE_SEQ_CTR=17
# match arid : 6b0e , rid : 6b0e
# UVM_INFO ../env/s_agent/axi_s_drv.sv(31) @ 1445: uvm_test_top.env_h.s_uvc_h.s_agent_h[0].s_drv_h [ID MATCH] aaaaa
# s seqs arid : 5592
# INIDE_SLAVE_SEQ_CTR=18
# match arid : 15d8 , rid : 15d8
# UVM_INFO ../env/s_agent/axi_s_drv.sv(31) @ 1445: uvm_test_top.env_h.s_uvc_h.s_agent_h[0].s_drv_h [ID MATCH] aaaaa
# rd data in s drv: 0 , len : 3 , last:0 , valid : 1
# m mon rid : 897e
# rd data in s drv: 0 , len : 3 , last:0 , valid : 1
# m mon rid : 897e
# req wid : 59705 , bid:59705
# UVM_INFO ../env/m_agent/axi_base_m_seqs.sv(26) @ 1465: uvm_test_top.env_h.m_uvc_h.m_agent_h[0].m_seqr_h@@vseqs_h.m_wseqs_h [IN V SEQS] Got B-channel response from driver
# rd data in s drv: 0 , len : 3 , last:0 , valid : 1
# m mon rid : 897e
# rd data in s drv: 0 , len : 3 , last:1 , valid : 1
# req kind : READ
# INSIDE BEORE SAMPLE
# -----------------------------------------------
# Name            Type               Size  Value 
# -----------------------------------------------
# axi_m_seq_item  uvm_sequence_item  -     @2050 
#   AWID          integral           16    'h0   
#   AWADDR        integral           32    'h0   
#   AWLEN         integral           8     'd0   
#   AWSIZE        integral           3     'd0   
#   AWBURST       integral           2     'd0   
#   WID           integral           16    'h0   
#   WDATA         da(integral)       0     -     
#   WSTRB         da(integral)       0     -     
#   WLAST         integral           1     'd0   
#   BID           integral           16    'h0   
#   BRESP         integral           2     'd0   
#   ARID          integral           16    'h897e
#   ARADDR        integral           32    'h1e8 
#   ARLEN         integral           8     'd3   
#   ARSIZE        integral           3     'd3   
#   ARBURST       integral           2     'd1   
#   RID           integral           16    'h897e
#   RDATA         da(integral)       4     -     
#     [0]         integral           32    'h0   
#     [1]         integral           32    'h0   
#     [2]         integral           32    'h0   
#     [3]         integral           32    'h0   
#   RRESP         integral           2     'd0   
#   RLAST         integral           1     'd0   
#   burst_kind_e  burst_kind         2     FIXED 
#   kind_e        trans_kind         2     READ  
# -----------------------------------------------
# RDATa IN SB : 0 0 0 0
# m mon rid : 897e
# UVM_INFO ../env/axi_sb.sv(82) @ 1485: uvm_test_top.env_h.sb_h [after event in sb] aaaa
# UVM_INFO ../env/axi_sb.sv(80) @ 1485: uvm_test_top.env_h.sb_h [before event in sb] aaaa
# rd data in s drv: 0 , len : 10 , last:0 , valid : 1
# m mon rid : 5209
# rd data in s drv: 0 , len : 10 , last:0 , valid : 1
# m mon rid : 5209
# rd data in s drv: 0 , len : 10 , last:0 , valid : 1
# m mon rid : 5209
# rd data in s drv: 0 , len : 10 , last:0 , valid : 1
# m mon rid : 5209
# rd data in s drv: 0 , len : 10 , last:0 , valid : 1
# m mon rid : 5209
# rd data in s drv: 0 , len : 10 , last:0 , valid : 1
# m mon rid : 5209
# rd data in s drv: 0 , len : 10 , last:0 , valid : 1
# m mon rid : 5209
# rd data in s drv: 0 , len : 10 , last:0 , valid : 1
# m mon rid : 5209
# rd data in s drv: 0 , len : 10 , last:0 , valid : 1
# m mon rid : 5209
# rd data in s drv: 0 , len : 10 , last:0 , valid : 1
# m mon rid : 5209
# rd data in s drv: 0 , len : 10 , last:1 , valid : 1
# req kind : READ
# INSIDE BEORE SAMPLE
# -----------------------------------------------
# Name            Type               Size  Value 
# -----------------------------------------------
# axi_m_seq_item  uvm_sequence_item  -     @2202 
#   AWID          integral           16    'h0   
#   AWADDR        integral           32    'h0   
#   AWLEN         integral           8     'd0   
#   AWSIZE        integral           3     'd0   
#   AWBURST       integral           2     'd0   
#   WID           integral           16    'h0   
#   WDATA         da(integral)       0     -     
#   WSTRB         da(integral)       0     -     
#   WLAST         integral           1     'd0   
#   BID           integral           16    'h0   
#   BRESP         integral           2     'd0   
#   ARID          integral           16    'h5209
#   ARADDR        integral           32    'h288 
#   ARLEN         integral           8     'd10  
#   ARSIZE        integral           3     'd3   
#   ARBURST       integral           2     'd1   
#   RID           integral           16    'h5209
#   RDATA         da(integral)       11    -     
#     [0]         integral           32    'h0   
#     [1]         integral           32    'h0   
#     [2]         integral           32    'h0   
#     [3]         integral           32    'h0   
#     [4]         integral           32    'h0   
#     ...         ...                ...   ...   
#     [6]         integral           32    'h0   
#     [7]         integral           32    'h0   
#     [8]         integral           32    'h0   
#     [9]         integral           32    'h0   
#     [10]        integral           32    'h0   
#   RRESP         integral           2     'd0   
#   RLAST         integral           1     'd0   
#   burst_kind_e  burst_kind         2     FIXED 
#   kind_e        trans_kind         2     READ  
# -----------------------------------------------
# RDATa IN SB : 0 0 0 0 0 0 0 0 0 0 0
# m mon rid : 5209
# UVM_INFO ../env/axi_sb.sv(82) @ 1595: uvm_test_top.env_h.sb_h [after event in sb] aaaa
# UVM_INFO ../env/axi_sb.sv(80) @ 1595: uvm_test_top.env_h.sb_h [before event in sb] aaaa
# rd data in s drv: 0 , len : 0 , last:1 , valid : 1
# req kind : READ
# INSIDE BEORE SAMPLE
# -----------------------------------------------
# Name            Type               Size  Value 
# -----------------------------------------------
# axi_m_seq_item  uvm_sequence_item  -     @2478 
#   AWID          integral           16    'h0   
#   AWADDR        integral           32    'h0   
#   AWLEN         integral           8     'd0   
#   AWSIZE        integral           3     'd0   
#   AWBURST       integral           2     'd0   
#   WID           integral           16    'h0   
#   WDATA         da(integral)       0     -     
#   WSTRB         da(integral)       0     -     
#   WLAST         integral           1     'd0   
#   BID           integral           16    'h0   
#   BRESP         integral           2     'd0   
#   ARID          integral           16    'h6c2a
#   ARADDR        integral           32    'h328 
#   ARLEN         integral           8     'd0   
#   ARSIZE        integral           3     'd3   
#   ARBURST       integral           2     'd1   
#   RID           integral           16    'h6c2a
#   RDATA         da(integral)       1     -     
#     [0]         integral           32    'h0   
#   RRESP         integral           2     'd0   
#   RLAST         integral           1     'd0   
#   burst_kind_e  burst_kind         2     FIXED 
#   kind_e        trans_kind         2     READ  
# -----------------------------------------------
# RDATa IN SB : 0
# m mon rid : 6c2a
# UVM_INFO ../env/axi_sb.sv(82) @ 1605: uvm_test_top.env_h.sb_h [after event in sb] aaaa
# UVM_INFO ../env/axi_sb.sv(80) @ 1605: uvm_test_top.env_h.sb_h [before event in sb] aaaa
# rd data in s drv: 0 , len : 10 , last:0 , valid : 1
# m mon rid : d81e
# rd data in s drv: 0 , len : 10 , last:0 , valid : 1
# m mon rid : d81e
# rd data in s drv: 0 , len : 10 , last:0 , valid : 1
# m mon rid : d81e
# rd data in s drv: 0 , len : 10 , last:0 , valid : 1
# m mon rid : d81e
# rd data in s drv: 0 , len : 10 , last:0 , valid : 1
# m mon rid : d81e
# rd data in s drv: 0 , len : 10 , last:0 , valid : 1
# m mon rid : d81e
# rd data in s drv: 0 , len : 10 , last:0 , valid : 1
# m mon rid : d81e
# rd data in s drv: 0 , len : 10 , last:0 , valid : 1
# m mon rid : d81e
# rd data in s drv: 0 , len : 10 , last:0 , valid : 1
# m mon rid : d81e
# rd data in s drv: 0 , len : 10 , last:0 , valid : 1
# m mon rid : d81e
# rd data in s drv: 0 , len : 10 , last:1 , valid : 1
# req kind : READ
# INSIDE BEORE SAMPLE
# -----------------------------------------------
# Name            Type               Size  Value 
# -----------------------------------------------
# axi_m_seq_item  uvm_sequence_item  -     @5382 
#   AWID          integral           16    'h0   
#   AWADDR        integral           32    'h0   
#   AWLEN         integral           8     'd0   
#   AWSIZE        integral           3     'd0   
#   AWBURST       integral           2     'd0   
#   WID           integral           16    'h0   
#   WDATA         da(integral)       0     -     
#   WSTRB         da(integral)       0     -     
#   WLAST         integral           1     'd0   
#   BID           integral           16    'h0   
#   BRESP         integral           2     'd0   
#   ARID          integral           16    'hd81e
#   ARADDR        integral           32    'h310 
#   ARLEN         integral           8     'd10  
#   ARSIZE        integral           3     'd3   
#   ARBURST       integral           2     'd1   
#   RID           integral           16    'hd81e
#   RDATA         da(integral)       11    -     
#     [0]         integral           32    'h0   
#     [1]         integral           32    'h0   
#     [2]         integral           32    'h0   
#     [3]         integral           32    'h0   
#     [4]         integral           32    'h0   
#     ...         ...                ...   ...   
#     [6]         integral           32    'h0   
#     [7]         integral           32    'h0   
#     [8]         integral           32    'h0   
#     [9]         integral           32    'h0   
#     [10]        integral           32    'h0   
#   RRESP         integral           2     'd0   
#   RLAST         integral           1     'd0   
#   burst_kind_e  burst_kind         2     FIXED 
#   kind_e        trans_kind         2     READ  
# -----------------------------------------------
# RDATa IN SB : 0 0 0 0 0 0 0 0 0 0 0
# m mon rid : d81e
# UVM_INFO ../env/axi_sb.sv(82) @ 1715: uvm_test_top.env_h.sb_h [after event in sb] aaaa
# UVM_INFO ../env/axi_sb.sv(80) @ 1715: uvm_test_top.env_h.sb_h [before event in sb] aaaa
# rd data in s drv: 0 , len : 3 , last:0 , valid : 1
# m mon rid : db1d
# rd data in s drv: 0 , len : 3 , last:0 , valid : 1
# m mon rid : db1d
# rd data in s drv: 0 , len : 3 , last:0 , valid : 1
# m mon rid : db1d
# rd data in s drv: 0 , len : 3 , last:1 , valid : 1
# req kind : READ
# INSIDE BEORE SAMPLE
# -----------------------------------------------
# Name            Type               Size  Value 
# -----------------------------------------------
# axi_m_seq_item  uvm_sequence_item  -     @6031 
#   AWID          integral           16    'h0   
#   AWADDR        integral           32    'h0   
#   AWLEN         integral           8     'd0   
#   AWSIZE        integral           3     'd0   
#   AWBURST       integral           2     'd0   
#   WID           integral           16    'h0   
#   WDATA         da(integral)       0     -     
#   WSTRB         da(integral)       0     -     
#   WLAST         integral           1     'd0   
#   BID           integral           16    'h0   
#   BRESP         integral           2     'd0   
#   ARID          integral           16    'hdb1d
#   ARADDR        integral           32    'h268 
#   ARLEN         integral           8     'd3   
#   ARSIZE        integral           3     'd3   
#   ARBURST       integral           2     'd1   
#   RID           integral           16    'hdb1d
#   RDATA         da(integral)       4     -     
#     [0]         integral           32    'h0   
#     [1]         integral           32    'h0   
#     [2]         integral           32    'h0   
#     [3]         integral           32    'h0   
#   RRESP         integral           2     'd0   
#   RLAST         integral           1     'd0   
#   burst_kind_e  burst_kind         2     FIXED 
#   kind_e        trans_kind         2     READ  
# -----------------------------------------------
# RDATa IN SB : 0 0 0 0
# m mon rid : db1d
# UVM_INFO ../env/axi_sb.sv(82) @ 1755: uvm_test_top.env_h.sb_h [after event in sb] aaaa
# UVM_INFO ../env/axi_sb.sv(80) @ 1755: uvm_test_top.env_h.sb_h [before event in sb] aaaa
# rd data in s drv: 0 , len : 4 , last:0 , valid : 1
# m mon rid : ae2f
# rd data in s drv: 0 , len : 4 , last:0 , valid : 1
# m mon rid : ae2f
# rd data in s drv: 0 , len : 4 , last:0 , valid : 1
# m mon rid : ae2f
# rd data in s drv: 0 , len : 4 , last:0 , valid : 1
# abc : 1
# ref model mem : 219
# abc : 2
# ref model mem : 227
# abc : 3
# ref model mem : 235
# abc : 4
# ref model mem : 243
# abc : 5
# ref model mem : 251
# abc : 6
# ref model mem : 259
# abc : 7
# ref model mem : 267
# abc : 8
# ref model mem : 275
# abc : 9
# ref model mem : 283
# abc : 10
# ref model mem : 291
# abc : 11
# ref model mem : 299
# abc : 12
# ref model mem : 307
# abc : 13
# ref model mem : 315
# abc : 14
# ref model mem : 323
# abc : 15
# ref model mem : 331
# abc : 16
# ref model mem : 339
# abc : 17
# ref model mem : 347
# abc : 18
# ref model mem : 355
# abc : 19
# ref model mem : 363
# abc : 20
# ref model mem : 371
# abc : 21
# ref model mem : 379
# abc : 22
# ref model mem : 387
# abc : 23
# ref model mem : 395
# abc : 24
# ref model mem : 403
# abc : 25
# ref model mem : 411
# abc : 26
# ref model mem : 419
# abc : 27
# ref model mem : 427
# abc : 28
# ref model mem : 435
# abc : 29
# ref model mem : 443
# abc : 30
# ref model mem : 451
# abc : 31
# ref model mem : 459
# abc : 32
# ref model mem : 467
# abc : 33
# ref model mem : 475
# abc : 34
# ref model mem : 483
# abc : 35
# ref model mem : 491
# xyz : 1
# xyz : 2
# xyz : 3
# xyz : 4
# xyz : 5
# AR ADDR IN SB : d3
# xyz : 6
# AR ADDR IN SB : 18b
# xyz : 7
# xyz : 8
# xyz : 9
# xyz : 10
# xyz : 11
# xyz : 12
# xyz : 13
# xyz : 14
# xyz : 15
# xyz : 16
# xyz : 17
# AR ADDR IN SB : e3
# AFFTER W CHANNEL
# m mon rid : ae2f
# match arid : 0 , rid : 0
# UVM_INFO ../env/s_agent/axi_s_drv.sv(31) @ 1795: uvm_test_top.env_h.s_uvc_h.s_agent_h[0].s_drv_h [ID MATCH] aaaaa
# s seqs arid : 7915
# INIDE_SLAVE_SEQ_CTR=19
# match arid : 1eeb , rid : 1eeb
# UVM_INFO ../env/s_agent/axi_s_drv.sv(31) @ 1795: uvm_test_top.env_h.s_uvc_h.s_agent_h[0].s_drv_h [ID MATCH] aaaaa
# s seqs arid : 47319
# INIDE_SLAVE_SEQ_CTR=20
# match arid : b8d7 , rid : b8d7
# UVM_INFO ../env/s_agent/axi_s_drv.sv(31) @ 1795: uvm_test_top.env_h.s_uvc_h.s_agent_h[0].s_drv_h [ID MATCH] aaaaa
# s seqs arid : 40717
# INIDE_SLAVE_SEQ_CTR=21
# match arid : 9f0d , rid : 9f0d
# UVM_INFO ../env/s_agent/axi_s_drv.sv(31) @ 1795: uvm_test_top.env_h.s_uvc_h.s_agent_h[0].s_drv_h [ID MATCH] aaaaa
# rd data in s drv: 0 , len : 4 , last:1 , valid : 1
# req kind : READ
# INSIDE BEORE SAMPLE
# -----------------------------------------------
# Name            Type               Size  Value 
# -----------------------------------------------
# axi_m_seq_item  uvm_sequence_item  -     @12499
#   AWID          integral           16    'h0   
#   AWADDR        integral           32    'h0   
#   AWLEN         integral           8     'd0   
#   AWSIZE        integral           3     'd0   
#   AWBURST       integral           2     'd0   
#   WID           integral           16    'h0   
#   WDATA         da(integral)       0     -     
#   WSTRB         da(integral)       0     -     
#   WLAST         integral           1     'd0   
#   BID           integral           16    'h0   
#   BRESP         integral           2     'd0   
#   ARID          integral           16    'hae2f
#   ARADDR        integral           32    'h2f8 
#   ARLEN         integral           8     'd4   
#   ARSIZE        integral           3     'd3   
#   ARBURST       integral           2     'd1   
#   RID           integral           16    'hae2f
#   RDATA         da(integral)       5     -     
#     [0]         integral           32    'h0   
#     [1]         integral           32    'h0   
#     [2]         integral           32    'h0   
#     [3]         integral           32    'h0   
#     [4]         integral           32    'h0   
#   RRESP         integral           2     'd0   
#   RLAST         integral           1     'd0   
#   burst_kind_e  burst_kind         2     FIXED 
#   kind_e        trans_kind         2     READ  
# -----------------------------------------------
# RDATa IN SB : 0 0 0 0 0
# m mon rid : ae2f
# UVM_INFO ../env/axi_sb.sv(82) @ 1805: uvm_test_top.env_h.sb_h [after event in sb] aaaa
# UVM_INFO ../env/axi_sb.sv(80) @ 1805: uvm_test_top.env_h.sb_h [before event in sb] aaaa
# rd data in s drv: 0 , len : 9 , last:0 , valid : 1
# m mon rid : 2297
# req wid : 14337 , bid:14337
# UVM_INFO ../env/m_agent/axi_base_m_seqs.sv(26) @ 1815: uvm_test_top.env_h.m_uvc_h.m_agent_h[0].m_seqr_h@@vseqs_h.m_wseqs_h [IN V SEQS] Got B-channel response from driver
# rd data in s drv: 0 , len : 9 , last:0 , valid : 1
# m mon rid : 2297
# rd data in s drv: 0 , len : 9 , last:0 , valid : 1
# m mon rid : 2297
# rd data in s drv: 0 , len : 9 , last:0 , valid : 1
# m mon rid : 2297
# rd data in s drv: 0 , len : 9 , last:0 , valid : 1
# m mon rid : 2297
# rd data in s drv: 0 , len : 9 , last:0 , valid : 1
# m mon rid : 2297
# rd data in s drv: 0 , len : 9 , last:0 , valid : 1
# m mon rid : 2297
# rd data in s drv: 0 , len : 9 , last:0 , valid : 1
# m mon rid : 2297
# rd data in s drv: 0 , len : 9 , last:0 , valid : 1
# m mon rid : 2297
# rd data in s drv: 0 , len : 9 , last:1 , valid : 1
# req kind : READ
# INSIDE BEORE SAMPLE
# -----------------------------------------------
# Name            Type               Size  Value 
# -----------------------------------------------
# axi_m_seq_item  uvm_sequence_item  -     @14511
#   AWID          integral           16    'h0   
#   AWADDR        integral           32    'h0   
#   AWLEN         integral           8     'd0   
#   AWSIZE        integral           3     'd0   
#   AWBURST       integral           2     'd0   
#   WID           integral           16    'h0   
#   WDATA         da(integral)       0     -     
#   WSTRB         da(integral)       0     -     
#   WLAST         integral           1     'd0   
#   BID           integral           16    'h0   
#   BRESP         integral           2     'd0   
#   ARID          integral           16    'h2297
#   ARADDR        integral           32    'h228 
#   ARLEN         integral           8     'd9   
#   ARSIZE        integral           3     'd3   
#   ARBURST       integral           2     'd1   
#   RID           integral           16    'h2297
#   RDATA         da(integral)       10    -     
#     [0]         integral           32    'h0   
#     [1]         integral           32    'h0   
#     [2]         integral           32    'h0   
#     [3]         integral           32    'h0   
#     [4]         integral           32    'h0   
#     [5]         integral           32    'h0   
#     [6]         integral           32    'h0   
#     [7]         integral           32    'h0   
#     [8]         integral           32    'h0   
#     [9]         integral           32    'h0   
#   RRESP         integral           2     'd0   
#   RLAST         integral           1     'd0   
#   burst_kind_e  burst_kind         2     FIXED 
#   kind_e        trans_kind         2     READ  
# -----------------------------------------------
# RDATa IN SB : 0 0 0 0 0 0 0 0 0 0
# m mon rid : 2297
# UVM_INFO ../env/axi_sb.sv(82) @ 1905: uvm_test_top.env_h.sb_h [after event in sb] aaaa
# UVM_INFO ../env/axi_sb.sv(80) @ 1905: uvm_test_top.env_h.sb_h [before event in sb] aaaa
# rd data in s drv: 0 , len : 3 , last:0 , valid : 1
# m mon rid : 7a06
# rd data in s drv: 0 , len : 3 , last:0 , valid : 1
# m mon rid : 7a06
# rd data in s drv: 0 , len : 3 , last:0 , valid : 1
# m mon rid : 7a06
# rd data in s drv: 0 , len : 3 , last:1 , valid : 1
# req kind : READ
# INSIDE BEORE SAMPLE
# -----------------------------------------------
# Name            Type               Size  Value 
# -----------------------------------------------
# axi_m_seq_item  uvm_sequence_item  -     @15743
#   AWID          integral           16    'h0   
#   AWADDR        integral           32    'h0   
#   AWLEN         integral           8     'd0   
#   AWSIZE        integral           3     'd0   
#   AWBURST       integral           2     'd0   
#   WID           integral           16    'h0   
#   WDATA         da(integral)       0     -     
#   WSTRB         da(integral)       0     -     
#   WLAST         integral           1     'd0   
#   BID           integral           16    'h0   
#   BRESP         integral           2     'd0   
#   ARID          integral           16    'h7a06
#   ARADDR        integral           32    'h398 
#   ARLEN         integral           8     'd3   
#   ARSIZE        integral           3     'd3   
#   ARBURST       integral           2     'd1   
#   RID           integral           16    'h7a06
#   RDATA         da(integral)       4     -     
#     [0]         integral           32    'h0   
#     [1]         integral           32    'h0   
#     [2]         integral           32    'h0   
#     [3]         integral           32    'h0   
#   RRESP         integral           2     'd0   
#   RLAST         integral           1     'd0   
#   burst_kind_e  burst_kind         2     FIXED 
#   kind_e        trans_kind         2     READ  
# -----------------------------------------------
# RDATa IN SB : 0 0 0 0
# m mon rid : 7a06
# UVM_INFO ../env/axi_sb.sv(82) @ 1945: uvm_test_top.env_h.sb_h [after event in sb] aaaa
# UVM_INFO ../env/axi_sb.sv(80) @ 1945: uvm_test_top.env_h.sb_h [before event in sb] aaaa
# rd data in s drv: 0 , len : 10 , last:0 , valid : 1
# m mon rid : 6b0e
# rd data in s drv: 0 , len : 10 , last:0 , valid : 1
# m mon rid : 6b0e
# rd data in s drv: 0 , len : 10 , last:0 , valid : 1
# m mon rid : 6b0e
# rd data in s drv: 0 , len : 10 , last:0 , valid : 1
# m mon rid : 6b0e
# rd data in s drv: 0 , len : 10 , last:0 , valid : 1
# m mon rid : 6b0e
# rd data in s drv: 0 , len : 10 , last:0 , valid : 1
# m mon rid : 6b0e
# rd data in s drv: 0 , len : 10 , last:0 , valid : 1
# m mon rid : 6b0e
# rd data in s drv: 0 , len : 10 , last:0 , valid : 1
# m mon rid : 6b0e
# rd data in s drv: 0 , len : 10 , last:0 , valid : 1
# m mon rid : 6b0e
# rd data in s drv: 0 , len : 10 , last:0 , valid : 1
# m mon rid : 6b0e
# rd data in s drv: 0 , len : 10 , last:1 , valid : 1
# req kind : READ
# INSIDE BEORE SAMPLE
# -----------------------------------------------
# Name            Type               Size  Value 
# -----------------------------------------------
# axi_m_seq_item  uvm_sequence_item  -     @18383
#   AWID          integral           16    'h0   
#   AWADDR        integral           32    'h0   
#   AWLEN         integral           8     'd0   
#   AWSIZE        integral           3     'd0   
#   AWBURST       integral           2     'd0   
#   WID           integral           16    'h0   
#   WDATA         da(integral)       0     -     
#   WSTRB         da(integral)       0     -     
#   WLAST         integral           1     'd0   
#   BID           integral           16    'h0   
#   BRESP         integral           2     'd0   
#   ARID          integral           16    'h6b0e
#   ARADDR        integral           32    'h350 
#   ARLEN         integral           8     'd10  
#   ARSIZE        integral           3     'd3   
#   ARBURST       integral           2     'd1   
#   RID           integral           16    'h6b0e
#   RDATA         da(integral)       11    -     
#     [0]         integral           32    'h0   
#     [1]         integral           32    'h0   
#     [2]         integral           32    'h0   
#     [3]         integral           32    'h0   
#     [4]         integral           32    'h0   
#     ...         ...                ...   ...   
#     [6]         integral           32    'h0   
#     [7]         integral           32    'h0   
#     [8]         integral           32    'h0   
#     [9]         integral           32    'h0   
#     [10]        integral           32    'h0   
#   RRESP         integral           2     'd0   
#   RLAST         integral           1     'd0   
#   burst_kind_e  burst_kind         2     FIXED 
#   kind_e        trans_kind         2     READ  
# -----------------------------------------------
# RDATa IN SB : 0 0 0 0 0 0 0 0 0 0 0
# m mon rid : 6b0e
# UVM_INFO ../env/axi_sb.sv(82) @ 2055: uvm_test_top.env_h.sb_h [after event in sb] aaaa
# UVM_INFO ../env/axi_sb.sv(80) @ 2055: uvm_test_top.env_h.sb_h [before event in sb] aaaa
# rd data in s drv: 0 , len : 8 , last:0 , valid : 1
# m mon rid : 15d8
# rd data in s drv: 0 , len : 8 , last:0 , valid : 1
# m mon rid : 15d8
# rd data in s drv: 0 , len : 8 , last:0 , valid : 1
# m mon rid : 15d8
# rd data in s drv: 0 , len : 8 , last:0 , valid : 1
# m mon rid : 15d8
# rd data in s drv: 0 , len : 8 , last:0 , valid : 1
# m mon rid : 15d8
# rd data in s drv: 0 , len : 8 , last:0 , valid : 1
# m mon rid : 15d8
# rd data in s drv: 0 , len : 8 , last:0 , valid : 1
# m mon rid : 15d8
# rd data in s drv: 0 , len : 8 , last:0 , valid : 1
# m mon rid : 15d8
# rd data in s drv: 0 , len : 8 , last:1 , valid : 1
# req kind : READ
# INSIDE BEORE SAMPLE
# -----------------------------------------------
# Name            Type               Size  Value 
# -----------------------------------------------
# axi_m_seq_item  uvm_sequence_item  -     @19443
#   AWID          integral           16    'h0   
#   AWADDR        integral           32    'h0   
#   AWLEN         integral           8     'd0   
#   AWSIZE        integral           3     'd0   
#   AWBURST       integral           2     'd0   
#   WID           integral           16    'h0   
#   WDATA         da(integral)       0     -     
#   WSTRB         da(integral)       0     -     
#   WLAST         integral           1     'd0   
#   BID           integral           16    'h0   
#   BRESP         integral           2     'd0   
#   ARID          integral           16    'h15d8
#   ARADDR        integral           32    'h290 
#   ARLEN         integral           8     'd8   
#   ARSIZE        integral           3     'd3   
#   ARBURST       integral           2     'd1   
#   RID           integral           16    'h15d8
#   RDATA         da(integral)       9     -     
#     [0]         integral           32    'h0   
#     [1]         integral           32    'h0   
#     [2]         integral           32    'h0   
#     [3]         integral           32    'h0   
#     [4]         integral           32    'h0   
#     [5]         integral           32    'h0   
#     [6]         integral           32    'h0   
#     [7]         integral           32    'h0   
#     [8]         integral           32    'h0   
#   RRESP         integral           2     'd0   
#   RLAST         integral           1     'd0   
#   burst_kind_e  burst_kind         2     FIXED 
#   kind_e        trans_kind         2     READ  
# -----------------------------------------------
# RDATa IN SB : 0 0 0 0 0 0 0 0 0
# m mon rid : 15d8
# UVM_INFO ../env/axi_sb.sv(82) @ 2145: uvm_test_top.env_h.sb_h [after event in sb] aaaa
# UVM_INFO ../env/axi_sb.sv(80) @ 2145: uvm_test_top.env_h.sb_h [before event in sb] aaaa
# rd data in s drv: 0 , len : 4 , last:0 , valid : 1
# abc : 1
# ref model mem : 801
# abc : 2
# ref model mem : 809
# abc : 3
# ref model mem : 817
# abc : 4
# ref model mem : 825
# abc : 5
# ref model mem : 833
# abc : 6
# ref model mem : 841
# abc : 7
# ref model mem : 849
# abc : 8
# ref model mem : 857
# abc : 9
# ref model mem : 865
# abc : 10
# ref model mem : 873
# abc : 11
# ref model mem : 881
# abc : 12
# ref model mem : 889
# abc : 13
# ref model mem : 897
# abc : 14
# ref model mem : 905
# abc : 15
# ref model mem : 913
# abc : 16
# ref model mem : 921
# abc : 17
# ref model mem : 929
# abc : 18
# ref model mem : 937
# abc : 19
# ref model mem : 945
# abc : 20
# ref model mem : 953
# abc : 21
# ref model mem : 961
# abc : 22
# ref model mem : 969
# abc : 23
# ref model mem : 977
# abc : 24
# ref model mem : 985
# abc : 25
# ref model mem : 993
# abc : 26
# ref model mem : 1001
# abc : 27
# ref model mem : 1009
# abc : 28
# ref model mem : 1017
# abc : 29
# ref model mem : 1025
# abc : 30
# ref model mem : 1033
# abc : 31
# ref model mem : 1041
# abc : 32
# ref model mem : 1049
# abc : 33
# ref model mem : 1057
# abc : 34
# ref model mem : 1065
# abc : 35
# ref model mem : 1073
# abc : 36
# ref model mem : 1081
# xyz : 1
# xyz : 2
# xyz : 3
# xyz : 4
# xyz : 5
# xyz : 6
# xyz : 7
# xyz : 8
# xyz : 9
# xyz : 10
# AR ADDR IN SB : 319
# xyz : 11
# xyz : 12
# xyz : 13
# xyz : 14
# xyz : 15
# xyz : 16
# xyz : 17
# AR ADDR IN SB : 349
# xyz : 18
# xyz : 19
# xyz : 20
# xyz : 21
# xyz : 22
# xyz : 23
# xyz : 24
# xyz : 25
# xyz : 26
# AR ADDR IN SB : 3d1
# AFFTER W CHANNEL
# m mon rid : 1eeb
# match arid : 0 , rid : 0
# UVM_INFO ../env/s_agent/axi_s_drv.sv(31) @ 2155: uvm_test_top.env_h.s_uvc_h.s_agent_h[0].s_drv_h [ID MATCH] aaaaa
# s seqs arid : 29180
# INIDE_SLAVE_SEQ_CTR=22
# match arid : 71fc , rid : 71fc
# UVM_INFO ../env/s_agent/axi_s_drv.sv(31) @ 2155: uvm_test_top.env_h.s_uvc_h.s_agent_h[0].s_drv_h [ID MATCH] aaaaa
# s seqs arid : 5462
# INIDE_SLAVE_SEQ_CTR=23
# match arid : 1556 , rid : 1556
# UVM_INFO ../env/s_agent/axi_s_drv.sv(31) @ 2155: uvm_test_top.env_h.s_uvc_h.s_agent_h[0].s_drv_h [ID MATCH] aaaaa
# s seqs arid : 53371
# INIDE_SLAVE_SEQ_CTR=24
# match arid : d07b , rid : d07b
# UVM_INFO ../env/s_agent/axi_s_drv.sv(31) @ 2155: uvm_test_top.env_h.s_uvc_h.s_agent_h[0].s_drv_h [ID MATCH] aaaaa
# rd data in s drv: 0 , len : 4 , last:0 , valid : 1
# m mon rid : 1eeb
# rd data in s drv: 0 , len : 4 , last:0 , valid : 1
# m mon rid : 1eeb
# req wid : 2105 , bid:2105
# UVM_INFO ../env/m_agent/axi_base_m_seqs.sv(26) @ 2175: uvm_test_top.env_h.m_uvc_h.m_agent_h[0].m_seqr_h@@vseqs_h.m_wseqs_h [IN V SEQS] Got B-channel response from driver
# rd data in s drv: 0 , len : 4 , last:0 , valid : 1
# m mon rid : 1eeb
# rd data in s drv: 0 , len : 4 , last:1 , valid : 1
# req kind : READ
# INSIDE BEORE SAMPLE
# -----------------------------------------------
# Name            Type               Size  Value 
# -----------------------------------------------
# axi_m_seq_item  uvm_sequence_item  -     @2078 
#   AWID          integral           16    'h0   
#   AWADDR        integral           32    'h0   
#   AWLEN         integral           8     'd0   
#   AWSIZE        integral           3     'd0   
#   AWBURST       integral           2     'd0   
#   WID           integral           16    'h0   
#   WDATA         da(integral)       0     -     
#   WSTRB         da(integral)       0     -     
#   WLAST         integral           1     'd0   
#   BID           integral           16    'h0   
#   BRESP         integral           2     'd0   
#   ARID          integral           16    'h1eeb
#   ARADDR        integral           32    'hd3  
#   ARLEN         integral           8     'd4   
#   ARSIZE        integral           3     'd3   
#   ARBURST       integral           2     'd1   
#   RID           integral           16    'h1eeb
#   RDATA         da(integral)       5     -     
#     [0]         integral           32    'h0   
#     [1]         integral           32    'h0   
#     [2]         integral           32    'h0   
#     [3]         integral           32    'h0   
#     [4]         integral           32    'h0   
#   RRESP         integral           2     'd0   
#   RLAST         integral           1     'd0   
#   burst_kind_e  burst_kind         2     FIXED 
#   kind_e        trans_kind         2     READ  
# -----------------------------------------------
# RDATa IN SB : 0 0 0 0 0
# m mon rid : 1eeb
# UVM_INFO ../env/axi_sb.sv(82) @ 2195: uvm_test_top.env_h.sb_h [after event in sb] aaaa
# UVM_INFO ../env/axi_sb.sv(80) @ 2195: uvm_test_top.env_h.sb_h [before event in sb] aaaa
# rd data in s drv: 0 , len : 0 , last:1 , valid : 1
# req kind : READ
# INSIDE BEORE SAMPLE
# -----------------------------------------------
# Name            Type               Size  Value 
# -----------------------------------------------
# axi_m_seq_item  uvm_sequence_item  -     @2246 
#   AWID          integral           16    'h0   
#   AWADDR        integral           32    'h0   
#   AWLEN         integral           8     'd0   
#   AWSIZE        integral           3     'd0   
#   AWBURST       integral           2     'd0   
#   WID           integral           16    'h0   
#   WDATA         da(integral)       0     -     
#   WSTRB         da(integral)       0     -     
#   WLAST         integral           1     'd0   
#   BID           integral           16    'h0   
#   BRESP         integral           2     'd0   
#   ARID          integral           16    'hb8d7
#   ARADDR        integral           32    'h18b 
#   ARLEN         integral           8     'd0   
#   ARSIZE        integral           3     'd3   
#   ARBURST       integral           2     'd1   
#   RID           integral           16    'hb8d7
#   RDATA         da(integral)       1     -     
#     [0]         integral           32    'h0   
#   RRESP         integral           2     'd0   
#   RLAST         integral           1     'd0   
#   burst_kind_e  burst_kind         2     FIXED 
#   kind_e        trans_kind         2     READ  
# -----------------------------------------------
# RDATa IN SB : 0
# m mon rid : b8d7
# UVM_INFO ../env/axi_sb.sv(82) @ 2205: uvm_test_top.env_h.sb_h [after event in sb] aaaa
# UVM_INFO ../env/axi_sb.sv(80) @ 2205: uvm_test_top.env_h.sb_h [before event in sb] aaaa
# rd data in s drv: 0 , len : 10 , last:0 , valid : 1
# m mon rid : 9f0d
# rd data in s drv: 0 , len : 10 , last:0 , valid : 1
# m mon rid : 9f0d
# rd data in s drv: 0 , len : 10 , last:0 , valid : 1
# m mon rid : 9f0d
# rd data in s drv: 0 , len : 10 , last:0 , valid : 1
# m mon rid : 9f0d
# rd data in s drv: 0 , len : 10 , last:0 , valid : 1
# m mon rid : 9f0d
# rd data in s drv: 0 , len : 10 , last:0 , valid : 1
# m mon rid : 9f0d
# rd data in s drv: 0 , len : 10 , last:0 , valid : 1
# m mon rid : 9f0d
# rd data in s drv: 0 , len : 10 , last:0 , valid : 1
# m mon rid : 9f0d
# rd data in s drv: 0 , len : 10 , last:0 , valid : 1
# m mon rid : 9f0d
# rd data in s drv: 0 , len : 10 , last:0 , valid : 1
# m mon rid : 9f0d
# rd data in s drv: 0 , len : 10 , last:1 , valid : 1
# req kind : READ
# INSIDE BEORE SAMPLE
# -----------------------------------------------
# Name            Type               Size  Value 
# -----------------------------------------------
# axi_m_seq_item  uvm_sequence_item  -     @9271 
#   AWID          integral           16    'h0   
#   AWADDR        integral           32    'h0   
#   AWLEN         integral           8     'd0   
#   AWSIZE        integral           3     'd0   
#   AWBURST       integral           2     'd0   
#   WID           integral           16    'h0   
#   WDATA         da(integral)       0     -     
#   WSTRB         da(integral)       0     -     
#   WLAST         integral           1     'd0   
#   BID           integral           16    'h0   
#   BRESP         integral           2     'd0   
#   ARID          integral           16    'h9f0d
#   ARADDR        integral           32    'he3  
#   ARLEN         integral           8     'd10  
#   ARSIZE        integral           3     'd3   
#   ARBURST       integral           2     'd1   
#   RID           integral           16    'h9f0d
#   RDATA         da(integral)       11    -     
#     [0]         integral           32    'h0   
#     [1]         integral           32    'h0   
#     [2]         integral           32    'h0   
#     [3]         integral           32    'h0   
#     [4]         integral           32    'h0   
#     ...         ...                ...   ...   
#     [6]         integral           32    'h0   
#     [7]         integral           32    'h0   
#     [8]         integral           32    'h0   
#     [9]         integral           32    'h0   
#     [10]        integral           32    'h0   
#   RRESP         integral           2     'd0   
#   RLAST         integral           1     'd0   
#   burst_kind_e  burst_kind         2     FIXED 
#   kind_e        trans_kind         2     READ  
# -----------------------------------------------
# RDATa IN SB : 0 0 0 0 0 0 0 0 0 0 0
# m mon rid : 9f0d
# UVM_INFO ../env/axi_sb.sv(82) @ 2315: uvm_test_top.env_h.sb_h [after event in sb] aaaa
# UVM_INFO ../env/axi_sb.sv(80) @ 2315: uvm_test_top.env_h.sb_h [before event in sb] aaaa
# rd data in s drv: 0 , len : 9 , last:0 , valid : 1
# m mon rid : 71fc
# rd data in s drv: 0 , len : 9 , last:0 , valid : 1
# m mon rid : 71fc
# rd data in s drv: 0 , len : 9 , last:0 , valid : 1
# m mon rid : 71fc
# rd data in s drv: 0 , len : 9 , last:0 , valid : 1
# m mon rid : 71fc
# rd data in s drv: 0 , len : 9 , last:0 , valid : 1
# m mon rid : 71fc
# rd data in s drv: 0 , len : 9 , last:0 , valid : 1
# m mon rid : 71fc
# rd data in s drv: 0 , len : 9 , last:0 , valid : 1
# m mon rid : 71fc
# rd data in s drv: 0 , len : 9 , last:0 , valid : 1
# m mon rid : 71fc
# rd data in s drv: 0 , len : 9 , last:0 , valid : 1
# m mon rid : 71fc
# rd data in s drv: 0 , len : 9 , last:1 , valid : 1
# req kind : READ
# INSIDE BEORE SAMPLE
# -----------------------------------------------
# Name            Type               Size  Value 
# -----------------------------------------------
# axi_m_seq_item  uvm_sequence_item  -     @2118 
#   AWID          integral           16    'h0   
#   AWADDR        integral           32    'h0   
#   AWLEN         integral           8     'd0   
#   AWSIZE        integral           3     'd0   
#   AWBURST       integral           2     'd0   
#   WID           integral           16    'h0   
#   WDATA         da(integral)       0     -     
#   WSTRB         da(integral)       0     -     
#   WLAST         integral           1     'd0   
#   BID           integral           16    'h0   
#   BRESP         integral           2     'd0   
#   ARID          integral           16    'h71fc
#   ARADDR        integral           32    'h319 
#   ARLEN         integral           8     'd9   
#   ARSIZE        integral           3     'd3   
#   ARBURST       integral           2     'd1   
#   RID           integral           16    'h71fc
#   RDATA         da(integral)       10    -     
#     [0]         integral           32    'h0   
#     [1]         integral           32    'h0   
#     [2]         integral           32    'h0   
#     [3]         integral           32    'h0   
#     [4]         integral           32    'h0   
#     [5]         integral           32    'h0   
#     [6]         integral           32    'h0   
#     [7]         integral           32    'h0   
#     [8]         integral           32    'h0   
#     [9]         integral           32    'h0   
#   RRESP         integral           2     'd0   
#   RLAST         integral           1     'd0   
#   burst_kind_e  burst_kind         2     FIXED 
#   kind_e        trans_kind         2     READ  
# -----------------------------------------------
# RDATa IN SB : 0 0 0 0 0 0 0 0 0 0
# m mon rid : 71fc
# UVM_INFO ../env/axi_sb.sv(82) @ 2415: uvm_test_top.env_h.sb_h [after event in sb] aaaa
# UVM_INFO ../env/axi_sb.sv(80) @ 2415: uvm_test_top.env_h.sb_h [before event in sb] aaaa
# rd data in s drv: 0 , len : 6 , last:0 , valid : 1
# m mon rid : 1556
# rd data in s drv: 0 , len : 6 , last:0 , valid : 1
# m mon rid : 1556
# rd data in s drv: 0 , len : 6 , last:0 , valid : 1
# m mon rid : 1556
# rd data in s drv: 0 , len : 6 , last:0 , valid : 1
# m mon rid : 1556
# rd data in s drv: 0 , len : 6 , last:0 , valid : 1
# m mon rid : 1556
# rd data in s drv: 0 , len : 6 , last:0 , valid : 1
# m mon rid : 1556
# rd data in s drv: 0 , len : 6 , last:1 , valid : 1
# req kind : READ
# INSIDE BEORE SAMPLE
# -----------------------------------------------
# Name            Type               Size  Value 
# -----------------------------------------------
# axi_m_seq_item  uvm_sequence_item  -     @18735
#   AWID          integral           16    'h0   
#   AWADDR        integral           32    'h0   
#   AWLEN         integral           8     'd0   
#   AWSIZE        integral           3     'd0   
#   AWBURST       integral           2     'd0   
#   WID           integral           16    'h0   
#   WDATA         da(integral)       0     -     
#   WSTRB         da(integral)       0     -     
#   WLAST         integral           1     'd0   
#   BID           integral           16    'h0   
#   BRESP         integral           2     'd0   
#   ARID          integral           16    'h1556
#   ARADDR        integral           32    'h349 
#   ARLEN         integral           8     'd6   
#   ARSIZE        integral           3     'd3   
#   ARBURST       integral           2     'd1   
#   RID           integral           16    'h1556
#   RDATA         da(integral)       7     -     
#     [0]         integral           32    'h0   
#     [1]         integral           32    'h0   
#     [2]         integral           32    'h0   
#     [3]         integral           32    'h0   
#     [4]         integral           32    'h0   
#     [5]         integral           32    'h0   
#     [6]         integral           32    'h0   
#   RRESP         integral           2     'd0   
#   RLAST         integral           1     'd0   
#   burst_kind_e  burst_kind         2     FIXED 
#   kind_e        trans_kind         2     READ  
# -----------------------------------------------
# RDATa IN SB : 0 0 0 0 0 0 0
# m mon rid : 1556
# UVM_INFO ../env/axi_sb.sv(82) @ 2485: uvm_test_top.env_h.sb_h [after event in sb] aaaa
# UVM_INFO ../env/axi_sb.sv(80) @ 2485: uvm_test_top.env_h.sb_h [before event in sb] aaaa
# rd data in s drv: 0 , len : 8 , last:0 , valid : 1
# m mon rid : d07b
# rd data in s drv: 0 , len : 8 , last:0 , valid : 1
# m mon rid : d07b
# rd data in s drv: 0 , len : 8 , last:0 , valid : 1
# m mon rid : d07b
# rd data in s drv: 0 , len : 8 , last:0 , valid : 1
# m mon rid : d07b
# rd data in s drv: 0 , len : 8 , last:0 , valid : 1
# m mon rid : d07b
# rd data in s drv: 0 , len : 8 , last:0 , valid : 1
# m mon rid : d07b
# rd data in s drv: 0 , len : 8 , last:0 , valid : 1
# m mon rid : d07b
# rd data in s drv: 0 , len : 8 , last:0 , valid : 1
# m mon rid : d07b
# rd data in s drv: 0 , len : 8 , last:1 , valid : 1
# req kind : READ
# INSIDE BEORE SAMPLE
# -----------------------------------------------
# Name            Type               Size  Value 
# -----------------------------------------------
# axi_m_seq_item  uvm_sequence_item  -     @21659
#   AWID          integral           16    'h0   
#   AWADDR        integral           32    'h0   
#   AWLEN         integral           8     'd0   
#   AWSIZE        integral           3     'd0   
#   AWBURST       integral           2     'd0   
#   WID           integral           16    'h0   
#   WDATA         da(integral)       0     -     
#   WSTRB         da(integral)       0     -     
#   WLAST         integral           1     'd0   
#   BID           integral           16    'h0   
#   BRESP         integral           2     'd0   
#   ARID          integral           16    'hd07b
#   ARADDR        integral           32    'h3d1 
#   ARLEN         integral           8     'd8   
#   ARSIZE        integral           3     'd3   
#   ARBURST       integral           2     'd1   
#   RID           integral           16    'hd07b
#   RDATA         da(integral)       9     -     
#     [0]         integral           32    'h0   
#     [1]         integral           32    'h0   
#     [2]         integral           32    'h0   
#     [3]         integral           32    'h0   
#     [4]         integral           32    'h0   
#     [5]         integral           32    'h0   
#     [6]         integral           32    'h0   
#     [7]         integral           32    'h0   
#     [8]         integral           32    'h0   
#   RRESP         integral           2     'd0   
#   RLAST         integral           1     'd0   
#   burst_kind_e  burst_kind         2     FIXED 
#   kind_e        trans_kind         2     READ  
# -----------------------------------------------
# RDATa IN SB : 0 0 0 0 0 0 0 0 0
# m mon rid : d07b
# UVM_INFO ../env/axi_sb.sv(82) @ 2575: uvm_test_top.env_h.sb_h [after event in sb] aaaa
# UVM_INFO ../env/axi_sb.sv(80) @ 2575: uvm_test_top.env_h.sb_h [before event in sb] aaaa
# abc : 1
# ref model mem : 970
# abc : 2
# ref model mem : 978
# abc : 3
# ref model mem : 986
# abc : 4
# ref model mem : 994
# abc : 5
# ref model mem : 1002
# abc : 6
# ref model mem : 1010
# abc : 7
# ref model mem : 1018
# abc : 8
# ref model mem : 1026
# abc : 9
# ref model mem : 1034
# abc : 10
# ref model mem : 1042
# abc : 11
# ref model mem : 1050
# abc : 12
# ref model mem : 1058
# abc : 13
# ref model mem : 1066
# abc : 14
# ref model mem : 1074
# abc : 15
# ref model mem : 1082
# abc : 16
# ref model mem : 1090
# abc : 17
# ref model mem : 1098
# abc : 18
# ref model mem : 1106
# abc : 19
# ref model mem : 1114
# abc : 20
# ref model mem : 1122
# abc : 21
# ref model mem : 1130
# abc : 22
# ref model mem : 1138
# abc : 23
# ref model mem : 1146
# abc : 24
# ref model mem : 1154
# abc : 25
# ref model mem : 1162
# abc : 26
# ref model mem : 1170
# abc : 27
# ref model mem : 1178
# abc : 28
# ref model mem : 1186
# abc : 29
# ref model mem : 1194
# abc : 30
# ref model mem : 1202
# abc : 31
# ref model mem : 1210
# abc : 32
# ref model mem : 1218
# abc : 33
# ref model mem : 1226
# abc : 34
# ref model mem : 1234
# abc : 35
# ref model mem : 1242
# abc : 36
# ref model mem : 1250
# abc : 37
# ref model mem : 1258
# abc : 38
# ref model mem : 1266
# abc : 39
# ref model mem : 1274
# abc : 40
# ref model mem : 1282
# abc : 41
# ref model mem : 1290
# abc : 42
# ref model mem : 1298
# abc : 43
# ref model mem : 1306
# abc : 44
# ref model mem : 1314
# abc : 45
# ref model mem : 1322
# abc : 46
# ref model mem : 1330
# abc : 47
# ref model mem : 1338
# abc : 48
# ref model mem : 1346
# abc : 49
# ref model mem : 1354
# abc : 50
# ref model mem : 1362
# abc : 51
# ref model mem : 1370
# abc : 52
# ref model mem : 1378
# abc : 53
# ref model mem : 1386
# abc : 54
# ref model mem : 1394
# abc : 55
# ref model mem : 1402
# abc : 56
# ref model mem : 1410
# abc : 57
# ref model mem : 1418
# abc : 58
# ref model mem : 1426
# abc : 59
# ref model mem : 1434
# abc : 60
# ref model mem : 1442
# abc : 61
# ref model mem : 1450
# abc : 62
# ref model mem : 1458
# abc : 63
