Reading pref.tcl

# 2023.4

# vsim -coverage -voptargs="+acc" axi_tb_top -c -do "coverage save -onexit -directive -cvg -codeall axi_cg.ucdb; run -all; exit" "+UVM_TESTNAME=axi_incr_test" 
# Start time: 12:55:07 on May 01,2026
# ** Note: (vsim-3812) Design is being optimized...
# ** Warning: (vopt-10587) Some optimizations are turned off because the +acc switch is in effect. This will cause your simulation to run slowly. Please use -access/-debug to maintain needed visibility.
# ** Warning: (vopt-13408) Code coverage will be disabled for some DUs/packages/classes and source files.
# ** Note: (vsim-12126) Error and warning message counts have been restored: Errors=0, Warnings=2.
# //  Questa Sim-64
# //  Version 2023.4 linux_x86_64 Oct  9 2023
# //
# //  Copyright 1991-2023 Mentor Graphics Corporation
# //  All Rights Reserved.
# //
# //  QuestaSim and its associated documentation contain trade
# //  secrets and commercial or financial information that are the property of
# //  Mentor Graphics Corporation and are privileged, confidential,
# //  and exempt from disclosure under the Freedom of Information Act,
# //  5 U.S.C. Section 552. Furthermore, this information
# //  is prohibited from disclosure under the Trade Secrets Act,
# //  18 U.S.C. Section 1905.
# //
# Loading sv_std.std
# Loading work.axi_s_inf(fast)
# Loading work.axi_m_inf(fast)
# Loading mtiUvm.uvm_pkg(fast)
# Loading work.axi_s_agent_pkg(fast)
# Loading work.axi_m_agent_pkg(fast)
# Loading work.axi_env_pkg(fast)
# Loading work.axi_test_pkg(fast)
# Loading mtiUvm.questa_uvm_pkg(fast)
# Loading work.axi_tb_top(fast)
# Loading work.axi_m_inf(fast__2)
# Loading work.axi_s_inf(fast__2)
# ** Warning: (vsim-8441) Clocking block output s_vif.s_drv_cb.RID is not legal in this
# or another expression.
#    Time: 0 ns  Iteration: 0  Region: /axi_s_agent_pkg::axi_s_drv #(32, 32) File: ../env/s_agent/axi_s_drv.sv Line: 105
# ** Warning: (vsim-8441) Clocking block output s_vif.s_drv_cb.RID is not legal in this
# or another expression.
#    Time: 0 ns  Iteration: 0  Region: /axi_s_agent_pkg::axi_s_drv #(32, 32) File: ../env/s_agent/axi_s_drv.sv Line: 105
# ** Warning: (vsim-8441) Clocking block output m_vif.m_drv_cb.WID is not legal in this
# or another expression.
#    Time: 0 ns  Iteration: 0  Region: /axi_m_agent_pkg::axi_m_drv #(32, 32) File: ../env/m_agent/axi_m_drv.sv Line: 95
# ** Warning: (vsim-8441) Clocking block output m_vif.m_drv_cb.WID is not legal in this
# or another expression.
#    Time: 0 ns  Iteration: 0  Region: /axi_m_agent_pkg::axi_m_drv #(32, 32) File: ../env/m_agent/axi_m_drv.sv Line: 95
# ** Warning: (vsim-8441) Clocking block output m_vif.m_drv_cb.WLAST is not legal in this
# or another expression.
#    Time: 0 ns  Iteration: 0  Region: /axi_m_agent_pkg::axi_m_drv #(32, 32) File: ../env/m_agent/axi_m_drv.sv Line: 100
# ** Warning: (vsim-8441) Clocking block output m_vif.m_drv_cb.WLAST is not legal in this
# or another expression.
#    Time: 0 ns  Iteration: 0  Region: /axi_m_agent_pkg::axi_m_drv #(32, 32) File: ../env/m_agent/axi_m_drv.sv Line: 100
# ** Warning: (vsim-8441) Clocking block output m_vif.m_drv_cb.WLAST is not legal in this
# or another expression.
#    Time: 0 ns  Iteration: 0  Region: /axi_m_agent_pkg::axi_m_drv #(32, 32) File: ../env/m_agent/axi_m_drv.sv Line: 100
# ** Warning: (vsim-8441) Clocking block output m_vif.m_drv_cb.WLAST is not legal in this
# or another expression.
#    Time: 0 ns  Iteration: 0  Region: /axi_m_agent_pkg::axi_m_drv #(32, 32) File: ../env/m_agent/axi_m_drv.sv Line: 100
# Loading /tools/mentor/questa/2023.4/questasim/uvm-1.1d/linux_x86_64/uvm_dpi.so
# coverage save -onexit -directive -cvg -codeall axi_cg.ucdb
#  run -all
# ----------------------------------------------------------------
# UVM-1.1d
# (C) 2007-2013 Mentor Graphics Corporation
# (C) 2007-2013 Cadence Design Systems, Inc.
# (C) 2006-2013 Synopsys, Inc.
# (C) 2011-2013 Cypress Semiconductor Corp.
# ----------------------------------------------------------------
# 
#   ***********       IMPORTANT RELEASE NOTES         ************
# 
#   You are using a version of the UVM library that has been compiled
#   with `UVM_NO_DEPRECATED undefined.
#   See http://www.eda.org/svdb/view.php?id=3313 for more details.
# 
#   You are using a version of the UVM library that has been compiled
#   with `UVM_OBJECT_MUST_HAVE_CONSTRUCTOR undefined.
#   See http://www.eda.org/svdb/view.php?id=3770 for more details.
# 
#       (Specify +UVM_NO_RELNOTES to turn off this notice)
# 
# UVM_INFO verilog_src/questa_uvm_pkg-1.2/src/questa_uvm_pkg.sv(277) @ 0: reporter [Questa UVM] QUESTA_UVM-1.2.3
# UVM_INFO verilog_src/questa_uvm_pkg-1.2/src/questa_uvm_pkg.sv(278) @ 0: reporter [Questa UVM]  questa_uvm::init(+struct)
# UVM_INFO @ 0: reporter [RNTST] Running test axi_incr_test...
# UVM_INFO ../env/s_agent/axi_s_seqr.sv(25) @ 0: uvm_test_top.env_h.s_uvc_h.s_agent_h[0].s_seqr_h [Data in s seqr] Data got in slave seqr
# UVM_INFO @ 0: reporter [UVMTOP] UVM testbench topology:
# --------------------------------------------------------------------------------
# Name                             Type                                Size  Value
# --------------------------------------------------------------------------------
# uvm_test_top                     axi_incr_test                       -     @479 
#   env_h                          axi_env                             -     @491 
#     m_uvc_h                      uvm_agent                           -     @513 
#       m_agent_h[0]               uvm_agent                           -     @693 
#         m_drv_h                  uvm_driver #(REQ,RSP)               -     @814 
#           rsp_port               uvm_analysis_port                   -     @829 
#           seq_item_port          uvm_seq_item_pull_port              -     @821 
#         m_mon_h                  axi_m_mon#(ADDR_WIDTH, DATA_WIDTH)  -     @837 
#           s_port                 uvm_analysis_port                   -     @844 
#         m_seqr_h                 uvm_sequencer                       -     @705 
#           rsp_export             uvm_analysis_export                 -     @712 
#           seq_item_export        uvm_seq_item_pull_imp               -     @806 
#           arbitration_queue      array                               0     -    
#           lock_queue             array                               0     -    
#           num_last_reqs          integral                            32    'd1  
#           num_last_rsps          integral                            32    'd1  
#     ref_model_h                  axi_ref_model                       -     @558 
#       mon_imp                    uvm_analysis_imp                    -     @565 
#       sb_imp                     uvm_analysis_port                   -     @573 
#     s_uvc_h                      uvm_agent                           -     @520 
#       s_agent_h[0]               uvm_agent                           -     @860 
#         s_drv_h                  uvm_driver #(REQ,RSP)               -     @1036
#           rsp_port               uvm_analysis_port                   -     @1051
#           seq_item_port          uvm_seq_item_pull_port              -     @1043
#         s_mon_h                  axi_s_mon#(ADDR_WIDTH, DATA_WIDTH)  -     @1059
#           s_port                 uvm_analysis_port                   -     @1066
#         s_seqr_h                 uvm_sequencer                       -     @872 
#           item_collected_export  uvm_analysis_export                 -     @981 
#           item_req_fifo          uvm_tlm_analysis_fifo #(T)          -     @989 
#             analysis_export      uvm_analysis_imp                    -     @1028
#             get_ap               uvm_analysis_port                   -     @1020
#             get_peek_export      uvm_get_peek_imp                    -     @1004
#             put_ap               uvm_analysis_port                   -     @1012
#             put_export           uvm_put_imp                         -     @996 
#           rsp_export             uvm_analysis_export                 -     @879 
#           seq_item_export        uvm_seq_item_pull_imp               -     @973 
#           arbitration_queue      array                               0     -    
#           lock_queue             array                               0     -    
#           num_last_reqs          integral                            32    'd1  
#           num_last_rsps          integral                            32    'd1  
#     sb_h                         axi_sb                              -     @527 
#       anl_imp_m                  uvm_analysis_imp_m                  -     @534 
#       anl_imp_ref                uvm_analysis_imp_ref                -     @542 
#     vseqr_h                      axi_virtual_seqr                    -     @581 
#       rsp_export                 uvm_analysis_export                 -     @588 
#       seq_item_export            uvm_seq_item_pull_imp               -     @682 
#       arbitration_queue          array                               0     -    
#       lock_queue                 array                               0     -    
#       num_last_reqs              integral                            32    'd1  
#       num_last_rsps              integral                            32    'd1  
# --------------------------------------------------------------------------------
# 
# before check data in run phase
# after check data in run phase
# UVM_INFO ../env/axi_sb.sv(76) @ 0: uvm_test_top.env_h.sb_h [before in check method in sb] aaaa
# UVM_INFO ../env/axi_sb.sv(78) @ 0: uvm_test_top.env_h.sb_h [before event in sb] aaaa
# UVM_INFO ../env/m_agent/axi_m_mon.sv(28) @ 0: uvm_test_top.env_h.m_uvc_h.m_agent_h[0].m_mon_h [M MON RUN PHASE before] Inside master mon run phase
# UVM_INFO ../env/m_agent/axi_m_mon.sv(35) @ 0: uvm_test_top.env_h.m_uvc_h.m_agent_h[0].m_mon_h [M MON run PHASE after] Inside master mon
# UVM_INFO ../env/m_agent/axi_m_mon.sv(40) @ 0: uvm_test_top.env_h.m_uvc_h.m_agent_h[0].m_mon_h [M MON write addr PHASE before] Inside master mon
# UVM_INFO ../env/m_agent/axi_m_mon.sv(60) @ 0: uvm_test_top.env_h.m_uvc_h.m_agent_h[0].m_mon_h [M MON write data PHASE before] Inside master mon
# UVM_INFO ../env/m_agent/axi_m_mon.sv(85) @ 0: uvm_test_top.env_h.m_uvc_h.m_agent_h[0].m_mon_h [M MON read addr PHASE before] Inside master mon
# UVM_INFO ../env/m_agent/axi_m_mon.sv(106) @ 0: uvm_test_top.env_h.m_uvc_h.m_agent_h[0].m_mon_h [M MON read data PHASE before] Inside master mon
# Before AW CHANNEL
# Before W CHANNEL
# Before AR CHANNEL
# Before R CHANNEL
# cnt : 1
# cnt : 2
# cnt : 3
# cnt : 4
# cnt : 5
# cnt : 6
# cnt : 7
# cnt : 8
# cnt : 9
# cnt : 10
# cnt : 11
# cnt : 12
# cnt : 13
# cnt : 14
# cnt : 15
# cnt : 16
# cnt : 17
# cnt : 18
# cnt : 19
# cnt : 20
# cnt : 21
# cnt : 22
# cnt : 23
# cnt : 24
# cnt : 25
# cnt : 26
# cnt : 27
# cnt : 28
# cnt : 29
# cnt : 30
# cnt : 31
# cnt : 32
# cnt : 33
# cnt : 34
# cnt : 35
# cnt : 36
# cnt : 37
# cnt : 38
# cnt : 39
# cnt : 40
# cnt : 41
# cnt : 42
# cnt : 43
# cnt : 44
# cnt : 45
# cnt : 46
# cnt : 47
# cnt : 48
# cnt : 49
# cnt : 50
# cnt : 51
# cnt : 52
# cnt : 53
# cnt : 54
# cnt : 55
# cnt : 56
# cnt : 57
# cnt : 58
# cnt : 59
# cnt : 60
# cnt : 61
# cnt : 62
# cnt : 63
# cnt : 64
# cnt : 65
# cnt : 66
# cnt : 67
# cnt : 68
# cnt : 69
# cnt : 70
# cnt : 71
# cnt : 72
# cnt : 73
# cnt : 74
# cnt : 75
# cnt : 76
# cnt : 77
# cnt : 78
# cnt : 79
# cnt : 80
# cnt : 81
# cnt : 82
# cnt : 83
# cnt : 84
# cnt : 85
# cnt : 86
# cnt : 87
# cnt : 88
# cnt : 89
# cnt : 90
# cnt : 91
# cnt : 92
# cnt : 93
# cnt : 94
# cnt : 95
# cnt : 96
# cnt : 97
# cnt : 98
# cnt : 99
# cnt : 100
# cnt : 101
# cnt : 102
# cnt : 103
# cnt : 104
# cnt : 105
# cnt : 106
# cnt : 107
# cnt : 108
# cnt : 109
# cnt : 110
# cnt : 111
# cnt : 112
# cnt : 113
# cnt : 114
# cnt : 115
# cnt : 116
# cnt : 117
# cnt : 118
# cnt : 119
# cnt : 120
# cnt : 121
# cnt : 122
# cnt : 123
# cnt : 124
# cnt : 125
# cnt : 126
# cnt : 127
# cnt : 128
# cnt : 129
# cnt : 130
# cnt : 131
# cnt : 132
# cnt : 133
# cnt : 134
# cnt : 135
# cnt : 136
# cnt : 137
# cnt : 138
# cnt : 139
# cnt : 140
# cnt : 141
# cnt : 142
# cnt : 143
# cnt : 144
# cnt : 145
# cnt : 146
# cnt : 147
# cnt : 148
# cnt : 149
# cnt : 150
# cnt : 151
# cnt : 152
# cnt : 153
# cnt : 154
# cnt : 155
# cnt : 156
# cnt : 157
# cnt : 158
# cnt : 159
# cnt : 160
# cnt : 161
# cnt : 162
# cnt : 163
# cnt : 164
# cnt : 165
# cnt : 166
# cnt : 167
# cnt : 168
# cnt : 169
# cnt : 170
# cnt : 171
# cnt : 172
# cnt : 173
# cnt : 174
# cnt : 175
# cnt : 176
# cnt : 177
# cnt : 178
# cnt : 179
# cnt : 180
# cnt : 181
# cnt : 182
# cnt : 183
# cnt : 184
# cnt : 185
# cnt : 186
# cnt : 187
# cnt : 188
# cnt : 189
# cnt : 190
# cnt : 191
# cnt : 192
# cnt : 193
# cnt : 194
# cnt : 195
# cnt : 196
# cnt : 197
# cnt : 198
# cnt : 199
# cnt : 200
# cnt : 201
# cnt : 202
# cnt : 203
# cnt : 204
# cnt : 205
# cnt : 206
# cnt : 207
# cnt : 208
# cnt : 209
# cnt : 210
# cnt : 211
# cnt : 212
# cnt : 213
# cnt : 214
# cnt : 215
# cnt : 216
# cnt : 217
# cnt : 218
# cnt : 219
# cnt : 220
# cnt : 221
# cnt : 222
# cnt : 223
# cnt : 224
# cnt : 225
# cnt : 226
# cnt : 227
# cnt : 228
# cnt : 229
# cnt : 230
# cnt : 231
# cnt : 232
# cnt : 233
# cnt : 234
# cnt : 235
# cnt : 236
# cnt : 237
# cnt : 238
# cnt : 239
# cnt : 240
# cnt : 241
# cnt : 242
# cnt : 243
# cnt : 244
# cnt : 245
# cnt : 246
# cnt : 247
# cnt : 248
# cnt : 249
# cnt : 250
# cnt : 251
# cnt : 252
# cnt : 253
# cnt : 254
# cnt : 255
# cnt : 256
# cnt : 257
# cnt : 258
# cnt : 259
# cnt : 260
# cnt : 261
# cnt : 262
# cnt : 263
# cnt : 264
# cnt : 265
# cnt : 266
# cnt : 267
# cnt : 268
# cnt : 269
# cnt : 270
# cnt : 271
# cnt : 272
# cnt : 273
# cnt : 274
# cnt : 275
# cnt : 276
# cnt : 277
# cnt : 278
# cnt : 279
# cnt : 280
# cnt : 281
# cnt : 282
# cnt : 283
# cnt : 284
# cnt : 285
# cnt : 286
# cnt : 287
# cnt : 288
# cnt : 289
# cnt : 290
# cnt : 291
# cnt : 292
# cnt : 293
# cnt : 294
# cnt : 295
# cnt : 296
# cnt : 297
# cnt : 298
# cnt : 299
# cnt : 300
# cnt : 301
# cnt : 302
# cnt : 303
# cnt : 304
# cnt : 305
# cnt : 306
# cnt : 307
# cnt : 308
# cnt : 309
# cnt : 310
# cnt : 311
# cnt : 312
# cnt : 313
# cnt : 314
# cnt : 315
# cnt : 316
# cnt : 317
# cnt : 318
# cnt : 319
# cnt : 320
# cnt : 321
# cnt : 322
# cnt : 323
# cnt : 324
# cnt : 325
# cnt : 326
# cnt : 327
# cnt : 328
# cnt : 329
# cnt : 330
# cnt : 331
# cnt : 332
# cnt : 333
# cnt : 334
# cnt : 335
# cnt : 336
# cnt : 337
# cnt : 338
# cnt : 339
# cnt : 340
# cnt : 341
# cnt : 342
# cnt : 343
# cnt : 344
# cnt : 345
# cnt : 346
# cnt : 347
# cnt : 348
# cnt : 349
# cnt : 350
# cnt : 351
# cnt : 352
# cnt : 353
# cnt : 354
# cnt : 355
# cnt : 356
# cnt : 357
# cnt : 358
# cnt : 359
# cnt : 360
# cnt : 361
# cnt : 362
# cnt : 363
# cnt : 364
# cnt : 365
# cnt : 366
# cnt : 367
# cnt : 368
# cnt : 369
# cnt : 370
# cnt : 371
# cnt : 372
# cnt : 373
# cnt : 374
# cnt : 375
# cnt : 376
# cnt : 377
# cnt : 378
# cnt : 379
# cnt : 380
# cnt : 381
# cnt : 382
# cnt : 383
# cnt : 384
# cnt : 385
# cnt : 386
# cnt : 387
# cnt : 388
# cnt : 389
# cnt : 390
# cnt : 391
# cnt : 392
# cnt : 393
# cnt : 394
# cnt : 395
# cnt : 396
# cnt : 397
# cnt : 398
# cnt : 399
# cnt : 400
# cnt : 401
# cnt : 402
# cnt : 403
# cnt : 404
# cnt : 405
# cnt : 406
# cnt : 407
# cnt : 408
# cnt : 409
# cnt : 410
# cnt : 411
# cnt : 412
# cnt : 413
# cnt : 414
# cnt : 415
# cnt : 416
# cnt : 417
# cnt : 418
# cnt : 419
# cnt : 420
# cnt : 421
# cnt : 422
# cnt : 423
# cnt : 424
# cnt : 425
# cnt : 426
# cnt : 427
# cnt : 428
# cnt : 429
# cnt : 430
# cnt : 431
# cnt : 432
# cnt : 433
# cnt : 434
# cnt : 435
# cnt : 436
# cnt : 437
# cnt : 438
# cnt : 439
# cnt : 440
# cnt : 441
# cnt : 442
# cnt : 443
# cnt : 444
# cnt : 445
# cnt : 446
# cnt : 447
# cnt : 448
# cnt : 449
# cnt : 450
# cnt : 451
# cnt : 452
# cnt : 453
# cnt : 454
# cnt : 455
# cnt : 456
# cnt : 457
# cnt : 458
# cnt : 459
# cnt : 460
# cnt : 461
# cnt : 462
# cnt : 463
# cnt : 464
# cnt : 465
# cnt : 466
# cnt : 467
# cnt : 468
# cnt : 469
# cnt : 470
# cnt : 471
# cnt : 472
# cnt : 473
# cnt : 474
# cnt : 475
# cnt : 476
# cnt : 477
# cnt : 478
# cnt : 479
# cnt : 480
# cnt : 481
# cnt : 482
# cnt : 483
# cnt : 484
# cnt : 485
# cnt : 486
# cnt : 487
# cnt : 488
# cnt : 489
# cnt : 490
# cnt : 491
# cnt : 492
# cnt : 493
# cnt : 494
# cnt : 495
# cnt : 496
# cnt : 497
# cnt : 498
# cnt : 499
# cnt : 500
# cnt : 501
# cnt : 502
# cnt : 503
# cnt : 504
# cnt : 505
# cnt : 506
# cnt : 507
# cnt : 508
# cnt : 509
# cnt : 510
# cnt : 511
# cnt : 512
# WID: 48469 , AWID : 48469
#                   15wlast : 0
# WID: 48469 , AWID : 48469
# arid in s mon : 60203
#                   25wlast : 0
# WID: 48469 , AWID : 48469
# m mon ar id : 60203
# r cnt in s seqs before: 1
# arid in s mon : 59707
#                   35wlast : 0
# WID: 48469 , AWID : 48469
# m mon ar id : 59707
# r cnt in s seqs before: 2
# arid in s mon : 59859
#                   45wlast : 0
# WID: 48469 , AWID : 48469
# m mon ar id : 59859
# r cnt in s seqs before: 3
# arid in s mon : 10426
#                   55wlast : 0
# WID: 48469 , AWID : 48469
# m mon ar id : 10426
# r cnt in s seqs before: 4
# arid in s mon : 61524
#                   65wlast : 0
# WID: 48469 , AWID : 48469
# m mon ar id : 61524
# r cnt in s seqs before: 5
# arid in s mon : 26459
#                   75wlast : 0
# WID: 48469 , AWID : 48469
# m mon ar id : 26459
# r cnt in s seqs before: 6
# arid in s mon : 22357
#                   85wlast : 0
# WID: 48469 , AWID : 48469
# m mon ar id : 22357
# r cnt in s seqs before: 7
# arid in s mon : 58966
#                   95wlast : 0
# WID: 48469 , AWID : 48469
# m mon ar id : 58966
# r cnt in s seqs before: 8
# arid in s mon : 64759
#                  105wlast : 0
# WID: 48469 , AWID : 48469
# m mon ar id : 64759
# r cnt in s seqs before: 9
# arid in s mon : 43156
#                  115wlast : 0
# WID: 48469 , AWID : 48469
# m mon ar id : 43156
# r cnt in s seqs before: 10
# arid in s mon : 52439
#                  125wlast : 0
# WID: 48469 , AWID : 48469
# m mon ar id : 52439
# r cnt in s seqs before: 11
# arid in s mon : 4905
#                  135wlast : 0
# WID: 48469 , AWID : 48469
# m mon ar id : 4905
# r cnt in s seqs before: 12
# arid in s mon : 35577
#                  145wlast : 0
# WID: 48469 , AWID : 48469
# m mon ar id : 35577
# r cnt in s seqs before: 13
# arid in s mon : 25219
#                  155wlast : 0
# WID: 48469 , AWID : 48469
# m mon ar id : 25219
# r cnt in s seqs before: 14
# arid in s mon : 47995
#                  165wlast : 0
# WID: 48469 , AWID : 48469
# m mon ar id : 47995
# r cnt in s seqs before: 15
# arid in s mon : 51276
#                  175wlast : 0
# WID: 48469 , AWID : 48469
# m mon ar id : 51276
# r cnt in s seqs before: 16
# arid in s mon : 44353
#                  185wlast : 0
# WID: 48469 , AWID : 48469
# m mon ar id : 44353
# r cnt in s seqs before: 17
# arid in s mon : 34273
#                  195wlast : 0
# WID: 48469 , AWID : 48469
# m mon ar id : 34273
# r cnt in s seqs before: 18
# arid in s mon : 40878
#                  205wlast : 0
# WID: 48469 , AWID : 48469
# m mon ar id : 40878
# r cnt in s seqs before: 19
# arid in s mon : 65033
#                  215wlast : 0
# WID: 48469 , AWID : 48469
# m mon ar id : 65033
# r cnt in s seqs before: 20
# arid in s mon : 39064
#                  225wlast : 0
# WID: 48469 , AWID : 48469
# m mon ar id : 39064
# r cnt in s seqs before: 21
# arid in s mon : 62773
#                  235wlast : 0
# WID: 48469 , AWID : 48469
# m mon ar id : 62773
# r cnt in s seqs before: 22
# arid in s mon : 60350
#                  245wlast : 0
# WID: 48469 , AWID : 48469
# m mon ar id : 60350
# r cnt in s seqs before: 23
# arid in s mon : 45043
#                  255wlast : 0
# WID: 48469 , AWID : 48469
# m mon ar id : 45043
# r cnt in s seqs before: 24
# arid in s mon : 15796
#                  265wlast : 0
# WID: 48469 , AWID : 48469
# m mon ar id : 15796
# r cnt in s seqs before: 25
# arid in s mon : 64427
#                  275wlast : 0
# WID: 48469 , AWID : 48469
# m mon ar id : 64427
# r cnt in s seqs before: 26
# arid in s mon : 15132
#                  285wlast : 0
# WID: 48469 , AWID : 48469
# m mon ar id : 15132
# r cnt in s seqs before: 27
# arid in s mon : 25003
#                  295wlast : 0
# WID: 48469 , AWID : 48469
# m mon ar id : 25003
# r cnt in s seqs before: 28
# arid in s mon : 51408
#                  305wlast : 0
# WID: 48469 , AWID : 48469
# m mon ar id : 51408
# r cnt in s seqs before: 29
# arid in s mon : 29970
#                  315wlast : 0
# WID: 48469 , AWID : 48469
# m mon ar id : 29970
# r cnt in s seqs before: 30
# arid in s mon : 11395
#                  325wlast : 0
# WID: 48469 , AWID : 48469
# m mon ar id : 11395
# r cnt in s seqs before: 31
# arid in s mon : 43166
#                  335wlast : 0
# WID: 48469 , AWID : 48469
# m mon ar id : 43166
# r cnt in s seqs before: 32
# arid in s mon : 11187
#                  345wlast : 0
# WID: 48469 , AWID : 48469
# m mon ar id : 11187
# r cnt in s seqs before: 33
# arid in s mon : 5180
#                  355wlast : 0
# WID: 48469 , AWID : 48469
# m mon ar id : 5180
# r cnt in s seqs before: 34
# arid in s mon : 33047
#                  365wlast : 0
# WID: 48469 , AWID : 48469
# m mon ar id : 33047
# r cnt in s seqs before: 35
# arid in s mon : 41870
#                  375wlast : 0
# WID: 48469 , AWID : 48469
# m mon ar id : 41870
# r cnt in s seqs before: 36
# arid in s mon : 14176
#                  385wlast : 0
# WID: 48469 , AWID : 48469
# m mon ar id : 14176
# r cnt in s seqs before: 37
# arid in s mon : 15499
#                  395wlast : 0
# WID: 48469 , AWID : 48469
# m mon ar id : 15499
# r cnt in s seqs before: 38
# arid in s mon : 29379
#                  405wlast : 0
# WID: 48469 , AWID : 48469
# m mon ar id : 29379
# r cnt in s seqs before: 39
# arid in s mon : 11568
#                  415wlast : 0
# WID: 48469 , AWID : 48469
# m mon ar id : 11568
# r cnt in s seqs before: 40
# arid in s mon : 16179
#                  425wlast : 0
# WID: 48469 , AWID : 48469
# m mon ar id : 16179
# r cnt in s seqs before: 41
# arid in s mon : 60092
#                  435wlast : 0
# WID: 48469 , AWID : 48469
# m mon ar id : 60092
# r cnt in s seqs before: 42
# arid in s mon : 36315
#                  445wlast : 0
# WID: 48469 , AWID : 48469
# m mon ar id : 36315
# r cnt in s seqs before: 43
# arid in s mon : 5087
#                  455wlast : 0
# WID: 48469 , AWID : 48469
# m mon ar id : 5087
# r cnt in s seqs before: 44
# arid in s mon : 47476
#                  465wlast : 0
# WID: 48469 , AWID : 48469
# m mon ar id : 47476
# r cnt in s seqs before: 45
# arid in s mon : 36504
#                  475wlast : 0
# WID: 48469 , AWID : 48469
# m mon ar id : 36504
# r cnt in s seqs before: 46
# arid in s mon : 22723
#                  485wlast : 0
# WID: 48469 , AWID : 48469
# m mon ar id : 22723
# r cnt in s seqs before: 47
# arid in s mon : 50465
#                  495wlast : 0
# WID: 48469 , AWID : 48469
# m mon ar id : 50465
# r cnt in s seqs before: 48
# arid in s mon : 9563
#                  505wlast : 0
# WID: 48469 , AWID : 48469
# m mon ar id : 9563
# r cnt in s seqs before: 49
# arid in s mon : 12754
#                  515wlast : 0
# WID: 48469 , AWID : 48469
# m mon ar id : 12754
# r cnt in s seqs before: 50
# arid in s mon : 32108
#                  525wlast : 0
# WID: 48469 , AWID : 48469
# m mon ar id : 32108
# r cnt in s seqs before: 51
# arid in s mon : 12915
#                  535wlast : 0
# WID: 48469 , AWID : 48469
# m mon ar id : 12915
# r cnt in s seqs before: 52
# arid in s mon : 58420
#                  545wlast : 0
# WID: 48469 , AWID : 48469
# m mon ar id : 58420
# r cnt in s seqs before: 53
# arid in s mon : 21916
#                  555wlast : 0
# WID: 48469 , AWID : 48469
# m mon ar id : 21916
# r cnt in s seqs before: 54
# arid in s mon : 31141
#                  565wlast : 0
# WID: 48469 , AWID : 48469
# m mon ar id : 31141
# r cnt in s seqs before: 55
# arid in s mon : 36107
#                  575wlast : 0
# WID: 48469 , AWID : 48469
# m mon ar id : 36107
# r cnt in s seqs before: 56
# arid in s mon : 65117
#                  585wlast : 0
# WID: 48469 , AWID : 48469
# m mon ar id : 65117
# r cnt in s seqs before: 57
# arid in s mon : 21315
#                  595wlast : 0
# WID: 48469 , AWID : 48469
# m mon ar id : 21315
# r cnt in s seqs before: 58
# arid in s mon : 58658
#                  605wlast : 0
# WID: 48469 , AWID : 48469
# m mon ar id : 58658
# r cnt in s seqs before: 59
# arid in s mon : 55026
#                  615wlast : 0
# WID: 48469 , AWID : 48469
# m mon ar id : 55026
# r cnt in s seqs before: 60
# arid in s mon : 30931
#                  625wlast : 0
# WID: 48469 , AWID : 48469
# m mon ar id : 30931
# r cnt in s seqs before: 61
# arid in s mon : 21841
#                  635wlast : 0
# WID: 48469 , AWID : 48469
# m mon ar id : 21841
# r cnt in s seqs before: 62
# arid in s mon : 5800
#                  645wlast : 0
# WID: 48469 , AWID : 48469
# m mon ar id : 5800
# r cnt in s seqs before: 63
# arid in s mon : 56378
#                  655wlast : 0
# WID: 48469 , AWID : 48469
# m mon ar id : 56378
# r cnt in s seqs before: 64
# arid in s mon : 43113
#                  665wlast : 0
# WID: 48469 , AWID : 48469
# m mon ar id : 43113
# r cnt in s seqs before: 65
# arid in s mon : 31737
#                  675wlast : 0
# WID: 48469 , AWID : 48469
# m mon ar id : 31737
# r cnt in s seqs before: 66
# arid in s mon : 34398
#                  685wlast : 0
# WID: 48469 , AWID : 48469
# m mon ar id : 34398
# r cnt in s seqs before: 67
# arid in s mon : 20639
#                  695wlast : 0
# WID: 48469 , AWID : 48469
# m mon ar id : 20639
# r cnt in s seqs before: 68
# arid in s mon : 43133
#                  705wlast : 0
# WID: 48469 , AWID : 48469
# m mon ar id : 43133
# r cnt in s seqs before: 69
# arid in s mon : 54666
#                  715wlast : 0
# WID: 48469 , AWID : 48469
# m mon ar id : 54666
# r cnt in s seqs before: 70
# arid in s mon : 2480
#                  725wlast : 0
# WID: 48469 , AWID : 48469
# m mon ar id : 2480
# r cnt in s seqs before: 71
# arid in s mon : 58224
#                  735wlast : 0
# WID: 48469 , AWID : 48469
# m mon ar id : 58224
# r cnt in s seqs before: 72
# arid in s mon : 18096
#                  745wlast : 0
# WID: 48469 , AWID : 48469
# m mon ar id : 18096
# r cnt in s seqs before: 73
# arid in s mon : 10861
#                  755wlast : 0
# WID: 48469 , AWID : 48469
# m mon ar id : 10861
# r cnt in s seqs before: 74
# abc : 1
# abc : 2
# abc : 3
# abc : 4
# abc : 5
# abc : 6
# abc : 7
# abc : 8
# abc : 9
# abc : 10
# abc : 11
# abc : 12
# abc : 13
# abc : 14
# abc : 15
# abc : 16
# abc : 17
# abc : 18
# abc : 19
# abc : 20
# abc : 21
# abc : 22
# abc : 23
# abc : 24
# abc : 25
# abc : 26
# abc : 27
# abc : 28
# abc : 29
# abc : 30
# abc : 31
# abc : 32
# abc : 33
# abc : 34
# abc : 35
# abc : 36
# abc : 37
# abc : 38
# abc : 39
# abc : 40
# abc : 41
# abc : 42
# abc : 43
# abc : 44
# abc : 45
# abc : 46
# abc : 47
# abc : 48
# abc : 49
# abc : 50
# abc : 51
# abc : 52
# abc : 53
# abc : 54
# abc : 55
# abc : 56
# abc : 57
# abc : 58
# abc : 59
# abc : 60
# abc : 61
# abc : 62
# abc : 63
# abc : 64
# abc : 65
# abc : 66
# abc : 67
# abc : 68
# abc : 69
# abc : 70
# abc : 71
# abc : 72
# abc : 73
# abc : 74
# abc : 75
# abc : 76
# xyz : 1
# xyz : 2
# xyz : 3
# xyz : 4
# xyz : 5
# xyz : 6
# xyz : 7
# xyz : 8
# xyz : 9
# xyz : 10
# xyz : 11
# xyz : 12
# xyz : 13
# xyz : 14
# xyz : 15
# xyz : 16
# xyz : 17
# xyz : 18
# xyz : 19
# xyz : 20
# xyz : 21
# xyz : 22
# xyz : 23
# xyz : 24
# xyz : 25
# xyz : 26
# xyz : 27
# xyz : 28
# xyz : 29
# xyz : 30
# xyz : 31
# xyz : 32
# xyz : 33
# xyz : 34
# xyz : 35
# xyz : 36
# xyz : 37
# xyz : 38
# xyz : 39
# xyz : 40
# xyz : 41
# xyz : 42
# xyz : 43
# xyz : 44
# xyz : 45
# xyz : 46
# xyz : 47
# xyz : 48
# xyz : 49
# xyz : 50
# xyz : 51
# xyz : 52
# xyz : 53
# xyz : 54
# xyz : 55
# xyz : 56
# xyz : 57
# xyz : 58
# xyz : 59
# xyz : 60
# xyz : 61
# xyz : 62
# xyz : 63
# xyz : 64
# xyz : 65
# UVM_INFO ../env/axi_sb.sv(57) @ 765: uvm_test_top.env_h.sb_h [before exp method in sb] aaaa
# UVM_INFO ../env/axi_sb.sv(68) @ 765: uvm_test_top.env_h.sb_h [after exp method in sb] aaaa
# arid in s mon : 29068
#                  765wlast : 1
# AFFTER W CHANNEL
# WID: 48924 , AWID : 48924
# UVM_INFO ../env/axi_sb.sv(40) @ 765: uvm_test_top.env_h.sb_h [DEBUG_SB] Master Transaction Received! kind_e = WRITE
# m mon ar id : 29068
# cnt_R_d: 1
# s seqs ARID : 60203, Rid : 60203
# s seqs ARID : 60203, Rid : 60203
# s seqs ARID : 60203, Rid : 60203
# s seqs ARID : 60203, Rid : 60203
# s seqs ARID : 60203, Rid : 60203
# s seqs ARID : 60203, Rid : 60203
# s seqs ARID : 60203, Rid : 60203
# s seqs ARID : 60203, Rid : 60203
# s seqs ARID : 60203, Rid : 60203
# s seqs ARID : 60203, Rid : 60203
# s seqs ARID : 60203, Rid : 60203
# s seqs ARID : 60203, Rid : 60203
# s seqs ARID : 60203, Rid : 60203
# s seqs ARID : 60203, Rid : 60203
# s seqs ARID : 60203, Rid : 60203
# s seqs ARID : 60203, Rid : 60203
# s seqs ARID : 60203, Rid : 60203
# s seqs ARID : 60203, Rid : 60203
# s seqs ARID : 60203, Rid : 60203
# s seqs ARID : 60203, Rid : 60203
# s seqs ARID : 60203, Rid : 60203
# s seqs ARID : 60203, Rid : 60203
# s seqs ARID : 60203, Rid : 60203
# s seqs ARID : 60203, Rid : 60203
# s seqs ARID : 60203, Rid : 60203
# s seqs ARID : 60203, Rid : 60203
# s seqs ARID : 60203, Rid : 60203
# s seqs ARID : 60203, Rid : 60203
# s seqs ARID : 60203, Rid : 60203
# s seqs ARID : 60203, Rid : 60203
# s seqs ARID : 60203, Rid : 60203
# s seqs ARID : 60203, Rid : 60203
# s seqs ARID : 60203, Rid : 60203
# s seqs ARID : 60203, Rid : 60203
# s seqs ARID : 60203, Rid : 60203
# s seqs ARID : 60203, Rid : 60203
# s seqs ARID : 60203, Rid : 60203
# s seqs ARID : 60203, Rid : 60203
# s seqs ARID : 60203, Rid : 60203
# s seqs ARID : 60203, Rid : 60203
# s seqs ARID : 60203, Rid : 60203
# s seqs ARID : 60203, Rid : 60203
# s seqs ARID : 60203, Rid : 60203
# s seqs ARID : 60203, Rid : 60203
# s seqs ARID : 60203, Rid : 60203
# s seqs ARID : 60203, Rid : 60203
# s seqs ARID : 60203, Rid : 60203
# s seqs ARID : 60203, Rid : 60203
# s seqs ARID : 60203, Rid : 60203
# s seqs ARID : 60203, Rid : 60203
# s seqs ARID : 60203, Rid : 60203
# s seqs ARID : 60203, Rid : 60203
# s seqs ARID : 60203, Rid : 60203
# s seqs ARID : 60203, Rid : 60203
# s seqs ARID : 60203, Rid : 60203
# s seqs ARID : 60203, Rid : 60203
# s seqs ARID : 60203, Rid : 60203
# s seqs ARID : 60203, Rid : 60203
# s seqs ARID : 60203, Rid : 60203
# s seqs ARID : 60203, Rid : 60203
# s seqs ARID : 60203, Rid : 60203
# s seqs ARID : 60203, Rid : 60203
# s seqs ARID : 60203, Rid : 60203
# s seqs ARID : 60203, Rid : 60203
# s seqs ARID : 60203, Rid : 60203
# r cnt in s seqs after : 1
# r cnt in s seqs before: 75
# INSIDE SLAVE DRIVER READ DATA CH
# after arid : 60203 , rid : 60203
# r_data_cnt : 1
# after arid : 60203 , rid : 60203
# arid in s mon : 45337
#                  775wlast : 0
# WID: 48924 , AWID : 48924
# m mon ar id : 45337
# r cnt in s seqs before: 76
# r_data_cnt : 2
# after arid : 60203 , rid : 60203
# arid in s mon : 24484
#                  785wlast : 0
# WID: 48924 , AWID : 48924
# m mon ar id : 24484
# r cnt in s seqs before: 77
# UVM_INFO ../env/m_agent/axi_base_m_seqs.sv(26) @ 785: uvm_test_top.env_h.m_uvc_h.m_agent_h[0].m_seqr_h@@vseqs_h.m_wseqs_h [IN V SEQS] Got B-channel response from driver
# r_data_cnt : 3
# after arid : 60203 , rid : 60203
# arid in s mon : 27438
#                  795wlast : 0
# WID: 48924 , AWID : 48924
# m mon ar id : 27438
# r cnt in s seqs before: 78
# r_data_cnt : 4
# after arid : 60203 , rid : 60203
# arid in s mon : 9050
#                  805wlast : 0
# WID: 48924 , AWID : 48924
# m mon ar id : 9050
# r cnt in s seqs before: 79
# r_data_cnt : 5
# after arid : 60203 , rid : 60203
# arid in s mon : 59726
#                  815wlast : 0
# WID: 48924 , AWID : 48924
# m mon ar id : 59726
# r cnt in s seqs before: 80
# r_data_cnt : 6
# after arid : 60203 , rid : 60203
# arid in s mon : 3496
#                  825wlast : 0
# WID: 48924 , AWID : 48924
# m mon ar id : 3496
# r cnt in s seqs before: 81
# r_data_cnt : 7
# after arid : 60203 , rid : 60203
# arid in s mon : 23075
#                  835wlast : 0
# WID: 48924 , AWID : 48924
# m mon ar id : 23075
# r cnt in s seqs before: 82
# r_data_cnt : 8
# after arid : 60203 , rid : 60203
# arid in s mon : 53893
#                  845wlast : 0
# WID: 48924 , AWID : 48924
# m mon ar id : 53893
# r cnt in s seqs before: 83
# r_data_cnt : 9
# after arid : 60203 , rid : 60203
# arid in s mon : 57238
#                  855wlast : 0
# WID: 48924 , AWID : 48924
# m mon ar id : 57238
# r cnt in s seqs before: 84
# r_data_cnt : 10
# after arid : 60203 , rid : 60203
# arid in s mon : 61303
#                  865wlast : 0
# WID: 48924 , AWID : 48924
# m mon ar id : 61303
# r cnt in s seqs before: 85
# r_data_cnt : 11
# after arid : 60203 , rid : 60203
# arid in s mon : 23900
#                  875wlast : 0
# WID: 48924 , AWID : 48924
# m mon ar id : 23900
# r cnt in s seqs before: 86
# r_data_cnt : 12
# after arid : 60203 , rid : 60203
# arid in s mon : 61299
#                  885wlast : 0
# WID: 48924 , AWID : 48924
# m mon ar id : 61299
# r cnt in s seqs before: 87
# r_data_cnt : 13
# after arid : 60203 , rid : 60203
# arid in s mon : 13152
#                  895wlast : 0
# WID: 48924 , AWID : 48924
# m mon ar id : 13152
# r cnt in s seqs before: 88
# r_data_cnt : 14
# after arid : 60203 , rid : 60203
# arid in s mon : 60289
#                  905wlast : 0
# WID: 48924 , AWID : 48924
# m mon ar id : 60289
# r cnt in s seqs before: 89
# r_data_cnt : 15
# after arid : 60203 , rid : 60203
# arid in s mon : 46097
#                  915wlast : 0
# WID: 48924 , AWID : 48924
# m mon ar id : 46097
# r cnt in s seqs before: 90
# r_data_cnt : 16
# after arid : 60203 , rid : 60203
# arid in s mon : 13132
#                  925wlast : 0
# WID: 48924 , AWID : 48924
# m mon ar id : 13132
# r cnt in s seqs before: 91
# r_data_cnt : 17
# after arid : 60203 , rid : 60203
# arid in s mon : 26239
#                  935wlast : 0
# WID: 48924 , AWID : 48924
# m mon ar id : 26239
# r cnt in s seqs before: 92
# r_data_cnt : 18
# after arid : 60203 , rid : 60203
# arid in s mon : 50062
#                  945wlast : 0
# WID: 48924 , AWID : 48924
# m mon ar id : 50062
# r cnt in s seqs before: 93
# r_data_cnt : 19
# after arid : 60203 , rid : 60203
# arid in s mon : 57647
#                  955wlast : 0
# WID: 48924 , AWID : 48924
# m mon ar id : 57647
# r cnt in s seqs before: 94
# r_data_cnt : 20
# after arid : 60203 , rid : 60203
# arid in s mon : 23728
#                  965wlast : 0
# WID: 48924 , AWID : 48924
# m mon ar id : 23728
# r cnt in s seqs before: 95
# r_data_cnt : 21
# after arid : 60203 , rid : 60203
# arid in s mon : 33600
#                  975wlast : 0
# WID: 48924 , AWID : 48924
# m mon ar id : 33600
# r cnt in s seqs before: 96
# r_data_cnt : 22
# after arid : 60203 , rid : 60203
# arid in s mon : 59131
#                  985wlast : 0
# WID: 48924 , AWID : 48924
# m mon ar id : 59131
# r cnt in s seqs before: 97
# r_data_cnt : 23
# after arid : 60203 , rid : 60203
# arid in s mon : 11031
#                  995wlast : 0
# WID: 48924 , AWID : 48924
# m mon ar id : 11031
# r cnt in s seqs before: 98
# r_data_cnt : 24
# after arid : 60203 , rid : 60203
# arid in s mon : 46713
#                 1005wlast : 0
# WID: 48924 , AWID : 48924
# m mon ar id : 46713
# r cnt in s seqs before: 99
# r_data_cnt : 25
# after arid : 60203 , rid : 60203
# arid in s mon : 44059
#                 1015wlast : 0
# WID: 48924 , AWID : 48924
# m mon ar id : 44059
# r cnt in s seqs before: 100
# r_data_cnt : 26
# after arid : 60203 , rid : 60203
# arid in s mon : 55528
#                 1025wlast : 0
# WID: 48924 , AWID : 48924
# m mon ar id : 55528
# r cnt in s seqs before: 101
# r_data_cnt : 27
# after arid : 60203 , rid : 60203
# arid in s mon : 4360
#                 1035wlast : 0
# WID: 48924 , AWID : 48924
# m mon ar id : 4360
# r cnt in s seqs before: 102
# r_data_cnt : 28
# after arid : 60203 , rid : 60203
# arid in s mon : 3534
#                 1045wlast : 0
# WID: 48924 , AWID : 48924
# m mon ar id : 3534
# r cnt in s seqs before: 103
# r_data_cnt : 29
# after arid : 60203 , rid : 60203
# arid in s mon : 47514
#                 1055wlast : 0
# WID: 48924 , AWID : 48924
# m mon ar id : 47514
# r cnt in s seqs before: 104
# r_data_cnt : 30
# after arid : 60203 , rid : 60203
# arid in s mon : 33182
#                 1065wlast : 0
# WID: 48924 , AWID : 48924
# m mon ar id : 33182
# r cnt in s seqs before: 105
# r_data_cnt : 31
# after arid : 60203 , rid : 60203
# arid in s mon : 56834
#                 1075wlast : 0
# WID: 48924 , AWID : 48924
# m mon ar id : 56834
# r cnt in s seqs before: 106
# r_data_cnt : 32
# after arid : 60203 , rid : 60203
# arid in s mon : 60674
#                 1085wlast : 0
# WID: 48924 , AWID : 48924
# m mon ar id : 60674
# r cnt in s seqs before: 107
# r_data_cnt : 33
# after arid : 60203 , rid : 60203
# arid in s mon : 25794
#                 1095wlast : 0
# WID: 48924 , AWID : 48924
# m mon ar id : 25794
# r cnt in s seqs before: 108
# r_data_cnt : 34
# after arid : 60203 , rid : 60203
# arid in s mon : 24115
#                 1105wlast : 0
# WID: 48924 , AWID : 48924
# m mon ar id : 24115
# r cnt in s seqs before: 109
# r_data_cnt : 35
# after arid : 60203 , rid : 60203
# arid in s mon : 52571
#                 1115wlast : 0
# WID: 48924 , AWID : 48924
# m mon ar id : 52571
# r cnt in s seqs before: 110
# r_data_cnt : 36
# after arid : 60203 , rid : 60203
# arid in s mon : 47495
#                 1125wlast : 0
# WID: 48924 , AWID : 48924
# m mon ar id : 47495
# r cnt in s seqs before: 111
# r_data_cnt : 37
# after arid : 60203 , rid : 60203
# arid in s mon : 11830
#                 1135wlast : 0
# WID: 48924 , AWID : 48924
# m mon ar id : 11830
# r cnt in s seqs before: 112
# r_data_cnt : 38
# after arid : 60203 , rid : 60203
# arid in s mon : 55098
#                 1145wlast : 0
# WID: 48924 , AWID : 48924
# m mon ar id : 55098
# r cnt in s seqs before: 113
# r_data_cnt : 39
# after arid : 60203 , rid : 60203
# arid in s mon : 39152
#                 1155wlast : 0
# WID: 48924 , AWID : 48924
# m mon ar id : 39152
# r cnt in s seqs before: 114
# r_data_cnt : 40
# after arid : 60203 , rid : 60203
# arid in s mon : 15358
#                 1165wlast : 0
# WID: 48924 , AWID : 48924
# m mon ar id : 15358
# r cnt in s seqs before: 115
# r_data_cnt : 41
# after arid : 60203 , rid : 60203
# arid in s mon : 17798
#                 1175wlast : 0
# WID: 48924 , AWID : 48924
# m mon ar id : 17798
# r cnt in s seqs before: 116
# r_data_cnt : 42
# after arid : 60203 , rid : 60203
# arid in s mon : 46781
#                 1185wlast : 0
# WID: 48924 , AWID : 48924
# m mon ar id : 46781
# r cnt in s seqs before: 117
# r_data_cnt : 43
# after arid : 60203 , rid : 60203
# arid in s mon : 1174
#                 1195wlast : 0
# WID: 48924 , AWID : 48924
# m mon ar id : 1174
# r cnt in s seqs before: 118
# r_data_cnt : 44
# after arid : 60203 , rid : 60203
# arid in s mon : 62302
#                 1205wlast : 0
# WID: 48924 , AWID : 48924
# m mon ar id : 62302
# r cnt in s seqs before: 119
# r_data_cnt : 45
# after arid : 60203 , rid : 60203
# arid in s mon : 28103
#                 1215wlast : 0
# WID: 48924 , AWID : 48924
# m mon ar id : 28103
# r cnt in s seqs before: 120
# r_data_cnt : 46
# after arid : 60203 , rid : 60203
# arid in s mon : 28778
#                 1225wlast : 0
# WID: 48924 , AWID : 48924
# m mon ar id : 28778
# r cnt in s seqs before: 121
# r_data_cnt : 47
# after arid : 60203 , rid : 60203
# arid in s mon : 63653
#                 1235wlast : 0
# WID: 48924 , AWID : 48924
# m mon ar id : 63653
# r cnt in s seqs before: 122
# r_data_cnt : 48
# after arid : 60203 , rid : 60203
# arid in s mon : 34193
#                 1245wlast : 0
# WID: 48924 , AWID : 48924
# m mon ar id : 34193
# r cnt in s seqs before: 123
# r_data_cnt : 49
# after arid : 60203 , rid : 60203
# arid in s mon : 63464
#                 1255wlast : 0
# WID: 48924 , AWID : 48924
# m mon ar id : 63464
# r cnt in s seqs before: 124
# r_data_cnt : 50
# after arid : 60203 , rid : 60203
# arid in s mon : 54192
#                 1265wlast : 0
# WID: 48924 , AWID : 48924
# m mon ar id : 54192
# r cnt in s seqs before: 125
# r_data_cnt : 51
# after arid : 60203 , rid : 60203
# arid in s mon : 46732
#                 1275wlast : 0
# WID: 48924 , AWID : 48924
# m mon ar id : 46732
# r cnt in s seqs before: 126
# r_data_cnt : 52
# after arid : 60203 , rid : 60203
# arid in s mon : 57462
#                 1285wlast : 0
# WID: 48924 , AWID : 48924
# m mon ar id : 57462
# r cnt in s seqs before: 127
# r_data_cnt : 53
# after arid : 60203 , rid : 60203
# arid in s mon : 20430
#                 1295wlast : 0
# WID: 48924 , AWID : 48924
# m mon ar id : 20430
# r cnt in s seqs before: 128
# r_data_cnt : 54
# after arid : 60203 , rid : 60203
# arid in s mon : 17071
#                 1305wlast : 0
# WID: 48924 , AWID : 48924
# m mon ar id : 17071
# r cnt in s seqs before: 129
# r_data_cnt : 55
# after arid : 60203 , rid : 60203
# arid in s mon : 29688
#                 1315wlast : 0
# WID: 48924 , AWID : 48924
# m mon ar id : 29688
# r cnt in s seqs before: 130
# r_data_cnt : 56
# after arid : 60203 , rid : 60203
# arid in s mon : 30346
#                 1325wlast : 0
# WID: 48924 , AWID : 48924
# m mon ar id : 30346
# r cnt in s seqs before: 131
# r_data_cnt : 57
# after arid : 60203 , rid : 60203
# arid in s mon : 7522
#                 1335wlast : 0
# WID: 48924 , AWID : 48924
# m mon ar id : 7522
# r cnt in s seqs before: 132
# r_data_cnt : 58
# after arid : 60203 , rid : 60203
# arid in s mon : 65159
#                 1345wlast : 0
# WID: 48924 , AWID : 48924
# m mon ar id : 65159
# r cnt in s seqs before: 133
# r_data_cnt : 59
# after arid : 60203 , rid : 60203
# arid in s mon : 16437
#                 1355wlast : 0
# WID: 48924 , AWID : 48924
# m mon ar id : 16437
# r cnt in s seqs before: 134
# r_data_cnt : 60
# after arid : 60203 , rid : 60203
# arid in s mon : 32796
#                 1365wlast : 0
# WID: 48924 , AWID : 48924
# m mon ar id : 32796
# r cnt in s seqs before: 135
# r_data_cnt : 61
# after arid : 60203 , rid : 60203
# arid in s mon : 55432
#                 1375wlast : 0
# WID: 48924 , AWID : 48924
# m mon ar id : 55432
# r cnt in s seqs before: 136
# r_data_cnt : 62
# after arid : 60203 , rid : 60203
# arid in s mon : 58882
#                 1385wlast : 0
# WID: 48924 , AWID : 48924
# m mon ar id : 58882
# r cnt in s seqs before: 137
# r_data_cnt : 63
# after arid : 60203 , rid : 60203
# arid in s mon : 64073
#                 1395wlast : 0
# WID: 48924 , AWID : 48924
# m mon ar id : 64073
# r cnt in s seqs before: 138
# r_data_cnt : 64
# after arid : 60203 , rid : 60203
# arid in s mon : 8739
#                 1405wlast : 0
# WID: 48924 , AWID : 48924
# m mon ar id : 8739
# r cnt in s seqs before: 139
# r_data_cnt : 65
# arid in s mon : 15170
#                 1415wlast : 0
# WID: 48924 , AWID : 48924
# m mon ar id : 15170
# UVM_INFO ../env/axi_sb.sv(40) @ 1415: uvm_test_top.env_h.sb_h [DEBUG_SB] Master Transaction Received! kind_e = READ
# act in act : 1
# r id in act : 1
# r cnt in s seqs before: 140
# UVM_INFO ../env/axi_sb.sv(80) @ 1415: uvm_test_top.env_h.sb_h [after event in sb] aaaa
# rid_q : 1
# UVM_INFO ../env/axi_sb.sv(78) @ 1415: uvm_test_top.env_h.sb_h [before event in sb] aaaa
# arid in s mon : 60475
#                 1425wlast : 0
# WID: 48924 , AWID : 48924
# m mon ar id : 60475
# r cnt in s seqs before: 141
# arid in s mon : 6931
#                 1435wlast : 0
# WID: 48924 , AWID : 48924
# m mon ar id : 6931
# r cnt in s seqs before: 142
# arid in s mon : 15421
#                 1445wlast : 0
# WID: 48924 , AWID : 48924
# m mon ar id : 15421
# r cnt in s seqs before: 143
# arid in s mon : 15811
#                 1455wlast : 0
# WID: 48924 , AWID : 48924
# m mon ar id : 15811
# r cnt in s seqs before: 144
# arid in s mon : 20031
#                 1465wlast : 0
# WID: 48924 , AWID : 48924
# m mon ar id : 20031
# r cnt in s seqs before: 145
# arid in s mon : 34178
#                 1475wlast : 0
# WID: 48924 , AWID : 48924
# m mon ar id : 34178
# r cnt in s seqs before: 146
# arid in s mon : 45900
#                 1485wlast : 0
# WID: 48924 , AWID : 48924
# m mon ar id : 45900
# r cnt in s seqs before: 147
# arid in s mon : 17925
#                 1495wlast : 0
# WID: 48924 , AWID : 48924
# m mon ar id : 17925
# r cnt in s seqs before: 148
# arid in s mon : 21982
#                 1505wlast : 0
# WID: 48924 , AWID : 48924
# m mon ar id : 21982
# r cnt in s seqs before: 149
# arid in s mon : 29157
#                 1515wlast : 0
# WID: 48924 , AWID : 48924
# m mon ar id : 29157
# r cnt in s seqs before: 150
# arid in s mon : 5093
#                 1525wlast : 0
# WID: 48924 , AWID : 48924
# m mon ar id : 5093
# r cnt in s seqs before: 151
# arid in s mon : 36034
#                 1535wlast : 0
# WID: 48924 , AWID : 48924
# m mon ar id : 36034
# r cnt in s seqs before: 152
# arid in s mon : 1610
#                 1545wlast : 0
# WID: 48924 , AWID : 48924
# m mon ar id : 1610
# r cnt in s seqs before: 153
# arid in s mon : 11145
#                 1555wlast : 0
# WID: 48924 , AWID : 48924
# m mon ar id : 11145
# r cnt in s seqs before: 154
# arid in s mon : 32294
#                 1565wlast : 0
# WID: 48924 , AWID : 48924
# m mon ar id : 32294
# r cnt in s seqs before: 155
# arid in s mon : 50556
#                 1575wlast : 0
# WID: 48924 , AWID : 48924
# m mon ar id : 50556
# r cnt in s seqs before: 156
# arid in s mon : 60703
#                 1585wlast : 0
# WID: 48924 , AWID : 48924
# m mon ar id : 60703
# r cnt in s seqs before: 157
# arid in s mon : 44266
#                 1595wlast : 0
# WID: 48924 , AWID : 48924
# m mon ar id : 44266
# r cnt in s seqs before: 158
# arid in s mon : 1704
#                 1605wlast : 0
# WID: 48924 , AWID : 48924
# m mon ar id : 1704
# r cnt in s seqs before: 159
# arid in s mon : 10197
#                 1615wlast : 0
# WID: 48924 , AWID : 48924
# m mon ar id : 10197
# r cnt in s seqs before: 160
# arid in s mon : 3642
#                 1625wlast : 0
# WID: 48924 , AWID : 48924
# m mon ar id : 3642
# r cnt in s seqs before: 161
# arid in s mon : 35057
#                 1635wlast : 0
# WID: 48924 , AWID : 48924
# m mon ar id : 35057
# r cnt in s seqs before: 162
# arid in s mon : 60036
#                 1645wlast : 0
# WID: 48924 , AWID : 48924
# m mon ar id : 60036
# r cnt in s seqs before: 163
# arid in s mon : 58209
#                 1655wlast : 0
# WID: 48924 , AWID : 48924
# m mon ar id : 58209
# r cnt in s seqs before: 164
# arid in s mon : 61637
#                 1665wlast : 0
# WID: 48924 , AWID : 48924
# m mon ar id : 61637
# r cnt in s seqs before: 165
# arid in s mon : 65240
#                 1675wlast : 0
# WID: 48924 , AWID : 48924
# m mon ar id : 65240
# r cnt in s seqs before: 166
# arid in s mon : 9525
#                 1685wlast : 0
# WID: 48924 , AWID : 48924
# m mon ar id : 9525
# r cnt in s seqs before: 167
# arid in s mon : 62464
#                 1695wlast : 0
# WID: 48924 , AWID : 48924
# m mon ar id : 62464
# r cnt in s seqs before: 168
# arid in s mon : 52680
#                 1705wlast : 0
# WID: 48924 , AWID : 48924
# m mon ar id : 52680
# r cnt in s seqs before: 169
# arid in s mon : 60644
#                 1715wlast : 0
# WID: 48924 , AWID : 48924
# m mon ar id : 60644
# r cnt in s seqs before: 170
# arid in s mon : 13903
#                 1725wlast : 0
# WID: 48924 , AWID : 48924
# m mon ar id : 13903
# r cnt in s seqs before: 171
# arid in s mon : 25671
#                 1735wlast : 0
# WID: 48924 , AWID : 48924
# m mon ar id : 25671
# r cnt in s seqs before: 172
# arid in s mon : 14884
#                 1745wlast : 0
# WID: 48924 , AWID : 48924
# m mon ar id : 14884
# r cnt in s seqs before: 173
# arid in s mon : 51883
#                 1755wlast : 0
# WID: 48924 , AWID : 48924
# m mon ar id : 51883
# r cnt in s seqs before: 174
# arid in s mon : 46661
#                 1765wlast : 0
# WID: 48924 , AWID : 48924
# m mon ar id : 46661
# r cnt in s seqs before: 175
# arid in s mon : 21501
#                 1775wlast : 0
# WID: 48924 , AWID : 48924
# m mon ar id : 21501
# r cnt in s seqs before: 176
# arid in s mon : 20855
#                 1785wlast : 0
# WID: 48924 , AWID : 48924
# m mon ar id : 20855
# r cnt in s seqs before: 177
# arid in s mon : 28499
#                 1795wlast : 0
# WID: 48924 , AWID : 48924
# m mon ar id : 28499
# r cnt in s seqs before: 178
# arid in s mon : 37609
#                 1805wlast : 0
# WID: 48924 , AWID : 48924
# m mon ar id : 37609
# r cnt in s seqs before: 179
# arid in s mon : 28467
#                 1815wlast : 0
# WID: 48924 , AWID : 48924
# m mon ar id : 28467
# r cnt in s seqs before: 180
# arid in s mon : 49327
#                 1825wlast : 0
# WID: 48924 , AWID : 48924
# m mon ar id : 49327
# r cnt in s seqs before: 181
# arid in s mon : 51207
#                 1835wlast : 0
# WID: 48924 , AWID : 48924
# m mon ar id : 51207
# r cnt in s seqs before: 182
# arid in s mon : 11207
#                 1845wlast : 0
# WID: 48924 , AWID : 48924
# m mon ar id : 11207
# r cnt in s seqs before: 183
# arid in s mon : 51737
#                 1855wlast : 0
# WID: 48924 , AWID : 48924
# m mon ar id : 51737
# r cnt in s seqs before: 184
# arid in s mon : 7600
#                 1865wlast : 0
# WID: 48924 , AWID : 48924
# m mon ar id : 7600
# r cnt in s seqs before: 185
# arid in s mon : 54846
#                 1875wlast : 0
# WID: 48924 , AWID : 48924
# m mon ar id : 54846
# r cnt in s seqs before: 186
# arid in s mon : 32760
#                 1885wlast : 0
# WID: 48924 , AWID : 48924
# m mon ar id : 32760
# r cnt in s seqs before: 187
# arid in s mon : 65405
#                 1895wlast : 0
# WID: 48924 , AWID : 48924
# m mon ar id : 65405
# r cnt in s seqs before: 188
# arid in s mon : 15695
#                 1905wlast : 0
# WID: 48924 , AWID : 48924
# m mon ar id : 15695
# r cnt in s seqs before: 189
# arid in s mon : 27562
#                 1915wlast : 0
# WID: 48924 , AWID : 48924
# m mon ar id : 27562
# r cnt in s seqs before: 190
# arid in s mon : 26224
#                 1925wlast : 0
# WID: 48924 , AWID : 48924
# m mon ar id : 26224
# r cnt in s seqs before: 191
# arid in s mon : 50000
#                 1935wlast : 0
# WID: 48924 , AWID : 48924
# m mon ar id : 50000
# r cnt in s seqs before: 192
# arid in s mon : 37771
#                 1945wlast : 0
# WID: 48924 , AWID : 48924
# m mon ar id : 37771
# r cnt in s seqs before: 193
# arid in s mon : 1822
#                 1955wlast : 0
# WID: 48924 , AWID : 48924
# m mon ar id : 1822
# r cnt in s seqs before: 194
# arid in s mon : 52601
#                 1965wlast : 0
# WID: 48924 , AWID : 48924
# m mon ar id : 52601
# r cnt in s seqs before: 195
# arid in s mon : 40468
#                 1975wlast : 0
# WID: 48924 , AWID : 48924
# m mon ar id : 40468
# r cnt in s seqs before: 196
# arid in s mon : 42402
#                 1985wlast : 0
# WID: 48924 , AWID : 48924
# m mon ar id : 42402
# r cnt in s seqs before: 197
# arid in s mon : 6233
#                 1995wlast : 0
# WID: 48924 , AWID : 48924
# m mon ar id : 6233
# r cnt in s seqs before: 198
# arid in s mon : 23525
#                 2005wlast : 0
# WID: 48924 , AWID : 48924
# m mon ar id : 23525
# r cnt in s seqs before: 199
# arid in s mon : 48882
#                 2015wlast : 0
# WID: 48924 , AWID : 48924
# m mon ar id : 48882
# r cnt in s seqs before: 200
# arid in s mon : 14946
#                 2025wlast : 0
# WID: 48924 , AWID : 48924
# m mon ar id : 14946
# r cnt in s seqs before: 201
# arid in s mon : 57377
#                 2035wlast : 0
# WID: 48924 , AWID : 48924
# m mon ar id : 57377
# r cnt in s seqs before: 202
# arid in s mon : 64018
#                 2045wlast : 0
# WID: 48924 , AWID : 48924
# m mon ar id : 64018
# r cnt in s seqs before: 203
# arid in s mon : 64232
#                 2055wlast : 0
# WID: 48924 , AWID : 48924
# m mon ar id : 64232
# r cnt in s seqs before: 204
# arid in s mon : 50175
#                 2065wlast : 0
# WID: 48924 , AWID : 48924
# m mon ar id : 50175
# r cnt in s seqs before: 205
# arid in s mon : 10060
#                 2075wlast : 0
# WID: 48924 , AWID : 48924
# m mon ar id : 10060
# r cnt in s seqs before: 206
# arid in s mon : 35586
#                 2085wlast : 0
# WID: 48924 , AWID : 48924
# m mon ar id : 35586
# r cnt in s seqs before: 207
# arid in s mon : 51849
#                 2095wlast : 0
# WID: 48924 , AWID : 48924
# m mon ar id : 51849
# r cnt in s seqs before: 208
# arid in s mon : 16229
#                 2105wlast : 0
# WID: 48924 , AWID : 48924
# m mon ar id : 16229
# r cnt in s seqs before: 209
# arid in s mon : 9252
#                 2115wlast : 0
# WID: 48924 , AWID : 48924
# m mon ar id : 9252
# r cnt in s seqs before: 210
# arid in s mon : 39485
#                 2125wlast : 0
# WID: 48924 , AWID : 48924
# m mon ar id : 39485
# r cnt in s seqs before: 211
# arid in s mon : 5133
#                 2135wlast : 0
# WID: 48924 , AWID : 48924
# m mon ar id : 5133
# r cnt in s seqs before: 212
# arid in s mon : 25390
#                 2145wlast : 0
# WID: 48924 , AWID : 48924
# m mon ar id : 25390
# r cnt in s seqs before: 213
# arid in s mon : 47646
#                 2155wlast : 0
# WID: 48924 , AWID : 48924
# m mon ar id : 47646
# r cnt in s seqs before: 214
# arid in s mon : 2668
#                 2165wlast : 0
# WID: 48924 , AWID : 48924
# m mon ar id : 2668
# r cnt in s seqs before: 215
# arid in s mon : 45923
#                 2175wlast : 0
# WID: 48924 , AWID : 48924
# m mon ar id : 45923
# r cnt in s seqs before: 216
# arid in s mon : 51326
#                 2185wlast : 0
# WID: 48924 , AWID : 48924
# m mon ar id : 51326
# r cnt in s seqs before: 217
# arid in s mon : 59857
#                 2195wlast : 0
# WID: 48924 , AWID : 48924
# m mon ar id : 59857
# r cnt in s seqs before: 218
# arid in s mon : 41340
#                 2205wlast : 0
# WID: 48924 , AWID : 48924
# m mon ar id : 41340
# r cnt in s seqs before: 219
# arid in s mon : 6305
#                 2215wlast : 0
# WID: 48924 , AWID : 48924
# m mon ar id : 6305
# r cnt in s seqs before: 220
# arid in s mon : 48320
#                 2225wlast : 0
# WID: 48924 , AWID : 48924
# m mon ar id : 48320
# r cnt in s seqs before: 221
# arid in s mon : 43247
#                 2235wlast : 0
# WID: 48924 , AWID : 48924
# m mon ar id : 43247
# r cnt in s seqs before: 222
# arid in s mon : 44489
#                 2245wlast : 0
# WID: 48924 , AWID : 48924
# m mon ar id : 44489
# r cnt in s seqs before: 223
# arid in s mon : 63037
#                 2255wlast : 0
# WID: 48924 , AWID : 48924
# m mon ar id : 63037
# r cnt in s seqs before: 224
# arid in s mon : 27102
#                 2265wlast : 0
# WID: 48924 , AWID : 48924
# m mon ar id : 27102
# r cnt in s seqs before: 225
# arid in s mon : 12332
#                 2275wlast : 0
# WID: 48924 , AWID : 48924
# m mon ar id : 12332
# r cnt in s seqs before: 226
# arid in s mon : 29305
#                 2285wlast : 0
# WID: 48924 , AWID : 48924
# m mon ar id : 29305
# r cnt in s seqs before: 227
# arid in s mon : 14102
#                 2295wlast : 0
# WID: 48924 , AWID : 48924
# m mon ar id : 14102
# r cnt in s seqs before: 228
# arid in s mon : 32486
#                 2305wlast : 0
# WID: 48924 , AWID : 48924
# m mon ar id : 32486
# r cnt in s seqs before: 229
# arid in s mon : 17921
#                 2315wlast : 0
# WID: 48924 , AWID : 48924
# m mon ar id : 17921
# r cnt in s seqs before: 230
# arid in s mon : 15063
#                 2325wlast : 0
# WID: 48924 , AWID : 48924
# m mon ar id : 15063
# r cnt in s seqs before: 231
# arid in s mon : 34347
#                 2335wlast : 0
# WID: 48924 , AWID : 48924
# m mon ar id : 34347
# r cnt in s seqs before: 232
# arid in s mon : 13247
#                 2345wlast : 0
# WID: 48924 , AWID : 48924
# m mon ar id : 13247
# r cnt in s seqs before: 233
# arid in s mon : 39432
#                 2355wlast : 0
# WID: 48924 , AWID : 48924
# m mon ar id : 39432
# r cnt in s seqs before: 234
# arid in s mon : 7672
#                 2365wlast : 0
# WID: 48924 , AWID : 48924
# m mon ar id : 7672
# r cnt in s seqs before: 235
# arid in s mon : 16567
#                 2375wlast : 0
# WID: 48924 , AWID : 48924
# m mon ar id : 16567
# r cnt in s seqs before: 236
# arid in s mon : 57526
#                 2385wlast : 0
# WID: 48924 , AWID : 48924
# m mon ar id : 57526
# r cnt in s seqs before: 237
# arid in s mon : 26234
#                 2395wlast : 0
# WID: 48924 , AWID : 48924
# m mon ar id : 26234
# r cnt in s seqs before: 238
# arid in s mon : 1693
#                 2405wlast : 0
# WID: 48924 , AWID : 48924
# m mon ar id : 1693
# r cnt in s seqs before: 239
# arid in s mon : 12348
#                 2415wlast : 0
# WID: 48924 , AWID : 48924
# m mon ar id : 12348
# r cnt in s seqs before: 240
# arid in s mon : 64858
#                 2425wlast : 0
# WID: 48924 , AWID : 48924
# m mon ar id : 64858
# r cnt in s seqs before: 241
# arid in s mon : 43954
#                 2435wlast : 0
# WID: 48924 , AWID : 48924
# m mon ar id : 43954
# r cnt in s seqs before: 242
# arid in s mon : 10148
#                 2445wlast : 0
# WID: 48924 , AWID : 48924
# m mon ar id : 10148
# r cnt in s seqs before: 243
# arid in s mon : 25297
#                 2455wlast : 0
# WID: 48924 , AWID : 48924
# m mon ar id : 25297
# r cnt in s seqs before: 244
# arid in s mon : 44368
#                 2465wlast : 0
# WID: 48924 , AWID : 48924
# m mon ar id : 44368
# r cnt in s seqs before: 245
# arid in s mon : 43648
#                 2475wlast : 0
# WID: 48924 , AWID : 48924
# m mon ar id : 43648
# r cnt in s seqs before: 246
# arid in s mon : 41350
#                 2485wlast : 0
# WID: 48924 , AWID : 48924
# m mon ar id : 41350
# r cnt in s seqs before: 247
# arid in s mon : 5254
#                 2495wlast : 0
# WID: 48924 , AWID : 48924
# m mon ar id : 5254
# r cnt in s seqs before: 248
# arid in s mon : 20498
#                 2505wlast : 0
# WID: 48924 , AWID : 48924
# m mon ar id : 20498
# r cnt in s seqs before: 249
# arid in s mon : 34250
#                 2515wlast : 0
# WID: 48924 , AWID : 48924
# m mon ar id : 34250
# r cnt in s seqs before: 250
# arid in s mon : 5785
#                 2525wlast : 0
# WID: 48924 , AWID : 48924
# m mon ar id : 5785
# r cnt in s seqs before: 251
# arid in s mon : 17693
#                 2535wlast : 0
# WID: 48924 , AWID : 48924
# m mon ar id : 17693
# r cnt in s seqs before: 252
# arid in s mon : 24304
#                 2545wlast : 0
# WID: 48924 , AWID : 48924
# m mon ar id : 24304
# r cnt in s seqs before: 253
# arid in s mon : 3587
#                 2555wlast : 0
# WID: 48924 , AWID : 48924
# m mon ar id : 3587
# r cnt in s seqs before: 254
# arid in s mon : 43049
#                 2565wlast : 0
# WID: 48924 , AWID : 48924
# m mon ar id : 43049
# r cnt in s seqs before: 255
# arid in s mon : 6486
#                 2575wlast : 0
# WID: 48924 , AWID : 48924
# m mon ar id : 6486
# r cnt in s seqs before: 256
#                 2585wlast : 0
# WID: 48924 , AWID : 48924
#                 2595wlast : 0
# WID: 48924 , AWID : 48924
#                 2605wlast : 0
# WID: 48924 , AWID : 48924
#                 2615wlast : 0
# WID: 48924 , AWID : 48924
#                 2625wlast : 0
# WID: 48924 , AWID : 48924
#                 2635wlast : 0
# WID: 48924 , AWID : 48924
#                 2645wlast : 0
# WID: 48924 , AWID : 48924
#                 2655wlast : 0
# WID: 48924 , AWID : 48924
#                 2665wlast : 0
# WID: 48924 , AWID : 48924
#                 2675wlast : 0
# WID: 48924 , AWID : 48924
#                 2685wlast : 0
# WID: 48924 , AWID : 48924
#                 2695wlast : 0
# WID: 48924 , AWID : 48924
#                 2705wlast : 0
# WID: 48924 , AWID : 48924
#                 2715wlast : 0
# WID: 48924 , AWID : 48924
#                 2725wlast : 0
# WID: 48924 , AWID : 48924
#                 2735wlast : 0
# WID: 48924 , AWID : 48924
#                 2745wlast : 0
# WID: 48924 , AWID : 48924
#                 2755wlast : 0
# WID: 48924 , AWID : 48924
#                 2765wlast : 0
# WID: 48924 , AWID : 48924
#                 2775wlast : 0
# WID: 48924 , AWID : 48924
#                 2785wlast : 0
# WID: 48924 , AWID : 48924
#                 2795wlast : 0
# WID: 48924 , AWID : 48924
#                 2805wlast : 0
# WID: 48924 , AWID : 48924
#                 2815wlast : 0
# WID: 48924 , AWID : 48924
#                 2825wlast : 0
# WID: 48924 , AWID : 48924
#                 2835wlast : 0
# WID: 48924 , AWID : 48924
#                 2845wlast : 0
# WID: 48924 , AWID : 48924
#                 2855wlast : 0
# WID: 48924 , AWID : 48924
#                 2865wlast : 0
# WID: 48924 , AWID : 48924
#                 2875wlast : 0
# WID: 48924 , AWID : 48924
#                 2885wlast : 0
# WID: 48924 , AWID : 48924
#                 2895wlast : 0
# WID: 48924 , AWID : 48924
#                 2905wlast : 0
# WID: 48924 , AWID : 48924
#                 2915wlast : 0
# WID: 48924 , AWID : 48924
#                 2925wlast : 0
# WID: 48924 , AWID : 48924
#                 2935wlast : 0
# WID: 48924 , AWID : 48924
#                 2945wlast : 0
# WID: 48924 , AWID : 48924
#                 2955wlast : 0
# WID: 48924 , AWID : 48924
#                 2965wlast : 0
# WID: 48924 , AWID : 48924
#                 2975wlast : 0
# WID: 48924 , AWID : 48924
#                 2985wlast : 0
# WID: 48924 , AWID : 48924
#                 2995wlast : 0
# WID: 48924 , AWID : 48924
#                 3005wlast : 0
# WID: 48924 , AWID : 48924
#                 3015wlast : 0
# WID: 48924 , AWID : 48924
#                 3025wlast : 0
# WID: 48924 , AWID : 48924
#                 3035wlast : 0
# WID: 48924 , AWID : 48924
#                 3045wlast : 0
# WID: 48924 , AWID : 48924
# abc : 1
# abc : 2
# abc : 3
# abc : 4
# abc : 5
# abc : 6
# abc : 7
# abc : 8
# abc : 9
# abc : 10
# abc : 11
# abc : 12
# abc : 13
# abc : 14
# abc : 15
# abc : 16
# abc : 17
# abc : 18
# abc : 19
# abc : 20
# abc : 21
# abc : 22
# abc : 23
# abc : 24
# abc : 25
# abc : 26
# abc : 27
# abc : 28
# abc : 29
# abc : 30
# abc : 31
# abc : 32
# abc : 33
# abc : 34
# abc : 35
# abc : 36
# abc : 37
# abc : 38
# abc : 39
# abc : 40
# abc : 41
# abc : 42
# abc : 43
# abc : 44
# abc : 45
# abc : 46
# abc : 47
# abc : 48
# abc : 49
# abc : 50
# abc : 51
# abc : 52
# abc : 53
# abc : 54
# abc : 55
# abc : 56
# abc : 57
# abc : 58
# abc : 59
# abc : 60
# abc : 61
# abc : 62
# abc : 63
# abc : 64
# abc : 65
# abc : 66
# abc : 67
# abc : 68
# abc : 69
# abc : 70
# abc : 71
# abc : 72
# abc : 73
# abc : 74
# abc : 75
# abc : 76
# abc : 77
# abc : 78
# abc : 79
# abc : 80
# abc : 81
# abc : 82
# abc : 83
# abc : 84
# abc : 85
# abc : 86
# abc : 87
# abc : 88
# abc : 89
# abc : 90
# abc : 91
# abc : 92
# abc : 93
# abc : 94
# abc : 95
# abc : 96
# abc : 97
# abc : 98
# abc : 99
# abc : 100
# abc : 101
# abc : 102
# abc : 103
# abc : 104
# abc : 105
# abc : 106
# abc : 107
# abc : 108
# abc : 109
# abc : 110
# abc : 111
# abc : 112
# abc : 113
# abc : 114
# abc : 115
# abc : 116
# abc : 117
# abc : 118
# abc : 119
# abc : 120
# abc : 121
# abc : 122
# abc : 123
# abc : 124
# abc : 125
# abc : 126
# abc : 127
# abc : 128
# abc : 129
# abc : 130
# abc : 131
# abc : 132
# abc : 133
# abc : 134
# abc : 135
# abc : 136
# abc : 137
# abc : 138
# abc : 139
# abc : 140
# abc : 141
# abc : 142
# abc : 143
# abc : 144
# abc : 145
# abc : 146
# abc : 147
# abc : 148
# abc : 149
# abc : 150
# abc : 151
# abc : 152
# abc : 153
# abc : 154
# abc : 155
# abc : 156
# abc : 157
# abc : 158
# abc : 159
# abc : 160
# abc : 161
# abc : 162
# abc : 163
# abc : 164
# abc : 165
# abc : 166
# abc : 167
# abc : 168
# abc : 169
# abc : 170
# abc : 171
# abc : 172
# abc : 173
# abc : 174
# abc : 175
# abc : 176
# abc : 177
# abc : 178
# abc : 179
# abc : 180
# abc : 181
# abc : 182
# abc : 183
# abc : 184
# abc : 185
# abc : 186
# abc : 187
# abc : 188
# abc : 189
# abc : 190
# abc : 191
# abc : 192
# abc : 193
# abc : 194
# abc : 195
# abc : 196
# abc : 197
# abc : 198
# abc : 199
# abc : 200
# abc : 201
# abc : 202
# abc : 203
# abc : 204
# abc : 205
# abc : 206
# abc : 207
# abc : 208
# abc : 209
# abc : 210
# abc : 211
# abc : 212
# abc : 213
# abc : 214
# abc : 215
# abc : 216
# abc : 217
# abc : 218
# abc : 219
# abc : 220
# abc : 221
# abc : 222
# abc : 223
# abc : 224
# abc : 225
# abc : 226
# abc : 227
# abc : 228
# abc : 229
# xyz : 1
# xyz : 2
# xyz : 3
# xyz : 4
# xyz : 5
# xyz : 6
# xyz : 7
# xyz : 8
# xyz : 9
# xyz : 10
# xyz : 11
# xyz : 12
# xyz : 13
# xyz : 14
# xyz : 15
# xyz : 16
# xyz : 17
# xyz : 18
# xyz : 19
# xyz : 20
# xyz : 21
# xyz : 22
# xyz : 23
# xyz : 24
# xyz : 25
# xyz : 26
# xyz : 27
# xyz : 28
# xyz : 29
# xyz : 30
# xyz : 31
# xyz : 32
# xyz : 33
# xyz : 34
# xyz : 35
# xyz : 36
# xyz : 37
# xyz : 38
# xyz : 39
# xyz : 40
# xyz : 41
# xyz : 42
# xyz : 43
# xyz : 44
# xyz : 45
# xyz : 46
# xyz : 47
# xyz : 48
# xyz : 49
# xyz : 50
# xyz : 51
# xyz : 52
# xyz : 53
# xyz : 54
# xyz : 55
# xyz : 56
# xyz : 57
# xyz : 58
# xyz : 59
# xyz : 60
# xyz : 61
# xyz : 62
# xyz : 63
# xyz : 64
# xyz : 65
# xyz : 66
# xyz : 67
# xyz : 68
# xyz : 69
# xyz : 70
# xyz : 71
# xyz : 72
# xyz : 73
# xyz : 74
# xyz : 75
# xyz : 76
# xyz : 77
# xyz : 78
# xyz : 79
# xyz : 80
# xyz : 81
# xyz : 82
# xyz : 83
# xyz : 84
# xyz : 85
# xyz : 86
# xyz : 87
# xyz : 88
# xyz : 89
# xyz : 90
# xyz : 91
# xyz : 92
# xyz : 93
# xyz : 94
# xyz : 95
# xyz : 96
# xyz : 97
# xyz : 98
# xyz : 99
# xyz : 100
# xyz : 101
# xyz : 102
# xyz : 103
# xyz : 104
# xyz : 105
# xyz : 106
# xyz : 107
# xyz : 108
# xyz : 109
# xyz : 110
# xyz : 111
# xyz : 112
# xyz : 113
# xyz : 114
# xyz : 115
# xyz : 116
# xyz : 117
# xyz : 118
# xyz : 119
# xyz : 120
# xyz : 121
# xyz : 122
# xyz : 123
# xyz : 124
# xyz : 125
# xyz : 126
# xyz : 127
# xyz : 128
# xyz : 129
# xyz : 130
# xyz : 131
# xyz : 132
# xyz : 133
# xyz : 134
# xyz : 135
# xyz : 136
# xyz : 137
# xyz : 138
# xyz : 139
# xyz : 140
# xyz : 141
# xyz : 142
# xyz : 143
# xyz : 144
# xyz : 145
# xyz : 146
# xyz : 147
# xyz : 148
# xyz : 149
# xyz : 150
# xyz : 151
# xyz : 152
# xyz : 153
# xyz : 154
# xyz : 155
# xyz : 156
# xyz : 157
# xyz : 158
# xyz : 159
# xyz : 160
# xyz : 161
# xyz : 162
# xyz : 163
# xyz : 164
# xyz : 165
# xyz : 166
# xyz : 167
# xyz : 168
# xyz : 169
# xyz : 170
# xyz : 171
# xyz : 172
# xyz : 173
# xyz : 174
# xyz : 175
# xyz : 176
# xyz : 177
# xyz : 178
# xyz : 179
# xyz : 180
# xyz : 181
# xyz : 182
# xyz : 183
# xyz : 184
# xyz : 185
# xyz : 186
# xyz : 187
# xyz : 188
# xyz : 189
# xyz : 190
# xyz : 191
# xyz : 192
# xyz : 193
# xyz : 194
# xyz : 195
# xyz : 196
# xyz : 197
# xyz : 198
# xyz : 199
# xyz : 200
# xyz : 201
# xyz : 202
# xyz : 203
# xyz : 204
# xyz : 205
# xyz : 206
# xyz : 207
# xyz : 208
# xyz : 209
# xyz : 210
# xyz : 211
# xyz : 212
# xyz : 213
# xyz : 214
# xyz : 215
# xyz : 216
# xyz : 217
# xyz : 218
# xyz : 219
# xyz : 220
# xyz : 221
# xyz : 222
# xyz : 223
# xyz : 224
# xyz : 225
# xyz : 226
# xyz : 227
# xyz : 228
# xyz : 229
# ** Warning: (vsim-3829) Non-existent associative array entry. Returning default value.
#    Time: 3055 ns  Iteration: 2  Process: /axi_s_agent_pkg::axi_s_mon #(32, 32)::monitor/#FORK#35_7fefec44ef3 File: ../env/axi_ref_model.sv Line: 57
# xyz : 230
# ** Warning: (vsim-3829) Non-existent associative array entry. Returning default value.
#    Time: 3055 ns  Iteration: 2  Process: /axi_s_agent_pkg::axi_s_mon #(32, 32)::monitor/#FORK#35_7fefec44ef3 File: ../env/axi_ref_model.sv Line: 57
# xyz : 231
# ** Warning: (vsim-3829) Non-existent associative array entry. Returning default value.
#    Time: 3055 ns  Iteration: 2  Process: /axi_s_agent_pkg::axi_s_mon #(32, 32)::monitor/#FORK#35_7fefec44ef3 File: ../env/axi_ref_model.sv Line: 57
# xyz : 232
# ** Warning: (vsim-3829) Non-existent associative array entry. Returning default value.
#    Time: 3055 ns  Iteration: 2  Process: /axi_s_agent_pkg::axi_s_mon #(32, 32)::monitor/#FORK#35_7fefec44ef3 File: ../env/axi_ref_model.sv Line: 57
# xyz : 233
# ** Warning: (vsim-3829) Non-existent associative array entry. Returning default value.
#    Time: 3055 ns  Iteration: 2  Process: /axi_s_agent_pkg::axi_s_mon #(32, 32)::monitor/#FORK#35_7fefec44ef3 File: ../env/axi_ref_model.sv Line: 57
# xyz : 234
# UVM_INFO ../env/axi_sb.sv(57) @ 3055: uvm_test_top.env_h.sb_h [before exp method in sb] aaaa
# UVM_INFO ../env/axi_sb.sv(68) @ 3055: uvm_test_top.env_h.sb_h [after exp method in sb] aaaa
# xyz : 235
# xyz : 236
# xyz : 237
# xyz : 238
# xyz : 239
# xyz : 240
# xyz : 241
# xyz : 242
# xyz : 243
# xyz : 244
# xyz : 245
# xyz : 246
# xyz : 247
# xyz : 248
# xyz : 249
# xyz : 250
# xyz : 251
# xyz : 252
# xyz : 253
# xyz : 254
# xyz : 255
# xyz : 256
# xyz : 257
# xyz : 258
# xyz : 259
# xyz : 260
# xyz : 261
# xyz : 262
# xyz : 263
# xyz : 264
# xyz : 265
# xyz : 266
# xyz : 267
# xyz : 268
# xyz : 269
# xyz : 270
# xyz : 271
# xyz : 272
# ** Warning: (vsim-3829) Non-existent associative array entry. Returning default value.
#    Time: 3055 ns  Iteration: 2  Process: /axi_s_agent_pkg::axi_s_mon #(32, 32)::monitor/#FORK#35_7fefec44ef3 File: ../env/axi_ref_model.sv Line: 57
# xyz : 273
# ** Warning: (vsim-3829) Non-existent associative array entry. Returning default value.
#    Time: 3055 ns  Iteration: 2  Process: /axi_s_agent_pkg::axi_s_mon #(32, 32)::monitor/#FORK#35_7fefec44ef3 File: ../env/axi_ref_model.sv Line: 57
# xyz : 274
# ** Warning: (vsim-3829) Non-existent associative array entry. Returning default value.
#    Time: 3055 ns  Iteration: 2  Process: /axi_s_agent_pkg::axi_s_mon #(32, 32)::monitor/#FORK#35_7fefec44ef3 File: ../env/axi_ref_model.sv Line: 57
# xyz : 275
# ** Warning: (vsim-3829) Non-existent associative array entry. Returning default value.
#    Time: 3055 ns  Iteration: 2  Process: /axi_s_agent_pkg::axi_s_mon #(32, 32)::monitor/#FORK#35_7fefec44ef3 File: ../env/axi_ref_model.sv Line: 57
# xyz : 276
# ** Warning: (vsim-3829) Non-existent associative array entry. Returning default value.
#    Time: 3055 ns  Iteration: 2  Process: /axi_s_agent_pkg::axi_s_mon #(32, 32)::monitor/#FORK#35_7fefec44ef3 File: ../env/axi_ref_model.sv Line: 57
# xyz : 277
# ** Warning: (vsim-3829) Non-existent associative array entry. Returning default value.
#    Time: 3055 ns  Iteration: 2  Process: /axi_s_agent_pkg::axi_s_mon #(32, 32)::monitor/#FORK#35_7fefec44ef3 File: ../env/axi_ref_model.sv Line: 57
# xyz : 278
# ** Warning: (vsim-3829) Non-existent associative array entry. Returning default value.
#    Time: 3055 ns  Iteration: 2  Process: /axi_s_agent_pkg::axi_s_mon #(32, 32)::monitor/#FORK#35_7fefec44ef3 File: ../env/axi_ref_model.sv Line: 57
# xyz : 279
# ** Warning: (vsim-3829) Non-existent associative array entry. Returning default value.
#    Time: 3055 ns  Iteration: 2  Process: /axi_s_agent_pkg::axi_s_mon #(32, 32)::monitor/#FORK#35_7fefec44ef3 File: ../env/axi_ref_model.sv Line: 57
# xyz : 280
# ** Warning: (vsim-3829) Non-existent associative array entry. Returning default value.
#    Time: 3055 ns  Iteration: 2  Process: /axi_s_agent_pkg::axi_s_mon #(32, 32)::monitor/#FORK#35_7fefec44ef3 File: ../env/axi_ref_model.sv Line: 57
# xyz : 281
# ** Warning: (vsim-3829) Non-existent associative array entry. Returning default value.
#    Time: 3055 ns  Iteration: 2  Process: /axi_s_agent_pkg::axi_s_mon #(32, 32)::monitor/#FORK#35_7fefec44ef3 File: ../env/axi_ref_model.sv Line: 57
# xyz : 282
# ** Warning: (vsim-3829) Non-existent associative array entry. Returning default value.
#    Time: 3055 ns  Iteration: 2  Process: /axi_s_agent_pkg::axi_s_mon #(32, 32)::monitor/#FORK#35_7fefec44ef3 File: ../env/axi_ref_model.sv Line: 57
# xyz : 283
# ** Warning: (vsim-3829) Non-existent associative array entry. Returning default value.
#    Time: 3055 ns  Iteration: 2  Process: /axi_s_agent_pkg::axi_s_mon #(32, 32)::monitor/#FORK#35_7fefec44ef3 File: ../env/axi_ref_model.sv Line: 57
# xyz : 284
# ** Warning: (vsim-3829) Non-existent associative array entry. Returning default value.
#    Time: 3055 ns  Iteration: 2  Process: /axi_s_agent_pkg::axi_s_mon #(32, 32)::monitor/#FORK#35_7fefec44ef3 File: ../env/axi_ref_model.sv Line: 57
# xyz : 285
# ** Warning: (vsim-3829) Non-existent associative array entry. Returning default value.
#    Time: 3055 ns  Iteration: 2  Process: /axi_s_agent_pkg::axi_s_mon #(32, 32)::monitor/#FORK#35_7fefec44ef3 File: ../env/axi_ref_model.sv Line: 57
# xyz : 286
# ** Warning: (vsim-3829) Non-existent associative array entry. Returning default value.
#    Time: 3055 ns  Iteration: 2  Process: /axi_s_agent_pkg::axi_s_mon #(32, 32)::monitor/#FORK#35_7fefec44ef3 File: ../env/axi_ref_model.sv Line: 57
# xyz : 287
# ** Warning: (vsim-3829) Non-existent associative array entry. Returning default value.
#    Time: 3055 ns  Iteration: 2  Process: /axi_s_agent_pkg::axi_s_mon #(32, 32)::monitor/#FORK#35_7fefec44ef3 File: ../env/axi_ref_model.sv Line: 57
# xyz : 288
# ** Warning: (vsim-3829) Non-existent associative array entry. Returning default value.
#    Time: 3055 ns  Iteration: 2  Process: /axi_s_agent_pkg::axi_s_mon #(32, 32)::monitor/#FORK#35_7fefec44ef3 File: ../env/axi_ref_model.sv Line: 57
# xyz : 289
# ** Warning: (vsim-3829) Non-existent associative array entry. Returning default value.
#    Time: 3055 ns  Iteration: 2  Process: /axi_s_agent_pkg::axi_s_mon #(32, 32)::monitor/#FORK#35_7fefec44ef3 File: ../env/axi_ref_model.sv Line: 57
# xyz : 290
# ** Warning: (vsim-3829) Non-existent associative array entry. Returning default value.
#    Time: 3055 ns  Iteration: 2  Process: /axi_s_agent_pkg::axi_s_mon #(32, 32)::monitor/#FORK#35_7fefec44ef3 File: ../env/axi_ref_model.sv Line: 57
# xyz : 291
# ** Warning: (vsim-3829) Non-existent associative array entry. Returning default value.
#    Time: 3055 ns  Iteration: 2  Process: /axi_s_agent_pkg::axi_s_mon #(32, 32)::monitor/#FORK#35_7fefec44ef3 File: ../env/axi_ref_model.sv Line: 57
# xyz : 292
# ** Warning: (vsim-3829) Non-existent associative array entry. Returning default value.
#    Time: 3055 ns  Iteration: 2  Process: /axi_s_agent_pkg::axi_s_mon #(32, 32)::monitor/#FORK#35_7fefec44ef3 File: ../env/axi_ref_model.sv Line: 57
# xyz : 293
# ** Warning: (vsim-3829) Non-existent associative array entry. Returning default value.
#    Time: 3055 ns  Iteration: 2  Process: /axi_s_agent_pkg::axi_s_mon #(32, 32)::monitor/#FORK#35_7fefec44ef3 File: ../env/axi_ref_model.sv Line: 57
# xyz : 294
# ** Warning: (vsim-3829) Non-existent associative array entry. Returning default value.
#    Time: 3055 ns  Iteration: 2  Process: /axi_s_agent_pkg::axi_s_mon #(32, 32)::monitor/#FORK#35_7fefec44ef3 File: ../env/axi_ref_model.sv Line: 57
# xyz : 295
# ** Warning: (vsim-3829) Non-existent associative array entry. Returning default value.
#    Time: 3055 ns  Iteration: 2  Process: /axi_s_agent_pkg::axi_s_mon #(32, 32)::monitor/#FORK#35_7fefec44ef3 File: ../env/axi_ref_model.sv Line: 57
# xyz : 296
# ** Warning: (vsim-3829) Non-existent associative array entry. Returning default value.
#    Time: 3055 ns  Iteration: 2  Process: /axi_s_agent_pkg::axi_s_mon #(32, 32)::monitor/#FORK#35_7fefec44ef3 File: ../env/axi_ref_model.sv Line: 57
# xyz : 297
# ** Warning: (vsim-3829) Non-existent associative array entry. Returning default value.
#    Time: 3055 ns  Iteration: 2  Process: /axi_s_agent_pkg::axi_s_mon #(32, 32)::monitor/#FORK#35_7fefec44ef3 File: ../env/axi_ref_model.sv Line: 57
# xyz : 298
# ** Warning: (vsim-3829) Non-existent associative array entry. Returning default value.
#    Time: 3055 ns  Iteration: 2  Process: /axi_s_agent_pkg::axi_s_mon #(32, 32)::monitor/#FORK#35_7fefec44ef3 File: ../env/axi_ref_model.sv Line: 57
# xyz : 299
# ** Warning: (vsim-3829) Non-existent associative array entry. Returning default value.
#    Time: 3055 ns  Iteration: 2  Process: /axi_s_agent_pkg::axi_s_mon #(32, 32)::monitor/#FORK#35_7fefec44ef3 File: ../env/axi_ref_model.sv Line: 57
# xyz : 300
# ** Warning: (vsim-3829) Non-existent associative array entry. Returning default value.
#    Time: 3055 ns  Iteration: 2  Process: /axi_s_agent_pkg::axi_s_mon #(32, 32)::monitor/#FORK#35_7fefec44ef3 File: ../env/axi_ref_model.sv Line: 57
# xyz : 301
# ** Warning: (vsim-3829) Non-existent associative array entry. Returning default value.
#    Time: 3055 ns  Iteration: 2  Process: /axi_s_agent_pkg::axi_s_mon #(32, 32)::monitor/#FORK#35_7fefec44ef3 File: ../env/axi_ref_model.sv Line: 57
# xyz : 302
# ** Warning: (vsim-3829) Non-existent associative array entry. Returning default value.
#    Time: 3055 ns  Iteration: 2  Process: /axi_s_agent_pkg::axi_s_mon #(32, 32)::monitor/#FORK#35_7fefec44ef3 File: ../env/axi_ref_model.sv Line: 57
# xyz : 303
# ** Warning: (vsim-3829) Non-existent associative array entry. Returning default value.
#    Time: 3055 ns  Iteration: 2  Process: /axi_s_agent_pkg::axi_s_mon #(32, 32)::monitor/#FORK#35_7fefec44ef3 File: ../env/axi_ref_model.sv Line: 57
# xyz : 304
# ** Warning: (vsim-3829) Non-existent associative array entry. Returning default value.
#    Time: 3055 ns  Iteration: 2  Process: /axi_s_agent_pkg::axi_s_mon #(32, 32)::monitor/#FORK#35_7fefec44ef3 File: ../env/axi_ref_model.sv Line: 57
# xyz : 305
# ** Warning: (vsim-3829) Non-existent associative array entry. Returning default value.
#    Time: 3055 ns  Iteration: 2  Process: /axi_s_agent_pkg::axi_s_mon #(32, 32)::monitor/#FORK#35_7fefec44ef3 File: ../env/axi_ref_model.sv Line: 57
# xyz : 306
# ** Warning: (vsim-3829) Non-existent associative array entry. Returning default value.
#    Time: 3055 ns  Iteration: 2  Process: /axi_s_agent_pkg::axi_s_mon #(32, 32)::monitor/#FORK#35_7fefec44ef3 File: ../env/axi_ref_model.sv Line: 57
# xyz : 307
# ** Warning: (vsim-3829) Non-existent associative array entry. Returning default value.
#    Time: 3055 ns  Iteration: 2  Process: /axi_s_agent_pkg::axi_s_mon #(32, 32)::monitor/#FORK#35_7fefec44ef3 File: ../env/axi_ref_model.sv Line: 57
# xyz : 308
# ** Warning: (vsim-3829) Non-existent associative array entry. Returning default value.
#    Time: 3055 ns  Iteration: 2  Process: /axi_s_agent_pkg::axi_s_mon #(32, 32)::monitor/#FORK#35_7fefec44ef3 File: ../env/axi_ref_model.sv Line: 57
# xyz : 309
# ** Warning: (vsim-3829) Non-existent associative array entry. Returning default value.
#    Time: 3055 ns  Iteration: 2  Process: /axi_s_agent_pkg::axi_s_mon #(32, 32)::monitor/#FORK#35_7fefec44ef3 File: ../env/axi_ref_model.sv Line: 57
# xyz : 310
# ** Warning: (vsim-3829) Non-existent associative array entry. Returning default value.
#    Time: 3055 ns  Iteration: 2  Process: /axi_s_agent_pkg::axi_s_mon #(32, 32)::monitor/#FORK#35_7fefec44ef3 File: ../env/axi_ref_model.sv Line: 57
# xyz : 311
# ** Warning: (vsim-3829) Non-existent associative array entry. Returning default value.
#    Time: 3055 ns  Iteration: 2  Process: /axi_s_agent_pkg::axi_s_mon #(32, 32)::monitor/#FORK#35_7fefec44ef3 File: ../env/axi_ref_model.sv Line: 57
# xyz : 312
# ** Warning: (vsim-3829) Non-existent associative array entry. Returning default value.
#    Time: 3055 ns  Iteration: 2  Process: /axi_s_agent_pkg::axi_s_mon #(32, 32)::monitor/#FORK#35_7fefec44ef3 File: ../env/axi_ref_model.sv Line: 57
# xyz : 313
# ** Warning: (vsim-3829) Non-existent associative array entry. Returning default value.
#    Time: 3055 ns  Iteration: 2  Process: /axi_s_agent_pkg::axi_s_mon #(32, 32)::monitor/#FORK#35_7fefec44ef3 File: ../env/axi_ref_model.sv Line: 57
# xyz : 314
# ** Warning: (vsim-3829) Non-existent associative array entry. Returning default value.
#    Time: 3055 ns  Iteration: 2  Process: /axi_s_agent_pkg::axi_s_mon #(32, 32)::monitor/#FORK#35_7fefec44ef3 File: ../env/axi_ref_model.sv Line: 57
# xyz : 315
# ** Warning: (vsim-3829) Non-existent associative array entry. Returning default value.
#    Time: 3055 ns  Iteration: 2  Process: /axi_s_agent_pkg::axi_s_mon #(32, 32)::monitor/#FORK#35_7fefec44ef3 File: ../env/axi_ref_model.sv Line: 57
# xyz : 316
# ** Warning: (vsim-3829) Non-existent associative array entry. Returning default value.
#    Time: 3055 ns  Iteration: 2  Process: /axi_s_agent_pkg::axi_s_mon #(32, 32)::monitor/#FORK#35_7fefec44ef3 File: ../env/axi_ref_model.sv Line: 57
# xyz : 317
# ** Warning: (vsim-3829) Non-existent associative array entry. Returning default value.
#    Time: 3055 ns  Iteration: 2  Process: /axi_s_agent_pkg::axi_s_mon #(32, 32)::monitor/#FORK#35_7fefec44ef3 File: ../env/axi_ref_model.sv Line: 57
# xyz : 318
# ** Warning: (vsim-3829) Non-existent associative array entry. Returning default value.
#    Time: 3055 ns  Iteration: 2  Process: /axi_s_agent_pkg::axi_s_mon #(32, 32)::monitor/#FORK#35_7fefec44ef3 File: ../env/axi_ref_model.sv Line: 57
# xyz : 319
# ** Warning: (vsim-3829) Non-existent associative array entry. Returning default value.
#    Time: 3055 ns  Iteration: 2  Process: /axi_s_agent_pkg::axi_s_mon #(32, 32)::monitor/#FORK#35_7fefec44ef3 File: ../env/axi_ref_model.sv Line: 57
# xyz : 320
# ** Warning: (vsim-3829) Non-existent associative array entry. Returning default value.
#    Time: 3055 ns  Iteration: 2  Process: /axi_s_agent_pkg::axi_s_mon #(32, 32)::monitor/#FORK#35_7fefec44ef3 File: ../env/axi_ref_model.sv Line: 57
# xyz : 321
# ** Warning: (vsim-3829) Non-existent associative array entry. Returning default value.
#    Time: 3055 ns  Iteration: 2  Process: /axi_s_agent_pkg::axi_s_mon #(32, 32)::monitor/#FORK#35_7fefec44ef3 File: ../env/axi_ref_model.sv Line: 57
# xyz : 322
# ** Warning: (vsim-3829) Non-existent associative array entry. Returning default value.
#    Time: 3055 ns  Iteration: 2  Process: /axi_s_agent_pkg::axi_s_mon #(32, 32)::monitor/#FORK#35_7fefec44ef3 File: ../env/axi_ref_model.sv Line: 57
# xyz : 323
# ** Warning: (vsim-3829) Non-existent associative array entry. Returning default value.
#    Time: 3055 ns  Iteration: 2  Process: /axi_s_agent_pkg::axi_s_mon #(32, 32)::monitor/#FORK#35_7fefec44ef3 File: ../env/axi_ref_model.sv Line: 57
# xyz : 324
# ** Warning: (vsim-3829) Non-existent associative array entry. Returning default value.
#    Time: 3055 ns  Iteration: 2  Process: /axi_s_agent_pkg::axi_s_mon #(32, 32)::monitor/#FORK#35_7fefec44ef3 File: ../env/axi_ref_model.sv Line: 57
# xyz : 325
# ** Warning: (vsim-3829) Non-existent associative array entry. Returning default value.
#    Time: 3055 ns  Iteration: 2  Process: /axi_s_agent_pkg::axi_s_mon #(32, 32)::monitor/#FORK#35_7fefec44ef3 File: ../env/axi_ref_model.sv Line: 57
# xyz : 326
# ** Warning: (vsim-3829) Non-existent associative array entry. Returning default value.
#    Time: 3055 ns  Iteration: 2  Process: /axi_s_agent_pkg::axi_s_mon #(32, 32)::monitor/#FORK#35_7fefec44ef3 File: ../env/axi_ref_model.sv Line: 57
# xyz : 327
# ** Warning: (vsim-3829) Non-existent associative array entry. Returning default value.
#    Time: 3055 ns  Iteration: 2  Process: /axi_s_agent_pkg::axi_s_mon #(32, 32)::monitor/#FORK#35_7fefec44ef3 File: ../env/axi_ref_model.sv Line: 57
# xyz : 328
# ** Warning: (vsim-3829) Non-existent associative array entry. Returning default value.
#    Time: 3055 ns  Iteration: 2  Process: /axi_s_agent_pkg::axi_s_mon #(32, 32)::monitor/#FORK#35_7fefec44ef3 File: ../env/axi_ref_model.sv Line: 57
# xyz : 329
# ** Warning: (vsim-3829) Non-existent associative array entry. Returning default value.
#    Time: 3055 ns  Iteration: 2  Process: /axi_s_agent_pkg::axi_s_mon #(32, 32)::monitor/#FORK#35_7fefec44ef3 File: ../env/axi_ref_model.sv Line: 57
# xyz : 330
# ** Warning: (vsim-3829) Non-existent associative array entry. Returning default value.
#    Time: 3055 ns  Iteration: 2  Process: /axi_s_agent_pkg::axi_s_mon #(32, 32)::monitor/#FORK#35_7fefec44ef3 File: ../env/axi_ref_model.sv Line: 57
# xyz : 331
# ** Warning: (vsim-3829) Non-existent associative array entry. Returning default value.
#    Time: 3055 ns  Iteration: 2  Process: /axi_s_agent_pkg::axi_s_mon #(32, 32)::monitor/#FORK#35_7fefec44ef3 File: ../env/axi_ref_model.sv Line: 57
# xyz : 332
# ** Warning: (vsim-3829) Non-existent associative array entry. Returning default value.
#    Time: 3055 ns  Iteration: 2  Process: /axi_s_agent_pkg::axi_s_mon #(32, 32)::monitor/#FORK#35_7fefec44ef3 File: ../env/axi_ref_model.sv Line: 57
# xyz : 333
# ** Warning: (vsim-3829) Non-existent associative array entry. Returning default value.
#    Time: 3055 ns  Iteration: 2  Process: /axi_s_agent_pkg::axi_s_mon #(32, 32)::monitor/#FORK#35_7fefec44ef3 File: ../env/axi_ref_model.sv Line: 57
# xyz : 334
# ** Warning: (vsim-3829) Non-existent associative array entry. Returning default value.
#    Time: 3055 ns  Iteration: 2  Process: /axi_s_agent_pkg::axi_s_mon #(32, 32)::monitor/#FORK#35_7fefec44ef3 File: ../env/axi_ref_model.sv Line: 57
# xyz : 335
# ** Warning: (vsim-3829) Non-existent associative array entry. Returning default value.
#    Time: 3055 ns  Iteration: 2  Process: /axi_s_agent_pkg::axi_s_mon #(32, 32)::monitor/#FORK#35_7fefec44ef3 File: ../env/axi_ref_model.sv Line: 57
# xyz : 336
# ** Warning: (vsim-3829) Non-existent associative array entry. Returning default value.
#    Time: 3055 ns  Iteration: 2  Process: /axi_s_agent_pkg::axi_s_mon #(32, 32)::monitor/#FORK#35_7fefec44ef3 File: ../env/axi_ref_model.sv Line: 57
# xyz : 337
# ** Warning: (vsim-3829) Non-existent associative array entry. Returning default value.
#    Time: 3055 ns  Iteration: 2  Process: /axi_s_agent_pkg::axi_s_mon #(32, 32)::monitor/#FORK#35_7fefec44ef3 File: ../env/axi_ref_model.sv Line: 57
# xyz : 338
# ** Warning: (vsim-3829) Non-existent associative array entry. Returning default value.
#    Time: 3055 ns  Iteration: 2  Process: /axi_s_agent_pkg::axi_s_mon #(32, 32)::monitor/#FORK#35_7fefec44ef3 File: ../env/axi_ref_model.sv Line: 57
# xyz : 339
# ** Warning: (vsim-3829) Non-existent associative array entry. Returning default value.
#    Time: 3055 ns  Iteration: 2  Process: /axi_s_agent_pkg::axi_s_mon #(32, 32)::monitor/#FORK#35_7fefec44ef3 File: ../env/axi_ref_model.sv Line: 57
# xyz : 340
# ** Warning: (vsim-3829) Non-existent associative array entry. Returning default value.
#    Time: 3055 ns  Iteration: 2  Process: /axi_s_agent_pkg::axi_s_mon #(32, 32)::monitor/#FORK#35_7fefec44ef3 File: ../env/axi_ref_model.sv Line: 57
# xyz : 341
# ** Warning: (vsim-3829) Non-existent associative array entry. Returning default value.
#    Time: 3055 ns  Iteration: 2  Process: /axi_s_agent_pkg::axi_s_mon #(32, 32)::monitor/#FORK#35_7fefec44ef3 File: ../env/axi_ref_model.sv Line: 57
# xyz : 342
# ** Warning: (vsim-3829) Non-existent associative array entry. Returning default value.
#    Time: 3055 ns  Iteration: 2  Process: /axi_s_agent_pkg::axi_s_mon #(32, 32)::monitor/#FORK#35_7fefec44ef3 File: ../env/axi_ref_model.sv Line: 57
# xyz : 343
# ** Warning: (vsim-3829) Non-existent associative array entry. Returning default value.
#    Time: 3055 ns  Iteration: 2  Process: /axi_s_agent_pkg::axi_s_mon #(32, 32)::monitor/#FORK#35_7fefec44ef3 File: ../env/axi_ref_model.sv Line: 57
# xyz : 344
# ** Warning: (vsim-3829) Non-existent associative array entry. Returning default value.
#    Time: 3055 ns  Iteration: 2  Process: /axi_s_agent_pkg::axi_s_mon #(32, 32)::monitor/#FORK#35_7fefec44ef3 File: ../env/axi_ref_model.sv Line: 57
# xyz : 345
# ** Warning: (vsim-3829) Non-existent associative array entry. Returning default value.
#    Time: 3055 ns  Iteration: 2  Process: /axi_s_agent_pkg::axi_s_mon #(32, 32)::monitor/#FORK#35_7fefec44ef3 File: ../env/axi_ref_model.sv Line: 57
# xyz : 346
# ** Warning: (vsim-3829) Non-existent associative array entry. Returning default value.
#    Time: 3055 ns  Iteration: 2  Process: /axi_s_agent_pkg::axi_s_mon #(32, 32)::monitor/#FORK#35_7fefec44ef3 File: ../env/axi_ref_model.sv Line: 57
# xyz : 347
# ** Warning: (vsim-3829) Non-existent associative array entry. Returning default value.
#    Time: 3055 ns  Iteration: 2  Process: /axi_s_agent_pkg::axi_s_mon #(32, 32)::monitor/#FORK#35_7fefec44ef3 File: ../env/axi_ref_model.sv Line: 57
# xyz : 348
# ** Warning: (vsim-3829) Non-existent associative array entry. Returning default value.
#    Time: 3055 ns  Iteration: 2  Process: /axi_s_agent_pkg::axi_s_mon #(32, 32)::monitor/#FORK#35_7fefec44ef3 File: ../env/axi_ref_model.sv Line: 57
# xyz : 349
# ** Warning: (vsim-3829) Non-existent associative array entry. Returning default value.
#    Time: 3055 ns  Iteration: 2  Process: /axi_s_agent_pkg::axi_s_mon #(32, 32)::monitor/#FORK#35_7fefec44ef3 File: ../env/axi_ref_model.sv Line: 57
# xyz : 350
# ** Warning: (vsim-3829) Non-existent associative array entry. Returning default value.
#    Time: 3055 ns  Iteration: 2  Process: /axi_s_agent_pkg::axi_s_mon #(32, 32)::monitor/#FORK#35_7fefec44ef3 File: ../env/axi_ref_model.sv Line: 57
# xyz : 351
# ** Warning: (vsim-3829) Non-existent associative array entry. Returning default value.
#    Time: 3055 ns  Iteration: 2  Process: /axi_s_agent_pkg::axi_s_mon #(32, 32)::monitor/#FORK#35_7fefec44ef3 File: ../env/axi_ref_model.sv Line: 57
# xyz : 352
# ** Warning: (vsim-3829) Non-existent associative array entry. Returning default value.
#    Time: 3055 ns  Iteration: 2  Process: /axi_s_agent_pkg::axi_s_mon #(32, 32)::monitor/#FORK#35_7fefec44ef3 File: ../env/axi_ref_model.sv Line: 57
# xyz : 353
# ** Warning: (vsim-3829) Non-existent associative array entry. Returning default value.
#    Time: 3055 ns  Iteration: 2  Process: /axi_s_agent_pkg::axi_s_mon #(32, 32)::monitor/#FORK#35_7fefec44ef3 File: ../env/axi_ref_model.sv Line: 57
# xyz : 354
# ** Warning: (vsim-3829) Non-existent associative array entry. Returning default value.
#    Time: 3055 ns  Iteration: 2  Process: /axi_s_agent_pkg::axi_s_mon #(32, 32)::monitor/#FORK#35_7fefec44ef3 File: ../env/axi_ref_model.sv Line: 57
# xyz : 355
# ** Warning: (vsim-3829) Non-existent associative array entry. Returning default value.
#    Time: 3055 ns  Iteration: 2  Process: /axi_s_agent_pkg::axi_s_mon #(32, 32)::monitor/#FORK#35_7fefec44ef3 File: ../env/axi_ref_model.sv Line: 57
# xyz : 356
# ** Warning: (vsim-3829) Non-existent associative array entry. Returning default value.
#    Time: 3055 ns  Iteration: 2  Process: /axi_s_agent_pkg::axi_s_mon #(32, 32)::monitor/#FORK#35_7fefec44ef3 File: ../env/axi_ref_model.sv Line: 57
# xyz : 357
# ** Warning: (vsim-3829) Non-existent associative array entry. Returning default value.
#    Time: 3055 ns  Iteration: 2  Process: /axi_s_agent_pkg::axi_s_mon #(32, 32)::monitor/#FORK#35_7fefec44ef3 File: ../env/axi_ref_model.sv Line: 57
# xyz : 358
# ** Warning: (vsim-3829) Non-existent associative array entry. Returning default value.
#    Time: 3055 ns  Iteration: 2  Process: /axi_s_agent_pkg::axi_s_mon #(32, 32)::monitor/#FORK#35_7fefec44ef3 File: ../env/axi_ref_model.sv Line: 57
# xyz : 359
# ** Warning: (vsim-3829) Non-existent associative array entry. Returning default value.
#    Time: 3055 ns  Iteration: 2  Process: /axi_s_agent_pkg::axi_s_mon #(32, 32)::monitor/#FORK#35_7fefec44ef3 File: ../env/axi_ref_model.sv Line: 57
# xyz : 360
# ** Warning: (vsim-3829) Non-existent associative array entry. Returning default value.
#    Time: 3055 ns  Iteration: 2  Process: /axi_s_agent_pkg::axi_s_mon #(32, 32)::monitor/#FORK#35_7fefec44ef3 File: ../env/axi_ref_model.sv Line: 57
# xyz : 361
# ** Warning: (vsim-3829) Non-existent associative array entry. Returning default value.
#    Time: 3055 ns  Iteration: 2  Process: /axi_s_agent_pkg::axi_s_mon #(32, 32)::monitor/#FORK#35_7fefec44ef3 File: ../env/axi_ref_model.sv Line: 57
# xyz : 362
# ** Warning: (vsim-3829) Non-existent associative array entry. Returning default value.
#    Time: 3055 ns  Iteration: 2  Process: /axi_s_agent_pkg::axi_s_mon #(32, 32)::monitor/#FORK#35_7fefec44ef3 File: ../env/axi_ref_model.sv Line: 57
# xyz : 363
# ** Warning: (vsim-3829) Non-existent associative array entry. Returning default value.
#    Time: 3055 ns  Iteration: 2  Process: /axi_s_agent_pkg::axi_s_mon #(32, 32)::monitor/#FORK#35_7fefec44ef3 File: ../env/axi_ref_model.sv Line: 57
# xyz : 364
# ** Warning: (vsim-3829) Non-existent associative array entry. Returning default value.
#    Time: 3055 ns  Iteration: 2  Process: /axi_s_agent_pkg::axi_s_mon #(32, 32)::monitor/#FORK#35_7fefec44ef3 File: ../env/axi_ref_model.sv Line: 57
# xyz : 365
# ** Warning: (vsim-3829) Non-existent associative array entry. Returning default value.
#    Time: 3055 ns  Iteration: 2  Process: /axi_s_agent_pkg::axi_s_mon #(32, 32)::monitor/#FORK#35_7fefec44ef3 File: ../env/axi_ref_model.sv Line: 57
# xyz : 366
# ** Warning: (vsim-3829) Non-existent associative array entry. Returning default value.
#    Time: 3055 ns  Iteration: 2  Process: /axi_s_agent_pkg::axi_s_mon #(32, 32)::monitor/#FORK#35_7fefec44ef3 File: ../env/axi_ref_model.sv Line: 57
# xyz : 367
# ** Warning: (vsim-3829) Non-existent associative array entry. Returning default value.
#    Time: 3055 ns  Iteration: 2  Process: /axi_s_agent_pkg::axi_s_mon #(32, 32)::monitor/#FORK#35_7fefec44ef3 File: ../env/axi_ref_model.sv Line: 57
# xyz : 368
# ** Warning: (vsim-3829) Non-existent associative array entry. Returning default value.
#    Time: 3055 ns  Iteration: 2  Process: /axi_s_agent_pkg::axi_s_mon #(32, 32)::monitor/#FORK#35_7fefec44ef3 File: ../env/axi_ref_model.sv Line: 57
# xyz : 369
# ** Warning: (vsim-3829) Non-existent associative array entry. Returning default value.
#    Time: 3055 ns  Iteration: 2  Process: /axi_s_agent_pkg::axi_s_mon #(32, 32)::monitor/#FORK#35_7fefec44ef3 File: ../env/axi_ref_model.sv Line: 57
# xyz : 370
# ** Warning: (vsim-3829) Non-existent associative array entry. Returning default value.
#    Time: 3055 ns  Iteration: 2  Process: /axi_s_agent_pkg::axi_s_mon #(32, 32)::monitor/#FORK#35_7fefec44ef3 File: ../env/axi_ref_model.sv Line: 57
# xyz : 371
# ** Warning: (vsim-3829) Non-existent associative array entry. Returning default value.
#    Time: 3055 ns  Iteration: 2  Process: /axi_s_agent_pkg::axi_s_mon #(32, 32)::monitor/#FORK#35_7fefec44ef3 File: ../env/axi_ref_model.sv Line: 57
# xyz : 372
# ** Warning: (vsim-3829) Non-existent associative array entry. Returning default value.
#    Time: 3055 ns  Iteration: 2  Process: /axi_s_agent_pkg::axi_s_mon #(32, 32)::monitor/#FORK#35_7fefec44ef3 File: ../env/axi_ref_model.sv Line: 57
# xyz : 373
# ** Warning: (vsim-3829) Non-existent associative array entry. Returning default value.
#    Time: 3055 ns  Iteration: 2  Process: /axi_s_agent_pkg::axi_s_mon #(32, 32)::monitor/#FORK#35_7fefec44ef3 File: ../env/axi_ref_model.sv Line: 57
# xyz : 374
# ** Warning: (vsim-3829) Non-existent associative array entry. Returning default value.
#    Time: 3055 ns  Iteration: 2  Process: /axi_s_agent_pkg::axi_s_mon #(32, 32)::monitor/#FORK#35_7fefec44ef3 File: ../env/axi_ref_model.sv Line: 57
# xyz : 375
# ** Warning: (vsim-3829) Non-existent associative array entry. Returning default value.
#    Time: 3055 ns  Iteration: 2  Process: /axi_s_agent_pkg::axi_s_mon #(32, 32)::monitor/#FORK#35_7fefec44ef3 File: ../env/axi_ref_model.sv Line: 57
# xyz : 376
# ** Warning: (vsim-3829) Non-existent associative array entry. Returning default value.
#    Time: 3055 ns  Iteration: 2  Process: /axi_s_agent_pkg::axi_s_mon #(32, 32)::monitor/#FORK#35_7fefec44ef3 File: ../env/axi_ref_model.sv Line: 57
# xyz : 377
# ** Warning: (vsim-3829) Non-existent associative array entry. Returning default value.
#    Time: 3055 ns  Iteration: 2  Process: /axi_s_agent_pkg::axi_s_mon #(32, 32)::monitor/#FORK#35_7fefec44ef3 File: ../env/axi_ref_model.sv Line: 57
# xyz : 378
# ** Warning: (vsim-3829) Non-existent associative array entry. Returning default value.
#    Time: 3055 ns  Iteration: 2  Process: /axi_s_agent_pkg::axi_s_mon #(32, 32)::monitor/#FORK#35_7fefec44ef3 File: ../env/axi_ref_model.sv Line: 57
# xyz : 379
# ** Warning: (vsim-3829) Non-existent associative array entry. Returning default value.
#    Time: 3055 ns  Iteration: 2  Process: /axi_s_agent_pkg::axi_s_mon #(32, 32)::monitor/#FORK#35_7fefec44ef3 File: ../env/axi_ref_model.sv Line: 57
# xyz : 380
# ** Warning: (vsim-3829) Non-existent associative array entry. Returning default value.
#    Time: 3055 ns  Iteration: 2  Process: /axi_s_agent_pkg::axi_s_mon #(32, 32)::monitor/#FORK#35_7fefec44ef3 File: ../env/axi_ref_model.sv Line: 57
# xyz : 381
# ** Warning: (vsim-3829) Non-existent associative array entry. Returning default value.
#    Time: 3055 ns  Iteration: 2  Process: /axi_s_agent_pkg::axi_s_mon #(32, 32)::monitor/#FORK#35_7fefec44ef3 File: ../env/axi_ref_model.sv Line: 57
# xyz : 382
# ** Warning: (vsim-3829) Non-existent associative array entry. Returning default value.
#    Time: 3055 ns  Iteration: 2  Process: /axi_s_agent_pkg::axi_s_mon #(32, 32)::monitor/#FORK#35_7fefec44ef3 File: ../env/axi_ref_model.sv Line: 57
# xyz : 383
# ** Warning: (vsim-3829) Non-existent associative array entry. Returning default value.
#    Time: 3055 ns  Iteration: 2  Process: /axi_s_agent_pkg::axi_s_mon #(32, 32)::monitor/#FORK#35_7fefec44ef3 File: ../env/axi_ref_model.sv Line: 57
# xyz : 384
# ** Warning: (vsim-3829) Non-existent associative array entry. Returning default value.
#    Time: 3055 ns  Iteration: 2  Process: /axi_s_agent_pkg::axi_s_mon #(32, 32)::monitor/#FORK#35_7fefec44ef3 File: ../env/axi_ref_model.sv Line: 57
# xyz : 385
# ** Warning: (vsim-3829) Non-existent associative array entry. Returning default value.
#    Time: 3055 ns  Iteration: 2  Process: /axi_s_agent_pkg::axi_s_mon #(32, 32)::monitor/#FORK#35_7fefec44ef3 File: ../env/axi_ref_model.sv Line: 57
# xyz : 386
# ** Warning: (vsim-3829) Non-existent associative array entry. Returning default value.
#    Time: 3055 ns  Iteration: 2  Process: /axi_s_agent_pkg::axi_s_mon #(32, 32)::monitor/#FORK#35_7fefec44ef3 File: ../env/axi_ref_model.sv Line: 57
# xyz : 387
# ** Warning: (vsim-3829) Non-existent associative array entry. Returning default value.
#    Time: 3055 ns  Iteration: 2  Process: /axi_s_agent_pkg::axi_s_mon #(32, 32)::monitor/#FORK#35_7fefec44ef3 File: ../env/axi_ref_model.sv Line: 57
# xyz : 388
# ** Warning: (vsim-3829) Non-existent associative array entry. Returning default value.
#    Time: 3055 ns  Iteration: 2  Process: /axi_s_agent_pkg::axi_s_mon #(32, 32)::monitor/#FORK#35_7fefec44ef3 File: ../env/axi_ref_model.sv Line: 57
# xyz : 389
# ** Warning: (vsim-3829) Non-existent associative array entry. Returning default value.
#    Time: 3055 ns  Iteration: 2  Process: /axi_s_agent_pkg::axi_s_mon #(32, 32)::monitor/#FORK#35_7fefec44ef3 File: ../env/axi_ref_model.sv Line: 57
# xyz : 390
# ** Warning: (vsim-3829) Non-existent associative array entry. Returning default value.
#    Time: 3055 ns  Iteration: 2  Process: /axi_s_agent_pkg::axi_s_mon #(32, 32)::monitor/#FORK#35_7fefec44ef3 File: ../env/axi_ref_model.sv Line: 57
# xyz : 391
# ** Warning: (vsim-3829) Non-existent associative array entry. Returning default value.
#    Time: 3055 ns  Iteration: 2  Process: /axi_s_agent_pkg::axi_s_mon #(32, 32)::monitor/#FORK#35_7fefec44ef3 File: ../env/axi_ref_model.sv Line: 57
# xyz : 392
# ** Warning: (vsim-3829) Non-existent associative array entry. Returning default value.
#    Time: 3055 ns  Iteration: 2  Process: /axi_s_agent_pkg::axi_s_mon #(32, 32)::monitor/#FORK#35_7fefec44ef3 File: ../env/axi_ref_model.sv Line: 57
# xyz : 393
