# vsim -voptargs="+acc" axi_tb_top -c -do "run -all; exit" "+UVM_TESTNAME=axi_wrap_test" 
# Start time: 16:44:44 on May 06,2026
# ** Note: (vsim-3813) Design is being optimized due to module recompilation...
# ** Warning: (vopt-10587) Some optimizations are turned off because the +acc switch is in effect. This will cause your simulation to run slowly. Please use -access/-debug to maintain needed visibility.
# ** Warning: (vopt-13408) Code coverage will be disabled for some DUs/packages/classes and source files.
# ** Note: (vsim-12126) Error and warning message counts have been restored: Errors=0, Warnings=2.
# //  Questa Sim-64
# //  Version 2023.4 linux_x86_64 Oct  9 2023
# //
# //  Copyright 1991-2023 Mentor Graphics Corporation
# //  All Rights Reserved.
# //
# //  QuestaSim and its associated documentation contain trade
# //  secrets and commercial or financial information that are the property of
# //  Mentor Graphics Corporation and are privileged, confidential,
# //  and exempt from disclosure under the Freedom of Information Act,
# //  5 U.S.C. Section 552. Furthermore, this information
# //  is prohibited from disclosure under the Trade Secrets Act,
# //  18 U.S.C. Section 1905.
# //
# Loading sv_std.std
# Loading work.axi_s_inf(fast)
# Loading work.axi_m_inf(fast)
# Loading mtiUvm.uvm_pkg(fast)
# Loading work.axi_s_agent_pkg(fast)
# Loading work.axi_m_agent_pkg(fast)
# Loading work.axi_env_pkg(fast)
# Loading work.axi_test_pkg(fast)
# Loading mtiUvm.questa_uvm_pkg(fast)
# Loading work.axi_tb_top(fast)
# Loading work.axi_m_inf(fast__2)
# Loading work.axi_s_inf(fast__2)
# ** Warning: (vsim-8441) Clocking block output s_vif.s_drv_cb.RDATA is not legal in this
# or another expression.
#    Time: 0 ns  Iteration: 0  Region: /axi_s_agent_pkg::axi_s_drv #(32, 32) File: ../env/s_agent/axi_s_drv.sv Line: 113
# ** Warning: (vsim-8441) Clocking block output s_vif.s_drv_cb.RVALID is not legal in this
# or another expression.
#    Time: 0 ns  Iteration: 0  Region: /axi_s_agent_pkg::axi_s_drv #(32, 32) File: ../env/s_agent/axi_s_drv.sv Line: 115
# ** Warning: (vsim-8441) Clocking block output s_vif.s_drv_cb.RLAST is not legal in this
# or another expression.
#    Time: 0 ns  Iteration: 0  Region: /axi_s_agent_pkg::axi_s_drv #(32, 32) File: ../env/s_agent/axi_s_drv.sv Line: 116
# ** Warning: (vsim-8441) Clocking block output s_vif.s_drv_cb.RDATA is not legal in this
# or another expression.
#    Time: 0 ns  Iteration: 0  Region: /axi_s_agent_pkg::axi_s_drv #(32, 32) File: ../env/s_agent/axi_s_drv.sv Line: 113
# ** Warning: (vsim-8441) Clocking block output s_vif.s_drv_cb.RLAST is not legal in this
# or another expression.
#    Time: 0 ns  Iteration: 0  Region: /axi_s_agent_pkg::axi_s_drv #(32, 32) File: ../env/s_agent/axi_s_drv.sv Line: 116
# ** Warning: (vsim-8441) Clocking block output s_vif.s_drv_cb.RVALID is not legal in this
# or another expression.
#    Time: 0 ns  Iteration: 0  Region: /axi_s_agent_pkg::axi_s_drv #(32, 32) File: ../env/s_agent/axi_s_drv.sv Line: 115
# ** Warning: (vsim-8441) Clocking block output s_vif.s_drv_cb.RVALID is not legal in this
# or another expression.
#    Time: 0 ns  Iteration: 0  Region: /axi_s_agent_pkg::axi_s_drv #(32, 32) File: ../env/s_agent/axi_s_drv.sv Line: 115
# ** Warning: (vsim-8441) Clocking block output s_vif.s_drv_cb.RLAST is not legal in this
# or another expression.
#    Time: 0 ns  Iteration: 0  Region: /axi_s_agent_pkg::axi_s_drv #(32, 32) File: ../env/s_agent/axi_s_drv.sv Line: 116
# ** Warning: (vsim-8441) Clocking block output m_vif.m_drv_cb.WID is not legal in this
# or another expression.
#    Time: 0 ns  Iteration: 0  Region: /axi_m_agent_pkg::axi_m_drv #(32, 32) File: ../env/m_agent/axi_m_drv.sv Line: 96
# ** Warning: (vsim-8441) Clocking block output m_vif.m_drv_cb.WID is not legal in this
# or another expression.
#    Time: 0 ns  Iteration: 0  Region: /axi_m_agent_pkg::axi_m_drv #(32, 32) File: ../env/m_agent/axi_m_drv.sv Line: 96
# ** Warning: (vsim-8441) Clocking block output m_vif.m_drv_cb.WLAST is not legal in this
# or another expression.
#    Time: 0 ns  Iteration: 0  Region: /axi_m_agent_pkg::axi_m_drv #(32, 32) File: ../env/m_agent/axi_m_drv.sv Line: 101
# ** Warning: (vsim-8441) Clocking block output m_vif.m_drv_cb.WLAST is not legal in this
# or another expression.
#    Time: 0 ns  Iteration: 0  Region: /axi_m_agent_pkg::axi_m_drv #(32, 32) File: ../env/m_agent/axi_m_drv.sv Line: 101
# ** Warning: (vsim-8441) Clocking block output m_vif.m_drv_cb.WLAST is not legal in this
# or another expression.
#    Time: 0 ns  Iteration: 0  Region: /axi_m_agent_pkg::axi_m_drv #(32, 32) File: ../env/m_agent/axi_m_drv.sv Line: 101
# ** Warning: (vsim-8441) Clocking block output m_vif.m_drv_cb.WLAST is not legal in this
# or another expression.
#    Time: 0 ns  Iteration: 0  Region: /axi_m_agent_pkg::axi_m_drv #(32, 32) File: ../env/m_agent/axi_m_drv.sv Line: 101
# Loading /tools/mentor/questa/2023.4/questasim/uvm-1.1d/linux_x86_64/uvm_dpi.so
# run -all
# ----------------------------------------------------------------
# UVM-1.1d
# (C) 2007-2013 Mentor Graphics Corporation
# (C) 2007-2013 Cadence Design Systems, Inc.
# (C) 2006-2013 Synopsys, Inc.
# (C) 2011-2013 Cypress Semiconductor Corp.
# ----------------------------------------------------------------
# 
#   ***********       IMPORTANT RELEASE NOTES         ************
# 
#   You are using a version of the UVM library that has been compiled
#   with `UVM_NO_DEPRECATED undefined.
#   See http://www.eda.org/svdb/view.php?id=3313 for more details.
# 
#   You are using a version of the UVM library that has been compiled
#   with `UVM_OBJECT_MUST_HAVE_CONSTRUCTOR undefined.
#   See http://www.eda.org/svdb/view.php?id=3770 for more details.
# 
#       (Specify +UVM_NO_RELNOTES to turn off this notice)
# 
# UVM_INFO verilog_src/questa_uvm_pkg-1.2/src/questa_uvm_pkg.sv(277) @ 0: reporter [Questa UVM] QUESTA_UVM-1.2.3
# UVM_INFO verilog_src/questa_uvm_pkg-1.2/src/questa_uvm_pkg.sv(278) @ 0: reporter [Questa UVM]  questa_uvm::init(+struct)
# UVM_INFO @ 0: reporter [RNTST] Running test axi_wrap_test...
# ** Warning: (vsim-8474) A higher value '8' is found in bin 'single_byte' of Coverpoint 'cp_wstrb'. It is invalid and will be ignored.
#    Time: 0 ns  Iteration: 7  Process: /uvm_pkg::uvm_phase::m_run_phases/#FORK#1847_7fefec42437 File: ../env/axi_coverage.sv Line: 56
# ** Warning: (vsim-8474) A higher value '12' is found in bin 'single_byte' of Coverpoint 'cp_wstrb'. It is invalid and will be ignored.
#    Time: 0 ns  Iteration: 7  Process: /uvm_pkg::uvm_phase::m_run_phases/#FORK#1847_7fefec42437 File: ../env/axi_coverage.sv Line: 56
# ** Warning: (vsim-8474) A higher value '14' is found in bin 'single_byte' of Coverpoint 'cp_wstrb'. It is invalid and will be ignored.
#    Time: 0 ns  Iteration: 7  Process: /uvm_pkg::uvm_phase::m_run_phases/#FORK#1847_7fefec42437 File: ../env/axi_coverage.sv Line: 56
# ** Warning: (vsim-8549) After dropping the illegal, ignore or invalid values, the values list associated with scalar bin 'single_byte' in Coverpoint 'cp_wstrb' of Covergroup instance '\/axi_env_pkg::axi_coverage::write_cov ' has converged to empty list. The bin will be taken out of coverage calculation.
#    Time: 0 ns  Iteration: 7  Region: /uvm_pkg::uvm_phase::m_run_phases
# ** Warning: (vsim-8474) A higher value '15' is found in bin 'all_bytes' of Coverpoint 'cp_wstrb'. It is invalid and will be ignored.
#    Time: 0 ns  Iteration: 7  Process: /uvm_pkg::uvm_phase::m_run_phases/#FORK#1847_7fefec42437 File: ../env/axi_coverage.sv Line: 57
# ** Warning: (vsim-8549) After dropping the illegal, ignore or invalid values, the values list associated with scalar bin 'all_bytes' in Coverpoint 'cp_wstrb' of Covergroup instance '\/axi_env_pkg::axi_coverage::write_cov ' has converged to empty list. The bin will be taken out of coverage calculation.
#    Time: 0 ns  Iteration: 7  Region: /uvm_pkg::uvm_phase::m_run_phases
# UVM_INFO ../env/s_agent/axi_s_seqr.sv(25) @ 0: uvm_test_top.env_h.s_uvc_h.s_agent_h[0].s_seqr_h [Data in s seqr] Data got in slave seqr
# UVM_INFO @ 0: reporter [UVMTOP] UVM testbench topology:
# --------------------------------------------------------------------------------
# Name                             Type                                Size  Value
# --------------------------------------------------------------------------------
# uvm_test_top                     axi_wrap_test                       -     @479 
#   env_h                          axi_env                             -     @491 
#     m_uvc_h                      uvm_agent                           -     @513 
#       m_agent_h[0]               uvm_agent                           -     @693 
#         m_drv_h                  uvm_driver #(REQ,RSP)               -     @814 
#           rsp_port               uvm_analysis_port                   -     @829 
#           seq_item_port          uvm_seq_item_pull_port              -     @821 
#         m_mon_h                  axi_m_mon#(ADDR_WIDTH, DATA_WIDTH)  -     @837 
#           s_port                 uvm_analysis_port                   -     @844 
#         m_seqr_h                 uvm_sequencer                       -     @705 
#           rsp_export             uvm_analysis_export                 -     @712 
#           seq_item_export        uvm_seq_item_pull_imp               -     @806 
#           arbitration_queue      array                               0     -    
#           lock_queue             array                               0     -    
#           num_last_reqs          integral                            32    'd1  
#           num_last_rsps          integral                            32    'd1  
#     ref_model_h                  axi_ref_model                       -     @558 
#       mon_imp                    uvm_analysis_imp                    -     @565 
#       sb_imp                     uvm_analysis_port                   -     @573 
#     s_uvc_h                      uvm_agent                           -     @520 
#       s_agent_h[0]               uvm_agent                           -     @860 
#         s_drv_h                  uvm_driver #(REQ,RSP)               -     @1036
#           rsp_port               uvm_analysis_port                   -     @1051
#           seq_item_port          uvm_seq_item_pull_port              -     @1043
#         s_mon_h                  axi_s_mon#(ADDR_WIDTH, DATA_WIDTH)  -     @1059
#           s_port                 uvm_analysis_port                   -     @1066
#         s_seqr_h                 uvm_sequencer                       -     @872 
#           item_collected_export  uvm_analysis_export                 -     @981 
#           item_req_fifo          uvm_tlm_analysis_fifo #(T)          -     @989 
#             analysis_export      uvm_analysis_imp                    -     @1028
#             get_ap               uvm_analysis_port                   -     @1020
#             get_peek_export      uvm_get_peek_imp                    -     @1004
#             put_ap               uvm_analysis_port                   -     @1012
#             put_export           uvm_put_imp                         -     @996 
#           rsp_export             uvm_analysis_export                 -     @879 
#           seq_item_export        uvm_seq_item_pull_imp               -     @973 
#           arbitration_queue      array                               0     -    
#           lock_queue             array                               0     -    
#           num_last_reqs          integral                            32    'd1  
#           num_last_rsps          integral                            32    'd1  
#     sb_h                         axi_sb                              -     @527 
#       anl_imp_m                  uvm_analysis_imp_m                  -     @534 
#       anl_imp_ref                uvm_analysis_imp_ref                -     @542 
#     vseqr_h                      axi_virtual_seqr                    -     @581 
#       rsp_export                 uvm_analysis_export                 -     @588 
#       seq_item_export            uvm_seq_item_pull_imp               -     @682 
#       arbitration_queue          array                               0     -    
#       lock_queue                 array                               0     -    
#       num_last_reqs              integral                            32    'd1  
#       num_last_rsps              integral                            32    'd1  
# --------------------------------------------------------------------------------
# 
# UVM_INFO ../env/axi_sb.sv(94) @ 0: uvm_test_top.env_h.sb_h [before event in sb] aaaa
# UVM_INFO ../env/m_agent/axi_m_mon.sv(29) @ 0: uvm_test_top.env_h.m_uvc_h.m_agent_h[0].m_mon_h [M MON RUN PHASE before] Inside master mon run phase
# UVM_INFO ../env/m_agent/axi_m_mon.sv(36) @ 0: uvm_test_top.env_h.m_uvc_h.m_agent_h[0].m_mon_h [M MON run PHASE after] Inside master mon
# UVM_INFO ../env/m_agent/axi_m_mon.sv(41) @ 0: uvm_test_top.env_h.m_uvc_h.m_agent_h[0].m_mon_h [M MON write addr PHASE before] Inside master mon
# UVM_INFO ../env/m_agent/axi_m_mon.sv(61) @ 0: uvm_test_top.env_h.m_uvc_h.m_agent_h[0].m_mon_h [M MON write data PHASE before] Inside master mon
# UVM_INFO ../env/m_agent/axi_m_mon.sv(86) @ 0: uvm_test_top.env_h.m_uvc_h.m_agent_h[0].m_mon_h [M MON read addr PHASE before] Inside master mon
# UVM_INFO ../env/m_agent/axi_m_mon.sv(108) @ 0: uvm_test_top.env_h.m_uvc_h.m_agent_h[0].m_mon_h [M MON read data PHASE before] Inside master mon
# Before AW CHANNEL
# Before W CHANNEL
# Before AR CHANNEL
# Before R CHANNEL
# AWLEN IN M DRV:3
# cnt : 1
# AWLEN IN M DRV:3
# cnt : 2
# AWLEN IN M DRV:3
# cnt : 3
# AWLEN IN M DRV:1
# cnt : 4
# AWLEN IN M DRV:1
# cnt : 5
# AWLEN IN M DRV:1
# cnt : 6
# AWLEN IN M DRV:1
# cnt : 7
# AWLEN IN M DRV:3
# cnt : 8
# AWLEN IN M DRV:7
# cnt : 9
# AWLEN IN M DRV:1
# cnt : 10
# AWLEN IN M DRV:15
# cnt : 11
# AWLEN IN M DRV:1
# cnt : 12
# AWLEN IN M DRV:1
# cnt : 13
# AWLEN IN M DRV:3
# cnt : 14
# AWLEN IN M DRV:15
# cnt : 15
# AWLEN IN M DRV:1
# cnt : 16
# AWLEN IN M DRV:1
# cnt : 17
# AWLEN IN M DRV:3
# cnt : 18
# AWLEN IN M DRV:7
# cnt : 19
# AWLEN IN M DRV:1
# cnt : 20
# AWLEN IN M DRV:15
# cnt : 21
# AWLEN IN M DRV:1
# cnt : 22
# AWLEN IN M DRV:3
# cnt : 23
# AWLEN IN M DRV:1
# cnt : 24
# AWLEN IN M DRV:7
# cnt : 25
# AWLEN IN M DRV:1
# cnt : 26
# AWLEN IN M DRV:15
# cnt : 27
# AWLEN IN M DRV:1
# cnt : 28
# AWLEN IN M DRV:1
# cnt : 29
# AWLEN IN M DRV:1
# cnt : 30
# AWLEN IN M DRV:15
# cnt : 31
# AWLEN IN M DRV:3
# cnt : 32
# AWLEN IN M DRV:1
# cnt : 33
# AWLEN IN M DRV:15
# cnt : 34
# AWLEN IN M DRV:3
# cnt : 35
# AWLEN IN M DRV:15
# cnt : 36
# AWLEN IN M DRV:3
# cnt : 37
# AWLEN IN M DRV:3
# cnt : 38
# AWLEN IN M DRV:1
# cnt : 39
# AWLEN IN M DRV:3
# cnt : 40
# AWLEN IN M DRV:1
# cnt : 41
# AWLEN IN M DRV:1
# cnt : 42
# AWLEN IN M DRV:1
# cnt : 43
# AWLEN IN M DRV:3
# cnt : 44
# AWLEN IN M DRV:1
# cnt : 45
# AWLEN IN M DRV:1
# cnt : 46
# AWLEN IN M DRV:3
# cnt : 47
# AWLEN IN M DRV:3
# cnt : 48
# AWLEN IN M DRV:1
# cnt : 49
# AWLEN IN M DRV:15
# cnt : 50
# AWLEN IN M DRV:1
# cnt : 51
# AWLEN IN M DRV:7
# cnt : 52
# AWLEN IN M DRV:3
# cnt : 53
# AWLEN IN M DRV:3
# cnt : 54
# AWLEN IN M DRV:15
# cnt : 55
# AWLEN IN M DRV:7
# cnt : 56
# AWLEN IN M DRV:3
# cnt : 57
# AWLEN IN M DRV:15
# cnt : 58
# AWLEN IN M DRV:15
# cnt : 59
# AWLEN IN M DRV:3
# cnt : 60
# AWLEN IN M DRV:1
# cnt : 61
# AWLEN IN M DRV:7
# cnt : 62
# AWLEN IN M DRV:1
# cnt : 63
# AWLEN IN M DRV:3
# cnt : 64
# AWLEN IN M DRV:1
# cnt : 65
# AWLEN IN M DRV:1
# cnt : 66
# AWLEN IN M DRV:7
# cnt : 67
# AWLEN IN M DRV:1
# cnt : 68
# AWLEN IN M DRV:7
# cnt : 69
# AWLEN IN M DRV:3
# cnt : 70
# AWLEN IN M DRV:3
# cnt : 71
# AWLEN IN M DRV:1
# cnt : 72
# AWLEN IN M DRV:1
# cnt : 73
# AWLEN IN M DRV:1
# cnt : 74
# AWLEN IN M DRV:1
# cnt : 75
# AWLEN IN M DRV:1
# cnt : 76
# AWLEN IN M DRV:3
# cnt : 77
# AWLEN IN M DRV:1
# cnt : 78
# AWLEN IN M DRV:15
# cnt : 79
# AWLEN IN M DRV:1
# cnt : 80
# AWLEN IN M DRV:1
# cnt : 81
# AWLEN IN M DRV:1
# cnt : 82
# AWLEN IN M DRV:1
# cnt : 83
# AWLEN IN M DRV:3
# cnt : 84
# AWLEN IN M DRV:1
# cnt : 85
# AWLEN IN M DRV:1
# cnt : 86
# AWLEN IN M DRV:1
# cnt : 87
# AWLEN IN M DRV:1
# cnt : 88
# AWLEN IN M DRV:1
# cnt : 89
# AWLEN IN M DRV:1
# cnt : 90
# AWLEN IN M DRV:1
# cnt : 91
# AWLEN IN M DRV:3
# cnt : 92
# AWLEN IN M DRV:15
# cnt : 93
# AWLEN IN M DRV:3
# cnt : 94
# AWLEN IN M DRV:3
# cnt : 95
# AWLEN IN M DRV:15
# cnt : 96
# AWLEN IN M DRV:1
# cnt : 97
# AWLEN IN M DRV:1
# cnt : 98
# AWLEN IN M DRV:3
# cnt : 99
# AWLEN IN M DRV:15
# cnt : 100
# AWLEN IN M DRV:1
# cnt : 101
# AWLEN IN M DRV:15
# cnt : 102
# AWLEN IN M DRV:1
# cnt : 103
# AWLEN IN M DRV:15
# cnt : 104
# AWLEN IN M DRV:1
# cnt : 105
# AWLEN IN M DRV:7
# cnt : 106
# AWLEN IN M DRV:1
# cnt : 107
# AWLEN IN M DRV:1
# cnt : 108
# AWLEN IN M DRV:15
# cnt : 109
# AWLEN IN M DRV:3
# cnt : 110
# AWLEN IN M DRV:15
# cnt : 111
# AWLEN IN M DRV:1
# cnt : 112
# AWLEN IN M DRV:15
# cnt : 113
# AWLEN IN M DRV:1
# cnt : 114
# AWLEN IN M DRV:3
# cnt : 115
# AWLEN IN M DRV:1
# cnt : 116
# AWLEN IN M DRV:1
# cnt : 117
# AWLEN IN M DRV:7
# cnt : 118
# AWLEN IN M DRV:15
# cnt : 119
# AWLEN IN M DRV:1
# cnt : 120
# AWLEN IN M DRV:1
# cnt : 121
# AWLEN IN M DRV:15
# cnt : 122
# AWLEN IN M DRV:1
# cnt : 123
# AWLEN IN M DRV:3
# cnt : 124
# AWLEN IN M DRV:1
# cnt : 125
# AWLEN IN M DRV:7
# cnt : 126
# AWLEN IN M DRV:1
# cnt : 127
# AWLEN IN M DRV:1
# cnt : 128
# AWLEN IN M DRV:7
# cnt : 129
# AWLEN IN M DRV:15
# cnt : 130
# AWLEN IN M DRV:1
# cnt : 131
# AWLEN IN M DRV:3
# cnt : 132
# AWLEN IN M DRV:7
# cnt : 133
# AWLEN IN M DRV:1
# cnt : 134
# AWLEN IN M DRV:3
# cnt : 135
# AWLEN IN M DRV:1
# cnt : 136
# AWLEN IN M DRV:7
# cnt : 137
# AWLEN IN M DRV:3
# cnt : 138
# AWLEN IN M DRV:1
# cnt : 139
# AWLEN IN M DRV:1
# cnt : 140
# AWLEN IN M DRV:7
# cnt : 141
# AWLEN IN M DRV:3
# cnt : 142
# AWLEN IN M DRV:1
# cnt : 143
# AWLEN IN M DRV:3
# cnt : 144
# AWLEN IN M DRV:7
# cnt : 145
# AWLEN IN M DRV:1
# cnt : 146
# AWLEN IN M DRV:15
# cnt : 147
# AWLEN IN M DRV:7
# cnt : 148
# AWLEN IN M DRV:7
# cnt : 149
# AWLEN IN M DRV:1
# cnt : 150
# AWLEN IN M DRV:15
# cnt : 151
# AWLEN IN M DRV:1
# cnt : 152
# AWLEN IN M DRV:3
# cnt : 153
# AWLEN IN M DRV:3
# cnt : 154
# AWLEN IN M DRV:1
# cnt : 155
# AWLEN IN M DRV:1
# cnt : 156
# AWLEN IN M DRV:1
# cnt : 157
# AWLEN IN M DRV:1
# cnt : 158
# AWLEN IN M DRV:15
# cnt : 159
# AWLEN IN M DRV:1
# cnt : 160
# AWLEN IN M DRV:3
# cnt : 161
# AWLEN IN M DRV:15
# cnt : 162
# AWLEN IN M DRV:1
# cnt : 163
# AWLEN IN M DRV:1
# cnt : 164
# AWLEN IN M DRV:3
# cnt : 165
# AWLEN IN M DRV:7
# cnt : 166
# AWLEN IN M DRV:1
# cnt : 167
# AWLEN IN M DRV:1
# cnt : 168
# AWLEN IN M DRV:3
# cnt : 169
# AWLEN IN M DRV:15
# cnt : 170
# AWLEN IN M DRV:1
# cnt : 171
# AWLEN IN M DRV:1
# cnt : 172
# AWLEN IN M DRV:3
# cnt : 173
# AWLEN IN M DRV:7
# cnt : 174
# AWLEN IN M DRV:1
# cnt : 175
# AWLEN IN M DRV:3
# cnt : 176
# AWLEN IN M DRV:15
# cnt : 177
# AWLEN IN M DRV:1
# cnt : 178
# AWLEN IN M DRV:3
# cnt : 179
# AWLEN IN M DRV:1
# cnt : 180
# AWLEN IN M DRV:3
# cnt : 181
# AWLEN IN M DRV:1
# cnt : 182
# AWLEN IN M DRV:3
# cnt : 183
# AWLEN IN M DRV:3
# cnt : 184
# AWLEN IN M DRV:3
# cnt : 185
# AWLEN IN M DRV:1
# cnt : 186
# AWLEN IN M DRV:1
# cnt : 187
# AWLEN IN M DRV:7
# cnt : 188
# AWLEN IN M DRV:1
# cnt : 189
# AWLEN IN M DRV:1
# cnt : 190
# AWLEN IN M DRV:15
# cnt : 191
# AWLEN IN M DRV:1
# cnt : 192
# AWLEN IN M DRV:7
# cnt : 193
# AWLEN IN M DRV:1
# cnt : 194
# AWLEN IN M DRV:3
# cnt : 195
# AWLEN IN M DRV:3
# cnt : 196
# AWLEN IN M DRV:1
# cnt : 197
# AWLEN IN M DRV:7
# cnt : 198
# AWLEN IN M DRV:7
# cnt : 199
# AWLEN IN M DRV:15
# cnt : 200
# WID: 48469 , AWID : 48469
# burst in s mon : 2
# awid in s mon : bd55 , awaddr : 797ba740
#                   15wlast : 0
# WID: 48469 , AWID : 48469
# burst in s mon : 2
# awid in s mon : bf1c , awaddr : 93af0540
# INIDE_SLAVE_MON_CTR=1
# arid in s mon : 60203
#                   25wlast : 0
# WID: 48469 , AWID : 48469
# m mon ar id : eb2b
# INIDE_SLAVE_MON_CTR=2
# arid in s mon : 59707
# burst in s mon : 2
# awid in s mon : 2b53 , awaddr : e4e3ce10
#                   35wlast : 0
# WID: 48469 , AWID : 48469
# m mon ar id : e93b
# abc : 1
# ref model mem : 2038146880
# abc : 2
# ref model mem : 2038146888
# abc : 3
# ref model mem : 2038146896
# abc : 4
# ref model mem : 2038146904
# xyz : 1
# xyz : 2
# xyz : 3
# xyz : 4
# burst in s mon : 2
# awid in s mon : a632 , awaddr : 57708ef0
# INIDE_SLAVE_MON_CTR=3
# arid in s mon : 59859
#                   45wlast : 1
# AFFTER W CHANNEL
# WID: 48924 , AWID : 48924
# req wid : 0 , bid:0
# m mon ar id : e9d3
# match arid : 0 , rid : 0
# UVM_INFO ../env/s_agent/axi_s_drv.sv(31) @ 45: uvm_test_top.env_h.s_uvc_h.s_agent_h[0].s_drv_h [ID MATCH] aaaaa
# s seqs arid : 60203
# INIDE_SLAVE_SEQ_CTR=1
# match arid : eb2b , rid : eb2b
# UVM_INFO ../env/s_agent/axi_s_drv.sv(31) @ 45: uvm_test_top.env_h.s_uvc_h.s_agent_h[0].s_drv_h [ID MATCH] aaaaa
# rd data in s drv: e179b080 , len : 3 , last:0 , valid : 1
# INIDE_SLAVE_MON_CTR=4
# arid in s mon : 10426
# burst in s mon : 2
# awid in s mon : 8031 , awaddr : 20a4fe80
#                   55wlast : 0
# WID: 48924 , AWID : 48924
# m mon ar id : 28ba
# m mon rid : eb2b
# rd data in s drv: 5ade4b3 , len : 3 , last:0 , valid : 1
# burst in s mon : 2
# awid in s mon : fb10 , awaddr : 7498f080
# INIDE_SLAVE_MON_CTR=5
# arid in s mon : 61524
#                   65wlast : 0
# WID: 48924 , AWID : 48924
# m mon rid : eb2b
# m mon ar id : f054
# UVM_INFO ../env/m_agent/axi_base_m_seqs.sv(26) @ 65: uvm_test_top.env_h.m_uvc_h.m_agent_h[0].m_seqr_h@@vseqs_h.m_wseqs_h [IN V SEQS] Got B-channel response from driver
# rd data in s drv: 55d992b7 , len : 3 , last:0 , valid : 1
# INIDE_SLAVE_MON_CTR=6
# arid in s mon : 26459
# burst in s mon : 2
# awid in s mon : bbe1 , awaddr : fcbfaae0
#                   75wlast : 0
# WID: 48924 , AWID : 48924
# m mon ar id : 675b
# m mon rid : eb2b
# rd data in s drv: edb2c52b , len : 3 , last:1 , valid : 1
# abc : 1
# ref model mem : 2477720896
# abc : 2
# ref model mem : 2477720904
# abc : 3
# ref model mem : 2477720912
# abc : 4
# ref model mem : 2477720920
# xyz : 1
# xyz : 2
# xyz : 3
# xyz : 4
# burst in s mon : 2
# awid in s mon : bc15 , awaddr : da056080
# INIDE_SLAVE_MON_CTR=7
# arid in s mon : 22357
#                   85wlast : 1
# AFFTER W CHANNEL
# WID: 11091 , AWID : 11091
# req kind : READ
# m mon rid : eb2b
# req wid : 0 , bid:0
# m mon ar id : 5755
# UVM_INFO ../env/axi_sb.sv(96) @ 85: uvm_test_top.env_h.sb_h [after event in sb] aaaa
# UVM_INFO ../env/axi_sb.sv(94) @ 85: uvm_test_top.env_h.sb_h [before event in sb] aaaa
# match arid : 0 , rid : 0
# UVM_INFO ../env/s_agent/axi_s_drv.sv(31) @ 85: uvm_test_top.env_h.s_uvc_h.s_agent_h[0].s_drv_h [ID MATCH] aaaaa
# s seqs arid : 59707
# INIDE_SLAVE_SEQ_CTR=2
# match arid : e93b , rid : e93b
# UVM_INFO ../env/s_agent/axi_s_drv.sv(31) @ 85: uvm_test_top.env_h.s_uvc_h.s_agent_h[0].s_drv_h [ID MATCH] aaaaa
# rd data in s drv: 766d2096 , len : 3 , last:0 , valid : 1
# INIDE_SLAVE_MON_CTR=8
# arid in s mon : 58966
# burst in s mon : 2
# awid in s mon : 5bc8 , awaddr : 1a1f37e0
#                   95wlast : 0
# WID: 11091 , AWID : 11091
# m mon ar id : e656
# m mon rid : e93b
# rd data in s drv: c6d5f5ef , len : 3 , last:0 , valid : 1
# abc : 1
# ref model mem : 3840134672
# abc : 2
# ref model mem : 3840134680
# xyz : 1
# xyz : 2
# burst in s mon : 2
# awid in s mon : d167 , awaddr : 10bb4800
# INIDE_SLAVE_MON_CTR=9
# arid in s mon : 64759
#                  105wlast : 1
# AFFTER W CHANNEL
# WID: 42546 , AWID : 42546
# m mon rid : e93b
# req wid : 0 , bid:0
# m mon ar id : fcf7
# UVM_INFO ../env/m_agent/axi_base_m_seqs.sv(26) @ 105: uvm_test_top.env_h.m_uvc_h.m_agent_h[0].m_seqr_h@@vseqs_h.m_wseqs_h [IN V SEQS] Got B-channel response from driver
# match arid : 0 , rid : 0
# UVM_INFO ../env/s_agent/axi_s_drv.sv(31) @ 105: uvm_test_top.env_h.s_uvc_h.s_agent_h[0].s_drv_h [ID MATCH] aaaaa
# s seqs arid : 59859
# INIDE_SLAVE_SEQ_CTR=3
# match arid : e9d3 , rid : e9d3
# UVM_INFO ../env/s_agent/axi_s_drv.sv(31) @ 105: uvm_test_top.env_h.s_uvc_h.s_agent_h[0].s_drv_h [ID MATCH] aaaaa
# rd data in s drv: b8665e42 , len : 3 , last:0 , valid : 1
# INIDE_SLAVE_MON_CTR=10
# arid in s mon : 43156
# burst in s mon : 2
# awid in s mon : 43d7 , awaddr : af974780
#                  115wlast : 0
# WID: 42546 , AWID : 42546
# m mon ar id : a894
# m mon rid : e93b
# rd data in s drv: eaba05fa , len : 3 , last:1 , valid : 1
# abc : 1
# ref model mem : 1466994416
# abc : 2
# ref model mem : 1466994424
# xyz : 1
# xyz : 2
# burst in s mon : 2
# awid in s mon : 59e0 , awaddr : 4c6c2e0
# INIDE_SLAVE_MON_CTR=11
# arid in s mon : 52439
#                  125wlast : 1
# AFFTER W CHANNEL
# WID: 32817 , AWID : 32817
# req kind : READ
# m mon rid : e93b
# req wid : 0 , bid:0
# m mon ar id : ccd7
# UVM_INFO ../env/m_agent/axi_base_m_seqs.sv(26) @ 125: uvm_test_top.env_h.m_uvc_h.m_agent_h[0].m_seqr_h@@vseqs_h.m_wseqs_h [IN V SEQS] Got B-channel response from driver
# UVM_INFO ../env/axi_sb.sv(96) @ 125: uvm_test_top.env_h.sb_h [after event in sb] aaaa
# UVM_INFO ../env/axi_sb.sv(94) @ 125: uvm_test_top.env_h.sb_h [before event in sb] aaaa
# match arid : 0 , rid : 0
# UVM_INFO ../env/s_agent/axi_s_drv.sv(31) @ 125: uvm_test_top.env_h.s_uvc_h.s_agent_h[0].s_drv_h [ID MATCH] aaaaa
# s seqs arid : 10426
# INIDE_SLAVE_SEQ_CTR=4
# match arid : 28ba , rid : 28ba
# UVM_INFO ../env/s_agent/axi_s_drv.sv(31) @ 125: uvm_test_top.env_h.s_uvc_h.s_agent_h[0].s_drv_h [ID MATCH] aaaaa
# rd data in s drv: 4542837f , len : 1 , last:0 , valid : 1
# INIDE_SLAVE_MON_CTR=12
# arid in s mon : 4905
# burst in s mon : 2
# awid in s mon : 7d1f , awaddr : a0fec6c0
#                  135wlast : 0
# WID: 32817 , AWID : 32817
# m mon ar id : 1329
# m mon rid : e9d3
# rd data in s drv: 3b27ee47 , len : 1 , last:1 , valid : 1
# burst in s mon : 2
# awid in s mon : 3181 , awaddr : cc002600
# INIDE_SLAVE_MON_CTR=13
# arid in s mon : 35577
#                  145wlast : 0
# WID: 32817 , AWID : 32817
# req kind : READ
# m mon rid : e9d3
# m mon ar id : 8af9
# UVM_INFO ../env/m_agent/axi_base_m_seqs.sv(26) @ 145: uvm_test_top.env_h.m_uvc_h.m_agent_h[0].m_seqr_h@@vseqs_h.m_wseqs_h [IN V SEQS] Got B-channel response from driver
# UVM_INFO ../env/axi_sb.sv(96) @ 145: uvm_test_top.env_h.sb_h [after event in sb] aaaa
# UVM_INFO ../env/axi_sb.sv(94) @ 145: uvm_test_top.env_h.sb_h [before event in sb] aaaa
# rd data in s drv: 7ef31ad8 , len : 1 , last:0 , valid : 1
# INIDE_SLAVE_MON_CTR=14
# arid in s mon : 25219
# burst in s mon : 2
# awid in s mon : 9de9 , awaddr : 7fb701f0
#                  155wlast : 0
# WID: 32817 , AWID : 32817
# m mon ar id : 6283
# m mon rid : 28ba
# rd data in s drv: 400041b1 , len : 1 , last:1 , valid : 1
# burst in s mon : 2
# awid in s mon : 870b , awaddr : a33e500
# INIDE_SLAVE_MON_CTR=15
# arid in s mon : 47995
#                  165wlast : 0
# WID: 32817 , AWID : 32817
# req kind : READ
# m mon rid : 28ba
# m mon ar id : bb7b
# UVM_INFO ../env/axi_sb.sv(96) @ 165: uvm_test_top.env_h.sb_h [after event in sb] aaaa
# UVM_INFO ../env/axi_sb.sv(94) @ 165: uvm_test_top.env_h.sb_h [before event in sb] aaaa
# INIDE_SLAVE_MON_CTR=16
# arid in s mon : 51276
# burst in s mon : 2
# awid in s mon : de5 , awaddr : c8ebd190
#                  175wlast : 0
# WID: 32817 , AWID : 32817
# m mon ar id : c84c
# burst in s mon : 2
# awid in s mon : 3595 , awaddr : b91921a0
# INIDE_SLAVE_MON_CTR=17
# arid in s mon : 44353
#                  185wlast : 0
# WID: 32817 , AWID : 32817
# m mon ar id : ad41
# INIDE_SLAVE_MON_CTR=18
# arid in s mon : 34273
# burst in s mon : 2
# awid in s mon : 2178 , awaddr : 9e4dadc0
#                  195wlast : 0
# WID: 32817 , AWID : 32817
# m mon ar id : 85e1
# abc : 1
# ref model mem : 547683968
# abc : 2
# ref model mem : 547683976
# abc : 3
# ref model mem : 547683984
# abc : 4
# ref model mem : 547683992
# abc : 5
# ref model mem : 547684000
# abc : 6
# ref model mem : 547684008
# abc : 7
# ref model mem : 547684016
# abc : 8
# ref model mem : 547684024
# xyz : 1
# xyz : 2
# xyz : 3
# xyz : 4
# xyz : 5
# xyz : 6
# xyz : 7
# xyz : 8
# burst in s mon : 2
# awid in s mon : ad86 , awaddr : ffa9e730
# INIDE_SLAVE_MON_CTR=19
# arid in s mon : 40878
#                  205wlast : 1
# AFFTER W CHANNEL
# WID: 64272 , AWID : 64272
# req wid : 0 , bid:0
# m mon ar id : 9fae
# match arid : 0 , rid : 0
# UVM_INFO ../env/s_agent/axi_s_drv.sv(31) @ 205: uvm_test_top.env_h.s_uvc_h.s_agent_h[0].s_drv_h [ID MATCH] aaaaa
# s seqs arid : 61524
# INIDE_SLAVE_SEQ_CTR=5
# match arid : f054 , rid : f054
# UVM_INFO ../env/s_agent/axi_s_drv.sv(31) @ 205: uvm_test_top.env_h.s_uvc_h.s_agent_h[0].s_drv_h [ID MATCH] aaaaa
# rd data in s drv: 90e411e0 , len : 7 , last:0 , valid : 1
# INIDE_SLAVE_MON_CTR=20
# arid in s mon : 65033
# burst in s mon : 2
# awid in s mon : fe69 , awaddr : 8e062120
#                  215wlast : 0
# WID: 64272 , AWID : 64272
# m mon ar id : fe09
# m mon rid : f054
# rd data in s drv: 7c5cf680 , len : 7 , last:0 , valid : 1
# burst in s mon : 2
# awid in s mon : 177c , awaddr : 2b91a580
# INIDE_SLAVE_MON_CTR=21
# arid in s mon : 39064
#                  225wlast : 0
# WID: 64272 , AWID : 64272
# m mon rid : f054
# m mon ar id : 9898
# UVM_INFO ../env/m_agent/axi_base_m_seqs.sv(26) @ 225: uvm_test_top.env_h.m_uvc_h.m_agent_h[0].m_seqr_h@@vseqs_h.m_wseqs_h [IN V SEQS] Got B-channel response from driver
# rd data in s drv: cdcb11b4 , len : 7 , last:0 , valid : 1
# INIDE_SLAVE_MON_CTR=22
# arid in s mon : 62773
# burst in s mon : 2
# awid in s mon : 661d , awaddr : e78b03d0
#                  235wlast : 0
# WID: 64272 , AWID : 64272
# m mon ar id : f535
# m mon rid : f054
# rd data in s drv: e77068cf , len : 7 , last:0 , valid : 1
# burst in s mon : 2
# awid in s mon : e79f , awaddr : 10a6eaa0
# INIDE_SLAVE_MON_CTR=23
# arid in s mon : 60350
#                  245wlast : 0
# WID: 64272 , AWID : 64272
# m mon rid : f054
# m mon ar id : ebbe
# rd data in s drv: e748098f , len : 7 , last:0 , valid : 1
# INIDE_SLAVE_MON_CTR=24
# arid in s mon : 45043
# burst in s mon : 2
# awid in s mon : 5d92 , awaddr : 56daa90
#                  255wlast : 0
# WID: 64272 , AWID : 64272
# m mon ar id : aff3
# m mon rid : f054
# rd data in s drv: bda1c34e , len : 7 , last:0 , valid : 1
# burst in s mon : 2
# awid in s mon : 74b6 , awaddr : 1cbeb1b0
# INIDE_SLAVE_MON_CTR=25
# arid in s mon : 15796
#                  265wlast : 0
# WID: 64272 , AWID : 64272
# m mon rid : f054
# m mon ar id : 3db4
# rd data in s drv: 21d79332 , len : 7 , last:0 , valid : 1
# INIDE_SLAVE_MON_CTR=26
# arid in s mon : 64427
# burst in s mon : 2
# awid in s mon : 2a80 , awaddr : dcea4ee0
#                  275wlast : 0
# WID: 64272 , AWID : 64272
# m mon ar id : fbab
# m mon rid : f054
# rd data in s drv: 5e2db49 , len : 7 , last:1 , valid : 1
# burst in s mon : 2
# awid in s mon : 1ffb , awaddr : 8fca7d80
# INIDE_SLAVE_MON_CTR=27
# arid in s mon : 15132
#                  285wlast : 0
# WID: 64272 , AWID : 64272
# req kind : READ
# m mon rid : f054
# m mon ar id : 3b1c
# UVM_INFO ../env/axi_sb.sv(96) @ 285: uvm_test_top.env_h.sb_h [after event in sb] aaaa
# UVM_INFO ../env/axi_sb.sv(94) @ 285: uvm_test_top.env_h.sb_h [before event in sb] aaaa
# INIDE_SLAVE_MON_CTR=28
# arid in s mon : 25003
# burst in s mon : 2
# awid in s mon : 4336 , awaddr : 82523940
#                  295wlast : 0
# WID: 64272 , AWID : 64272
# m mon ar id : 61ab
# burst in s mon : 2
# awid in s mon : 2877 , awaddr : eac98e80
# INIDE_SLAVE_MON_CTR=29
# arid in s mon : 51408
#                  305wlast : 0
# WID: 64272 , AWID : 64272
# m mon ar id : c8d0
# INIDE_SLAVE_MON_CTR=30
# arid in s mon : 29970
# burst in s mon : 2
# awid in s mon : 359 , awaddr : f086fb10
#                  315wlast : 0
# WID: 64272 , AWID : 64272
# m mon ar id : 7512
# burst in s mon : 2
# awid in s mon : 36be , awaddr : bed56b30
# INIDE_SLAVE_MON_CTR=31
# arid in s mon : 11395
#                  325wlast : 0
# WID: 64272 , AWID : 64272
# m mon ar id : 2c83
# INIDE_SLAVE_MON_CTR=32
# arid in s mon : 43166
# burst in s mon : 2
# awid in s mon : 3127 , awaddr : 133380b0
#                  335wlast : 0
# WID: 64272 , AWID : 64272
# m mon ar id : a89e
# burst in s mon : 2
# awid in s mon : 5250 , awaddr : 6e27180
# INIDE_SLAVE_MON_CTR=33
# arid in s mon : 11187
#                  345wlast : 0
# WID: 64272 , AWID : 64272
# m mon ar id : 2bb3
# INIDE_SLAVE_MON_CTR=34
# arid in s mon : 5180
# burst in s mon : 2
# awid in s mon : 2eeb , awaddr : 8a6c7240
#                  355wlast : 0
# WID: 64272 , AWID : 64272
# m mon ar id : 143c
# abc : 1
# ref model mem : 1956180096
# abc : 2
# ref model mem : 1956180104
# abc : 3
# ref model mem : 1956180112
# abc : 4
# ref model mem : 1956180120
# abc : 5
# ref model mem : 1956180128
# abc : 6
# ref model mem : 1956180136
# abc : 7
# ref model mem : 1956180144
# abc : 8
# ref model mem : 1956180152
# abc : 9
# ref model mem : 1956180160
# abc : 10
# ref model mem : 1956180168
# abc : 11
# ref model mem : 1956180176
# abc : 12
# ref model mem : 1956180184
# abc : 13
# ref model mem : 1956180192
# abc : 14
# ref model mem : 1956180200
# abc : 15
# ref model mem : 1956180208
# abc : 16
# ref model mem : 1956180216
# xyz : 1
# xyz : 2
# xyz : 3
# xyz : 4
# xyz : 5
# xyz : 6
# xyz : 7
# xyz : 8
# xyz : 9
# xyz : 10
# xyz : 11
# xyz : 12
# xyz : 13
# xyz : 14
# xyz : 15
# xyz : 16
# burst in s mon : 2
# awid in s mon : 2c50 , awaddr : 6e07a80
# INIDE_SLAVE_MON_CTR=35
# arid in s mon : 33047
#                  365wlast : 1
# AFFTER W CHANNEL
# WID: 48097 , AWID : 48097
# req wid : 0 , bid:0
# m mon ar id : 8117
# match arid : 0 , rid : 0
# UVM_INFO ../env/s_agent/axi_s_drv.sv(31) @ 365: uvm_test_top.env_h.s_uvc_h.s_agent_h[0].s_drv_h [ID MATCH] aaaaa
# s seqs arid : 26459
# INIDE_SLAVE_SEQ_CTR=6
# match arid : 675b , rid : 675b
# UVM_INFO ../env/s_agent/axi_s_drv.sv(31) @ 365: uvm_test_top.env_h.s_uvc_h.s_agent_h[0].s_drv_h [ID MATCH] aaaaa
# rd data in s drv: e692a955 , len : 15 , last:0 , valid : 1
# INIDE_SLAVE_MON_CTR=36
# arid in s mon : 41870
# burst in s mon : 2
# awid in s mon : 810c , awaddr : 634ef6e0
#                  375wlast : 0
# WID: 48097 , AWID : 48097
# m mon ar id : a38e
# m mon rid : 675b
# rd data in s drv: 5e5d6ae8 , len : 15 , last:0 , valid : 1
# abc : 1
# ref model mem : 4240419552
# abc : 2
# ref model mem : 4240419560
# xyz : 1
# xyz : 2
# burst in s mon : 2
# awid in s mon : cb7a , awaddr : 89522f90
# INIDE_SLAVE_MON_CTR=37
# arid in s mon : 14176
#                  385wlast : 1
# AFFTER W CHANNEL
# WID: 48149 , AWID : 48149
# m mon rid : 675b
# req wid : 0 , bid:0
# m mon ar id : 3760
# UVM_INFO ../env/m_agent/axi_base_m_seqs.sv(26) @ 385: uvm_test_top.env_h.m_uvc_h.m_agent_h[0].m_seqr_h@@vseqs_h.m_wseqs_h [IN V SEQS] Got B-channel response from driver
# match arid : 0 , rid : 0
# UVM_INFO ../env/s_agent/axi_s_drv.sv(31) @ 385: uvm_test_top.env_h.s_uvc_h.s_agent_h[0].s_drv_h [ID MATCH] aaaaa
# s seqs arid : 22357
# INIDE_SLAVE_SEQ_CTR=7
# match arid : 5755 , rid : 5755
# UVM_INFO ../env/s_agent/axi_s_drv.sv(31) @ 385: uvm_test_top.env_h.s_uvc_h.s_agent_h[0].s_drv_h [ID MATCH] aaaaa
# rd data in s drv: 2e5cdf84 , len : 15 , last:0 , valid : 1
# INIDE_SLAVE_MON_CTR=38
# arid in s mon : 15499
# burst in s mon : 2
# awid in s mon : 2afe , awaddr : 210f0820
#                  395wlast : 0
# WID: 48149 , AWID : 48149
# m mon ar id : 3c8b
# m mon rid : 675b
# rd data in s drv: 85dca7b4 , len : 15 , last:0 , valid : 1
# burst in s mon : 2
# awid in s mon : 90ac , awaddr : d87e1f80
# INIDE_SLAVE_MON_CTR=39
# arid in s mon : 29379
#                  405wlast : 0
# WID: 48149 , AWID : 48149
# m mon rid : 675b
# m mon ar id : 72c3
# UVM_INFO ../env/m_agent/axi_base_m_seqs.sv(26) @ 405: uvm_test_top.env_h.m_uvc_h.m_agent_h[0].m_seqr_h@@vseqs_h.m_wseqs_h [IN V SEQS] Got B-channel response from driver
# rd data in s drv: a29faa36 , len : 15 , last:0 , valid : 1
# INIDE_SLAVE_MON_CTR=40
# arid in s mon : 11568
# burst in s mon : 2
# awid in s mon : b6ce , awaddr : 2e932010
#                  415wlast : 0
# WID: 48149 , AWID : 48149
# m mon ar id : 2d30
# m mon rid : 675b
# rd data in s drv: d6eb0a92 , len : 15 , last:0 , valid : 1
# burst in s mon : 2
# awid in s mon : 6ad5 , awaddr : e028a3b0
# INIDE_SLAVE_MON_CTR=41
# arid in s mon : 16179
#                  425wlast : 0
# WID: 48149 , AWID : 48149
# m mon rid : 675b
# m mon ar id : 3f33
# rd data in s drv: e73ddebe , len : 15 , last:0 , valid : 1
# INIDE_SLAVE_MON_CTR=42
# arid in s mon : 60092
# burst in s mon : 2
# awid in s mon : c8cc , awaddr : e9ec2250
#                  435wlast : 0
# WID: 48149 , AWID : 48149
# m mon ar id : eabc
# m mon rid : 675b
# rd data in s drv: de58f65a , len : 15 , last:0 , valid : 1
# burst in s mon : 2
# awid in s mon : 13d6 , awaddr : f0e97080
# INIDE_SLAVE_MON_CTR=43
# arid in s mon : 36315
#                  445wlast : 0
# WID: 48149 , AWID : 48149
# m mon rid : 675b
# m mon ar id : 8ddb
# rd data in s drv: c4621ac7 , len : 15 , last:0 , valid : 1
# INIDE_SLAVE_MON_CTR=44
# arid in s mon : 5087
# burst in s mon : 2
# awid in s mon : 6a29 , awaddr : c5a4baf0
#                  455wlast : 0
# WID: 48149 , AWID : 48149
# m mon ar id : 13df
# m mon rid : 675b
# rd data in s drv: 39ddeae8 , len : 15 , last:0 , valid : 1
# burst in s mon : 2
# awid in s mon : a989 , awaddr : 2d3f32a0
# INIDE_SLAVE_MON_CTR=45
# arid in s mon : 47476
#                  465wlast : 0
# WID: 48149 , AWID : 48149
# m mon rid : 675b
# m mon ar id : b974
# rd data in s drv: 9dd4f93e , len : 15 , last:0 , valid : 1
# INIDE_SLAVE_MON_CTR=46
# arid in s mon : 36504
# burst in s mon : 2
# awid in s mon : 98df , awaddr : ec16e680
#                  475wlast : 0
# WID: 48149 , AWID : 48149
# m mon ar id : 8e98
# m mon rid : 675b
# rd data in s drv: a19d830f , len : 15 , last:0 , valid : 1
# burst in s mon : 2
# awid in s mon : 4b94 , awaddr : b92099a0
# INIDE_SLAVE_MON_CTR=47
# arid in s mon : 22723
#                  485wlast : 0
# WID: 48149 , AWID : 48149
# m mon rid : 675b
# m mon ar id : 58c3
# rd data in s drv: 8714b927 , len : 15 , last:0 , valid : 1
# INIDE_SLAVE_MON_CTR=48
# arid in s mon : 50465
# burst in s mon : 2
# awid in s mon : 4518 , awaddr : 7bbc00a0
#                  495wlast : 0
# WID: 48149 , AWID : 48149
# m mon ar id : c521
# m mon rid : 675b
# rd data in s drv: 4e6f6152 , len : 15 , last:0 , valid : 1
# burst in s mon : 2
# awid in s mon : 4e73 , awaddr : 60233d40
# INIDE_SLAVE_MON_CTR=49
# arid in s mon : 9563
#                  505wlast : 0
# WID: 48149 , AWID : 48149
# m mon rid : 675b
# m mon ar id : 255b
# rd data in s drv: 83b164bb , len : 15 , last:0 , valid : 1
# INIDE_SLAVE_MON_CTR=50
# arid in s mon : 12754
# burst in s mon : 2
# awid in s mon : db50 , awaddr : da78a450
#                  515wlast : 0
# WID: 48149 , AWID : 48149
# m mon ar id : 31d2
# m mon rid : 675b
# rd data in s drv: b2e22138 , len : 15 , last:1 , valid : 1
# burst in s mon : 2
# awid in s mon : 7d7d , awaddr : d889b570
# INIDE_SLAVE_MON_CTR=51
# arid in s mon : 32108
#                  525wlast : 0
# WID: 48149 , AWID : 48149
# req kind : READ
# m mon rid : 675b
# m mon ar id : 7d6c
# UVM_INFO ../env/axi_sb.sv(96) @ 525: uvm_test_top.env_h.sb_h [after event in sb] aaaa
# UVM_INFO ../env/axi_sb.sv(94) @ 525: uvm_test_top.env_h.sb_h [before event in sb] aaaa
# rd data in s drv: 2b2d318 , len : 1 , last:0 , valid : 1
# INIDE_SLAVE_MON_CTR=52
# arid in s mon : 12915
# burst in s mon : 2
# awid in s mon : fd61 , awaddr : 1907c850
#                  535wlast : 0
# WID: 48149 , AWID : 48149
# m mon ar id : 3273
# m mon rid : 5755
# rd data in s drv: 372f0987 , len : 1 , last:1 , valid : 1
# abc : 1
# ref model mem : 3657785472
# abc : 2
# ref model mem : 3657785480
# abc : 3
# ref model mem : 3657785488
# abc : 4
# ref model mem : 3657785496
# abc : 5
# ref model mem : 3657785504
# abc : 6
# ref model mem : 3657785512
# abc : 7
# ref model mem : 3657785520
# abc : 8
# ref model mem : 3657785528
# abc : 9
# ref model mem : 3657785536
# abc : 10
# ref model mem : 3657785544
# abc : 11
# ref model mem : 3657785552
# abc : 12
# ref model mem : 3657785560
# abc : 13
# ref model mem : 3657785568
# abc : 14
# ref model mem : 3657785576
# abc : 15
# ref model mem : 3657785584
# abc : 16
# ref model mem : 3657785592
# xyz : 1
# xyz : 2
# xyz : 3
# xyz : 4
# xyz : 5
# xyz : 6
# xyz : 7
# xyz : 8
# xyz : 9
# xyz : 10
# xyz : 11
# xyz : 12
# xyz : 13
# xyz : 14
# xyz : 15
# xyz : 16
# burst in s mon : 2
# awid in s mon : 61cd , awaddr : 4a715990
# INIDE_SLAVE_MON_CTR=53
# arid in s mon : 58420
#                  545wlast : 1
# AFFTER W CHANNEL
# WID: 23496 , AWID : 23496
# req kind : READ
# m mon rid : 5755
# req wid : 0 , bid:0
# m mon ar id : e434
# UVM_INFO ../env/axi_sb.sv(96) @ 545: uvm_test_top.env_h.sb_h [after event in sb] aaaa
# UVM_INFO ../env/axi_sb.sv(94) @ 545: uvm_test_top.env_h.sb_h [before event in sb] aaaa
# match arid : 0 , rid : 0
# UVM_INFO ../env/s_agent/axi_s_drv.sv(31) @ 545: uvm_test_top.env_h.s_uvc_h.s_agent_h[0].s_drv_h [ID MATCH] aaaaa
# s seqs arid : 58966
# INIDE_SLAVE_SEQ_CTR=8
# match arid : e656 , rid : e656
# UVM_INFO ../env/s_agent/axi_s_drv.sv(31) @ 545: uvm_test_top.env_h.s_uvc_h.s_agent_h[0].s_drv_h [ID MATCH] aaaaa
# rd data in s drv: d7aab9f7 , len : 15 , last:0 , valid : 1
# INIDE_SLAVE_MON_CTR=54
# arid in s mon : 21916
# burst in s mon : 2
# awid in s mon : 177f , awaddr : 9fd37f80
#                  555wlast : 0
# WID: 23496 , AWID : 23496
# m mon ar id : 559c
# m mon rid : e656
# rd data in s drv: baee7d8 , len : 15 , last:0 , valid : 1
# abc : 1
# ref model mem : 438253536
# abc : 2
# ref model mem : 438253544
# xyz : 1
# xyz : 2
# burst in s mon : 2
# awid in s mon : 4ca , awaddr : 93af9800
# INIDE_SLAVE_MON_CTR=55
# arid in s mon : 31141
#                  565wlast : 1
# AFFTER W CHANNEL
# WID: 53607 , AWID : 53607
# m mon rid : e656
# req wid : 0 , bid:0
# m mon ar id : 79a5
# UVM_INFO ../env/m_agent/axi_base_m_seqs.sv(26) @ 565: uvm_test_top.env_h.m_uvc_h.m_agent_h[0].m_seqr_h@@vseqs_h.m_wseqs_h [IN V SEQS] Got B-channel response from driver
# match arid : 0 , rid : 0
# UVM_INFO ../env/s_agent/axi_s_drv.sv(31) @ 565: uvm_test_top.env_h.s_uvc_h.s_agent_h[0].s_drv_h [ID MATCH] aaaaa
# s seqs arid : 64759
# INIDE_SLAVE_SEQ_CTR=9
# match arid : fcf7 , rid : fcf7
# UVM_INFO ../env/s_agent/axi_s_drv.sv(31) @ 565: uvm_test_top.env_h.s_uvc_h.s_agent_h[0].s_drv_h [ID MATCH] aaaaa
# rd data in s drv: e174315a , len : 15 , last:0 , valid : 1
# INIDE_SLAVE_MON_CTR=56
# arid in s mon : 36107
# burst in s mon : 2
# awid in s mon : f475 , awaddr : 8aff1580
#                  575wlast : 0
# WID: 53607 , AWID : 53607
# m mon ar id : 8d0b
# m mon rid : e656
# rd data in s drv: 502c68b6 , len : 15 , last:0 , valid : 1
# burst in s mon : 2
# awid in s mon : f2e1 , awaddr : 6d7a2d80
# INIDE_SLAVE_MON_CTR=57
# arid in s mon : 65117
#                  585wlast : 0
# WID: 53607 , AWID : 53607
# m mon rid : e656
# m mon ar id : fe5d
# UVM_INFO ../env/m_agent/axi_base_m_seqs.sv(26) @ 585: uvm_test_top.env_h.m_uvc_h.m_agent_h[0].m_seqr_h@@vseqs_h.m_wseqs_h [IN V SEQS] Got B-channel response from driver
# rd data in s drv: ed58a3a5 , len : 15 , last:0 , valid : 1
# INIDE_SLAVE_MON_CTR=58
# arid in s mon : 21315
# burst in s mon : 2
# awid in s mon : ac6e , awaddr : a975fa70
#                  595wlast : 0
# WID: 53607 , AWID : 53607
# m mon ar id : 5343
# m mon rid : e656
# rd data in s drv: 7e7bdfcc , len : 15 , last:0 , valid : 1
# burst in s mon : 2
# awid in s mon : 331 , awaddr : 56b3c080
# INIDE_SLAVE_MON_CTR=59
# arid in s mon : 58658
#                  605wlast : 0
# WID: 53607 , AWID : 53607
# m mon rid : e656
# m mon ar id : e522
# rd data in s drv: 2e9bb6b1 , len : 15 , last:0 , valid : 1
# INIDE_SLAVE_MON_CTR=60
# arid in s mon : 55026
# burst in s mon : 2
# awid in s mon : f611 , awaddr : 19a6c190
#                  615wlast : 0
# WID: 53607 , AWID : 53607
# m mon ar id : d6f2
# m mon rid : e656
# rd data in s drv: 835229c2 , len : 15 , last:0 , valid : 1
# burst in s mon : 2
# awid in s mon : 1d0c , awaddr : a85facd0
# INIDE_SLAVE_MON_CTR=61
# arid in s mon : 30931
#                  625wlast : 0
# WID: 53607 , AWID : 53607
# m mon rid : e656
# m mon ar id : 78d3
# rd data in s drv: dd947ef8 , len : 15 , last:0 , valid : 1
# INIDE_SLAVE_MON_CTR=62
# arid in s mon : 21841
# burst in s mon : 2
# awid in s mon : f21b , awaddr : c49d5770
#                  635wlast : 0
# WID: 53607 , AWID : 53607
# m mon ar id : 5551
# m mon rid : e656
# rd data in s drv: 61b0b002 , len : 15 , last:0 , valid : 1
# abc : 1
# ref model mem : 280709120
# abc : 2
# ref model mem : 280709128
# abc : 3
# ref model mem : 280709136
# abc : 4
# ref model mem : 280709144
# abc : 5
# ref model mem : 280709152
# abc : 6
# ref model mem : 280709160
# abc : 7
# ref model mem : 280709168
# abc : 8
# ref model mem : 280709176
# xyz : 1
# xyz : 2
# xyz : 3
# xyz : 4
# xyz : 5
# xyz : 6
# xyz : 7
# xyz : 8
# burst in s mon : 2
# awid in s mon : 81c9 , awaddr : e1cff6c0
# INIDE_SLAVE_MON_CTR=63
# arid in s mon : 5800
#                  645wlast : 1
# AFFTER W CHANNEL
# WID: 17367 , AWID : 17367
# m mon rid : e656
# req wid : 0 , bid:0
# m mon ar id : 16a8
# match arid : 0 , rid : 0
# UVM_INFO ../env/s_agent/axi_s_drv.sv(31) @ 645: uvm_test_top.env_h.s_uvc_h.s_agent_h[0].s_drv_h [ID MATCH] aaaaa
# s seqs arid : 43156
# INIDE_SLAVE_SEQ_CTR=10
# match arid : a894 , rid : a894
# UVM_INFO ../env/s_agent/axi_s_drv.sv(31) @ 645: uvm_test_top.env_h.s_uvc_h.s_agent_h[0].s_drv_h [ID MATCH] aaaaa
# rd data in s drv: 1c85404 , len : 15 , last:0 , valid : 1
# INIDE_SLAVE_MON_CTR=64
# arid in s mon : 56378
# burst in s mon : 2
# awid in s mon : 8a9e , awaddr : 5a1c3d00
#                  655wlast : 0
# WID: 17367 , AWID : 17367
# m mon ar id : dc3a
# m mon rid : e656
# rd data in s drv: 98d23d04 , len : 15 , last:0 , valid : 1
# burst in s mon : 2
# awid in s mon : 1790 , awaddr : 356da00
# INIDE_SLAVE_MON_CTR=65
# arid in s mon : 43113
#                  665wlast : 0
# WID: 17367 , AWID : 17367
# m mon rid : e656
# m mon ar id : a869
# UVM_INFO ../env/m_agent/axi_base_m_seqs.sv(26) @ 665: uvm_test_top.env_h.m_uvc_h.m_agent_h[0].m_seqr_h@@vseqs_h.m_wseqs_h [IN V SEQS] Got B-channel response from driver
# rd data in s drv: 878b1739 , len : 15 , last:0 , valid : 1
# INIDE_SLAVE_MON_CTR=66
# arid in s mon : 31737
# burst in s mon : 2
# awid in s mon : fc91 , awaddr : 4df51780
#                  675wlast : 0
# WID: 17367 , AWID : 17367
# m mon ar id : 7bf9
# m mon rid : e656
# rd data in s drv: 73c26990 , len : 15 , last:0 , valid : 1
# burst in s mon : 2
# awid in s mon : 103c , awaddr : 2356b1a0
# INIDE_SLAVE_MON_CTR=67
# arid in s mon : 34398
#                  685wlast : 0
# WID: 17367 , AWID : 17367
# m mon rid : e656
# m mon ar id : 865e
# rd data in s drv: dd8e62b8 , len : 15 , last:0 , valid : 1
# INIDE_SLAVE_MON_CTR=68
# arid in s mon : 20639
# burst in s mon : 2
# awid in s mon : 492d , awaddr : 98c55b40
#                  695wlast : 0
# WID: 17367 , AWID : 17367
# m mon ar id : 509f
# m mon rid : e656
# rd data in s drv: 70590f2 , len : 15 , last:1 , valid : 1
# burst in s mon : 2
# awid in s mon : 4f82 , awaddr : 6b009eb0
# INIDE_SLAVE_MON_CTR=69
# arid in s mon : 43133
#                  705wlast : 0
# WID: 17367 , AWID : 17367
# req kind : READ
# m mon rid : e656
# m mon ar id : a87d
# UVM_INFO ../env/axi_sb.sv(96) @ 705: uvm_test_top.env_h.sb_h [after event in sb] aaaa
# UVM_INFO ../env/axi_sb.sv(94) @ 705: uvm_test_top.env_h.sb_h [before event in sb] aaaa
# rd data in s drv: 8ab6c3a2 , len : 1 , last:0 , valid : 1
# INIDE_SLAVE_MON_CTR=70
# arid in s mon : 54666
# burst in s mon : 2
# awid in s mon : 1682 , awaddr : 316d2a80
#                  715wlast : 0
# WID: 17367 , AWID : 17367
# m mon ar id : d58a
# m mon rid : fcf7
# rd data in s drv: 316470ff , len : 1 , last:1 , valid : 1
# burst in s mon : 2
# awid in s mon : 4b17 , awaddr : 5663ede0
# INIDE_SLAVE_MON_CTR=71
# arid in s mon : 2480
#                  725wlast : 0
# WID: 17367 , AWID : 17367
# req kind : READ
# m mon rid : fcf7
# m mon ar id : 9b0
# UVM_INFO ../env/axi_sb.sv(96) @ 725: uvm_test_top.env_h.sb_h [after event in sb] aaaa
# UVM_INFO ../env/axi_sb.sv(94) @ 725: uvm_test_top.env_h.sb_h [before event in sb] aaaa
# rd data in s drv: b3f5107f , len : 7 , last:0 , valid : 1
# INIDE_SLAVE_MON_CTR=72
# arid in s mon : 58224
# burst in s mon : 2
# awid in s mon : 8ca1 , awaddr : 513a37c0
#                  735wlast : 0
# WID: 17367 , AWID : 17367
# m mon ar id : e370
# m mon rid : a894
# rd data in s drv: b5c5d03b , len : 7 , last:0 , valid : 1
# burst in s mon : 2
# awid in s mon : dcfb , awaddr : 6edde680
# INIDE_SLAVE_MON_CTR=73
# arid in s mon : 18096
#                  745wlast : 0
# WID: 17367 , AWID : 17367
# m mon rid : a894
# m mon ar id : 46b0
# rd data in s drv: 869f0c8e , len : 7 , last:0 , valid : 1
# INIDE_SLAVE_MON_CTR=74
# arid in s mon : 10861
# burst in s mon : 2
# awid in s mon : e6d0 , awaddr : 98c3e40
#                  755wlast : 0
# WID: 17367 , AWID : 17367
# m mon ar id : 2a6d
# m mon rid : a894
# rd data in s drv: af45646f , len : 7 , last:0 , valid : 1
# burst in s mon : 2
# awid in s mon : 9071 , awaddr : 38ee0100
# INIDE_SLAVE_MON_CTR=75
# arid in s mon : 29068
#                  765wlast : 0
# WID: 17367 , AWID : 17367
# m mon rid : a894
# m mon ar id : 718c
# rd data in s drv: f82b7f9c , len : 7 , last:0 , valid : 1
# INIDE_SLAVE_MON_CTR=76
# arid in s mon : 45337
# burst in s mon : 2
# awid in s mon : 2634 , awaddr : ddbce000
#                  775wlast : 0
# WID: 17367 , AWID : 17367
# m mon ar id : b119
# m mon rid : a894
# rd data in s drv: 4260ad3e , len : 7 , last:0 , valid : 1
# burst in s mon : 2
# awid in s mon : 4af5 , awaddr : 4bf73fd0
# INIDE_SLAVE_MON_CTR=77
# arid in s mon : 24484
#                  785wlast : 0
# WID: 17367 , AWID : 17367
# m mon rid : a894
# m mon ar id : 5fa4
# rd data in s drv: 88f086ed , len : 7 , last:0 , valid : 1
# INIDE_SLAVE_MON_CTR=78
# arid in s mon : 27438
# burst in s mon : 2
# awid in s mon : c008 , awaddr : 15c15970
#                  795wlast : 0
# WID: 17367 , AWID : 17367
# m mon ar id : 6b2e
# m mon rid : a894
# rd data in s drv: 531b6ebe , len : 7 , last:1 , valid : 1
# abc : 1
# ref model mem : 2945927040
# abc : 2
# ref model mem : 2945927048
# abc : 3
# ref model mem : 2945927056
# abc : 4
# ref model mem : 2945927064
# abc : 5
# ref model mem : 2945927072
# abc : 6
# ref model mem : 2945927080
# abc : 7
# ref model mem : 2945927088
# abc : 8
# ref model mem : 2945927096
# abc : 9
# ref model mem : 2945927104
# abc : 10
# ref model mem : 2945927112
# abc : 11
# ref model mem : 2945927120
# abc : 12
# ref model mem : 2945927128
# abc : 13
# ref model mem : 2945927136
# abc : 14
# ref model mem : 2945927144
# abc : 15
# ref model mem : 2945927152
# abc : 16
# ref model mem : 2945927160
# xyz : 1
# xyz : 2
# xyz : 3
# xyz : 4
# xyz : 5
# xyz : 6
# xyz : 7
# xyz : 8
# xyz : 9
# xyz : 10
# xyz : 11
# xyz : 12
# xyz : 13
# xyz : 14
# xyz : 15
# xyz : 16
# burst in s mon : 2
# awid in s mon : d76c , awaddr : 25bc0f00
# INIDE_SLAVE_MON_CTR=79
# arid in s mon : 9050
#                  805wlast : 1
# AFFTER W CHANNEL
# WID: 23008 , AWID : 23008
# req kind : READ
# m mon rid : a894
# req wid : 0 , bid:0
# m mon ar id : 235a
# UVM_INFO ../env/axi_sb.sv(96) @ 805: uvm_test_top.env_h.sb_h [after event in sb] aaaa
# UVM_INFO ../env/axi_sb.sv(94) @ 805: uvm_test_top.env_h.sb_h [before event in sb] aaaa
# match arid : 0 , rid : 0
# UVM_INFO ../env/s_agent/axi_s_drv.sv(31) @ 805: uvm_test_top.env_h.s_uvc_h.s_agent_h[0].s_drv_h [ID MATCH] aaaaa
# s seqs arid : 52439
# INIDE_SLAVE_SEQ_CTR=11
# match arid : ccd7 , rid : ccd7
# UVM_INFO ../env/s_agent/axi_s_drv.sv(31) @ 805: uvm_test_top.env_h.s_uvc_h.s_agent_h[0].s_drv_h [ID MATCH] aaaaa
# rd data in s drv: a11555f6 , len : 15 , last:0 , valid : 1
# INIDE_SLAVE_MON_CTR=80
# arid in s mon : 59726
# burst in s mon : 2
# awid in s mon : 3005 , awaddr : 9ecf7400
#                  815wlast : 0
# WID: 23008 , AWID : 23008
# m mon ar id : e94e
# m mon rid : ccd7
# rd data in s drv: 9bd541f3 , len : 15 , last:0 , valid : 1
# burst in s mon : 2
# awid in s mon : 77ec , awaddr : dbb76210
# INIDE_SLAVE_MON_CTR=81
# arid in s mon : 3496
#                  825wlast : 0
# WID: 23008 , AWID : 23008
# m mon rid : ccd7
# m mon ar id : da8
# UVM_INFO ../env/m_agent/axi_base_m_seqs.sv(26) @ 825: uvm_test_top.env_h.m_uvc_h.m_agent_h[0].m_seqr_h@@vseqs_h.m_wseqs_h [IN V SEQS] Got B-channel response from driver
# rd data in s drv: eb2a1de0 , len : 15 , last:0 , valid : 1
# INIDE_SLAVE_MON_CTR=82
# arid in s mon : 23075
# burst in s mon : 2
# awid in s mon : 9a08 , awaddr : fe8e1480
#                  835wlast : 0
# WID: 23008 , AWID : 23008
# m mon ar id : 5a23
# m mon rid : ccd7
# rd data in s drv: b51a296e , len : 15 , last:0 , valid : 1
# abc : 1
# ref model mem : 80134880
# abc : 2
# ref model mem : 80134888
# abc : 3
# ref model mem : 80134896
# abc : 4
# ref model mem : 80134904
# xyz : 1
# xyz : 2
# xyz : 3
# xyz : 4
# burst in s mon : 2
# awid in s mon : 4b22 , awaddr : 58cdae50
# INIDE_SLAVE_MON_CTR=83
# arid in s mon : 53893
#                  845wlast : 1
# AFFTER W CHANNEL
# WID: 32031 , AWID : 32031
# m mon rid : ccd7
# req wid : 0 , bid:0
# m mon ar id : d285
# match arid : 0 , rid : 0
# UVM_INFO ../env/s_agent/axi_s_drv.sv(31) @ 845: uvm_test_top.env_h.s_uvc_h.s_agent_h[0].s_drv_h [ID MATCH] aaaaa
# s seqs arid : 4905
# INIDE_SLAVE_SEQ_CTR=12
# match arid : 1329 , rid : 1329
# UVM_INFO ../env/s_agent/axi_s_drv.sv(31) @ 845: uvm_test_top.env_h.s_uvc_h.s_agent_h[0].s_drv_h [ID MATCH] aaaaa
# rd data in s drv: c66c2a34 , len : 15 , last:0 , valid : 1
# INIDE_SLAVE_MON_CTR=84
# arid in s mon : 57238
# burst in s mon : 2
# awid in s mon : 778b , awaddr : 5a47040
#                  855wlast : 0
# WID: 32031 , AWID : 32031
# m mon ar id : df96
# m mon rid : ccd7
# rd data in s drv: e841aa26 , len : 15 , last:0 , valid : 1
# burst in s mon : 2
# awid in s mon : 4b82 , awaddr : c416ada0
# INIDE_SLAVE_MON_CTR=85
# arid in s mon : 61303
#                  865wlast : 0
# WID: 32031 , AWID : 32031
# m mon rid : ccd7
# m mon ar id : ef77
# UVM_INFO ../env/m_agent/axi_base_m_seqs.sv(26) @ 865: uvm_test_top.env_h.m_uvc_h.m_agent_h[0].m_seqr_h@@vseqs_h.m_wseqs_h [IN V SEQS] Got B-channel response from driver
# rd data in s drv: d7106a56 , len : 15 , last:0 , valid : 1
# INIDE_SLAVE_MON_CTR=86
# arid in s mon : 23900
# burst in s mon : 2
# awid in s mon : dd3b , awaddr : b3b9920
#                  875wlast : 0
# WID: 32031 , AWID : 32031
# m mon ar id : 5d5c
# m mon rid : ccd7
# rd data in s drv: c56e0789 , len : 15 , last:0 , valid : 1
# burst in s mon : 2
# awid in s mon : 3a8a , awaddr : e655a560
# INIDE_SLAVE_MON_CTR=87
# arid in s mon : 61299
#                  885wlast : 0
# WID: 32031 , AWID : 32031
# m mon rid : ccd7
# m mon ar id : ef73
# rd data in s drv: 8e335b94 , len : 15 , last:0 , valid : 1
# INIDE_SLAVE_MON_CTR=88
# arid in s mon : 13152
# burst in s mon : 2
# awid in s mon : a371 , awaddr : 8bd58400
#                  895wlast : 0
# WID: 32031 , AWID : 32031
# m mon ar id : 3360
# m mon rid : ccd7
# rd data in s drv: 5e074ac , len : 15 , last:0 , valid : 1
# burst in s mon : 2
# awid in s mon : b271 , awaddr : b7b92760
# INIDE_SLAVE_MON_CTR=89
# arid in s mon : 60289
#                  905wlast : 0
# WID: 32031 , AWID : 32031
# m mon rid : ccd7
# m mon ar id : eb81
# rd data in s drv: eecc4b62 , len : 15 , last:0 , valid : 1
# INIDE_SLAVE_MON_CTR=90
# arid in s mon : 46097
# burst in s mon : 2
# awid in s mon : 75fe , awaddr : 16768ee0
#                  915wlast : 0
# WID: 32031 , AWID : 32031
# m mon ar id : b411
# m mon rid : ccd7
# rd data in s drv: 6f4f0a0d , len : 15 , last:0 , valid : 1
# abc : 1
# ref model mem : 2701051584
# abc : 2
# ref model mem : 2701051592
# abc : 3
# ref model mem : 2701051600
# abc : 4
# ref model mem : 2701051608
# abc : 5
# ref model mem : 2701051616
# abc : 6
# ref model mem : 2701051624
# abc : 7
# ref model mem : 2701051632
# abc : 8
# ref model mem : 2701051640
# xyz : 1
# xyz : 2
# xyz : 3
# xyz : 4
# xyz : 5
# xyz : 6
# xyz : 7
# xyz : 8
# burst in s mon : 2
# awid in s mon : 891 , awaddr : af774aa0
# INIDE_SLAVE_MON_CTR=91
# arid in s mon : 13132
#                  925wlast : 1
# AFFTER W CHANNEL
# WID: 12673 , AWID : 12673
# m mon rid : ccd7
# req wid : 0 , bid:0
# m mon ar id : 334c
# match arid : 0 , rid : 0
# UVM_INFO ../env/s_agent/axi_s_drv.sv(31) @ 925: uvm_test_top.env_h.s_uvc_h.s_agent_h[0].s_drv_h [ID MATCH] aaaaa
# s seqs arid : 35577
# INIDE_SLAVE_SEQ_CTR=13
# match arid : 8af9 , rid : 8af9
# UVM_INFO ../env/s_agent/axi_s_drv.sv(31) @ 925: uvm_test_top.env_h.s_uvc_h.s_agent_h[0].s_drv_h [ID MATCH] aaaaa
# rd data in s drv: 53a68039 , len : 15 , last:0 , valid : 1
# INIDE_SLAVE_MON_CTR=92
# arid in s mon : 26239
# burst in s mon : 2
# awid in s mon : 9526 , awaddr : 5f667ca0
#                  935wlast : 0
# WID: 12673 , AWID : 12673
# m mon ar id : 667f
# m mon rid : ccd7
# rd data in s drv: a98132b0 , len : 15 , last:0 , valid : 1
# burst in s mon : 2
# awid in s mon : 7593 , awaddr : 7d77e200
# INIDE_SLAVE_MON_CTR=93
# arid in s mon : 50062
#                  945wlast : 0
# WID: 12673 , AWID : 12673
# m mon rid : ccd7
# m mon ar id : c38e
# UVM_INFO ../env/m_agent/axi_base_m_seqs.sv(26) @ 945: uvm_test_top.env_h.m_uvc_h.m_agent_h[0].m_seqr_h@@vseqs_h.m_wseqs_h [IN V SEQS] Got B-channel response from driver
# rd data in s drv: 24fa7de1 , len : 15 , last:0 , valid : 1
# INIDE_SLAVE_MON_CTR=94
# arid in s mon : 57647
# burst in s mon : 2
# awid in s mon : 8fb3 , awaddr : 52d58d0
#                  955wlast : 0
# WID: 12673 , AWID : 12673
# m mon ar id : e12f
# m mon rid : ccd7
# rd data in s drv: fb4098d0 , len : 15 , last:1 , valid : 1
# burst in s mon : 2
# awid in s mon : 18fa , awaddr : 7f116c00
# INIDE_SLAVE_MON_CTR=95
# arid in s mon : 23728
#                  965wlast : 0
# WID: 12673 , AWID : 12673
# req kind : READ
# m mon rid : ccd7
# m mon ar id : 5cb0
# UVM_INFO ../env/axi_sb.sv(96) @ 965: uvm_test_top.env_h.sb_h [after event in sb] aaaa
# UVM_INFO ../env/axi_sb.sv(94) @ 965: uvm_test_top.env_h.sb_h [before event in sb] aaaa
# rd data in s drv: a93a1366 , len : 3 , last:0 , valid : 1
# INIDE_SLAVE_MON_CTR=96
# arid in s mon : 33600
# burst in s mon : 2
# awid in s mon : 50ca , awaddr : 64b99080
#                  975wlast : 0
# WID: 12673 , AWID : 12673
# m mon ar id : 8340
# m mon rid : 1329
# rd data in s drv: f1c9ee1 , len : 3 , last:0 , valid : 1
# burst in s mon : 2
# awid in s mon : 7d41 , awaddr : 8bdbb4c0
# INIDE_SLAVE_MON_CTR=97
# arid in s mon : 59131
#                  985wlast : 0
# WID: 12673 , AWID : 12673
# m mon rid : 1329
# m mon ar id : e6fb
# rd data in s drv: b95e5aa2 , len : 3 , last:0 , valid : 1
# INIDE_SLAVE_MON_CTR=98
# arid in s mon : 11031
# burst in s mon : 2
# awid in s mon : 57bf , awaddr : b5b591a0
#                  995wlast : 0
# WID: 12673 , AWID : 12673
# m mon ar id : 2b17
# m mon rid : 1329
# rd data in s drv: 27a31541 , len : 3 , last:1 , valid : 1
# burst in s mon : 2
# awid in s mon : 1ca , awaddr : a27b4bc0
# INIDE_SLAVE_MON_CTR=99
# arid in s mon : 46713
#                 1005wlast : 0
# WID: 12673 , AWID : 12673
# req kind : READ
# m mon rid : 1329
# m mon ar id : b679
# UVM_INFO ../env/axi_sb.sv(96) @ 1005: uvm_test_top.env_h.sb_h [after event in sb] aaaa
# UVM_INFO ../env/axi_sb.sv(94) @ 1005: uvm_test_top.env_h.sb_h [before event in sb] aaaa
# rd data in s drv: 67135dfc , len : 7 , last:0 , valid : 1
# INIDE_SLAVE_MON_CTR=100
# arid in s mon : 44059
#                 1015wlast : 0
# WID: 12673 , AWID : 12673
# m mon ar id : ac1b
# m mon rid : 8af9
# rd data in s drv: 63ae97a9 , len : 7 , last:0 , valid : 1
#                 1025wlast : 0
# WID: 12673 , AWID : 12673
# m mon rid : 8af9
# rd data in s drv: 1bda4650 , len : 7 , last:0 , valid : 1
#                 1035wlast : 0
# WID: 12673 , AWID : 12673
# m mon rid : 8af9
# rd data in s drv: 22dc21c3 , len : 7 , last:0 , valid : 1
#                 1045wlast : 0
# WID: 12673 , AWID : 12673
# m mon rid : 8af9
# rd data in s drv: 18ce46de , len : 7 , last:0 , valid : 1
#                 1055wlast : 0
# WID: 12673 , AWID : 12673
# m mon rid : 8af9
# rd data in s drv: 5ec3e2c1 , len : 7 , last:0 , valid : 1
#                 1065wlast : 0
# WID: 12673 , AWID : 12673
# m mon rid : 8af9
# rd data in s drv: 2ccf0dde , len : 7 , last:0 , valid : 1
#                 1075wlast : 0
# WID: 12673 , AWID : 12673
# m mon rid : 8af9
# rd data in s drv: e372bf2 , len : 7 , last:1 , valid : 1
# abc : 1
# ref model mem : 3422561792
# abc : 2
# ref model mem : 3422561800
# abc : 3
# ref model mem : 3422561808
# abc : 4
# ref model mem : 3422561816
# abc : 5
# ref model mem : 3422561824
# abc : 6
# ref model mem : 3422561832
# abc : 7
# ref model mem : 3422561840
# abc : 8
# ref model mem : 3422561848
# abc : 9
# ref model mem : 3422561856
# abc : 10
# ref model mem : 3422561864
# abc : 11
# ref model mem : 3422561872
# abc : 12
# ref model mem : 3422561880
# abc : 13
# ref model mem : 3422561888
# abc : 14
# ref model mem : 3422561896
# abc : 15
# ref model mem : 3422561904
# abc : 16
# ref model mem : 3422561912
# xyz : 1
# xyz : 2
# xyz : 3
# xyz : 4
# xyz : 5
# xyz : 6
# xyz : 7
# xyz : 8
# xyz : 9
# xyz : 10
# xyz : 11
# xyz : 12
# xyz : 13
# xyz : 14
# xyz : 15
# xyz : 16
#                 1085wlast : 1
# AFFTER W CHANNEL
# WID: 40425 , AWID : 40425
# req kind : READ
# m mon rid : 8af9
# req wid : 0 , bid:0
# UVM_INFO ../env/axi_sb.sv(96) @ 1085: uvm_test_top.env_h.sb_h [after event in sb] aaaa
# UVM_INFO ../env/axi_sb.sv(94) @ 1085: uvm_test_top.env_h.sb_h [before event in sb] aaaa
# match arid : 0 , rid : 0
# UVM_INFO ../env/s_agent/axi_s_drv.sv(31) @ 1085: uvm_test_top.env_h.s_uvc_h.s_agent_h[0].s_drv_h [ID MATCH] aaaaa
# s seqs arid : 25219
# INIDE_SLAVE_SEQ_CTR=14
# match arid : 6283 , rid : 6283
# UVM_INFO ../env/s_agent/axi_s_drv.sv(31) @ 1085: uvm_test_top.env_h.s_uvc_h.s_agent_h[0].s_drv_h [ID MATCH] aaaaa
# rd data in s drv: 1caf32cc , len : 15 , last:0 , valid : 1
#                 1095wlast : 0
# WID: 40425 , AWID : 40425
# m mon rid : 6283
# rd data in s drv: 62b68558 , len : 15 , last:0 , valid : 1
# abc : 1
# ref model mem : 2142700016
# abc : 2
# ref model mem : 2142700024
# xyz : 1
# xyz : 2
#                 1105wlast : 1
# AFFTER W CHANNEL
# WID: 34571 , AWID : 34571
# m mon rid : 6283
# req wid : 0 , bid:0
# UVM_INFO ../env/m_agent/axi_base_m_seqs.sv(26) @ 1105: uvm_test_top.env_h.m_uvc_h.m_agent_h[0].m_seqr_h@@vseqs_h.m_wseqs_h [IN V SEQS] Got B-channel response from driver
# match arid : 0 , rid : 0
# UVM_INFO ../env/s_agent/axi_s_drv.sv(31) @ 1105: uvm_test_top.env_h.s_uvc_h.s_agent_h[0].s_drv_h [ID MATCH] aaaaa
# s seqs arid : 47995
# INIDE_SLAVE_SEQ_CTR=15
# match arid : bb7b , rid : bb7b
# UVM_INFO ../env/s_agent/axi_s_drv.sv(31) @ 1105: uvm_test_top.env_h.s_uvc_h.s_agent_h[0].s_drv_h [ID MATCH] aaaaa
# rd data in s drv: 346f872e , len : 15 , last:0 , valid : 1
#                 1115wlast : 0
# WID: 34571 , AWID : 34571
# m mon rid : 6283
# rd data in s drv: 5172b9cc , len : 15 , last:0 , valid : 1
#                 1125wlast : 0
# WID: 34571 , AWID : 34571
# m mon rid : 6283
# UVM_INFO ../env/m_agent/axi_base_m_seqs.sv(26) @ 1125: uvm_test_top.env_h.m_uvc_h.m_agent_h[0].m_seqr_h@@vseqs_h.m_wseqs_h [IN V SEQS] Got B-channel response from driver
# rd data in s drv: 47d2fabd , len : 15 , last:0 , valid : 1
#                 1135wlast : 0
# WID: 34571 , AWID : 34571
# m mon rid : 6283
# rd data in s drv: a99a92f0 , len : 15 , last:0 , valid : 1
#                 1145wlast : 0
# WID: 34571 , AWID : 34571
# m mon rid : 6283
# rd data in s drv: 50870e , len : 15 , last:0 , valid : 1
#                 1155wlast : 0
# WID: 34571 , AWID : 34571
# m mon rid : 6283
# rd data in s drv: 6d7eedea , len : 15 , last:0 , valid : 1
#                 1165wlast : 0
# WID: 34571 , AWID : 34571
# m mon rid : 6283
# rd data in s drv: 69f09a55 , len : 15 , last:0 , valid : 1
#                 1175wlast : 0
# WID: 34571 , AWID : 34571
# m mon rid : 6283
# rd data in s drv: ce6bcea , len : 15 , last:0 , valid : 1
#                 1185wlast : 0
# WID: 34571 , AWID : 34571
# m mon rid : 6283
# rd data in s drv: 5a92f85 , len : 15 , last:0 , valid : 1
#                 1195wlast : 0
# WID: 34571 , AWID : 34571
# m mon rid : 6283
# rd data in s drv: 54740593 , len : 15 , last:0 , valid : 1
#                 1205wlast : 0
# WID: 34571 , AWID : 34571
# m mon rid : 6283
# rd data in s drv: 9c38c23d , len : 15 , last:0 , valid : 1
#                 1215wlast : 0
# WID: 34571 , AWID : 34571
# m mon rid : 6283
# rd data in s drv: ed48c52e , len : 15 , last:0 , valid : 1
#                 1225wlast : 0
# WID: 34571 , AWID : 34571
# m mon rid : 6283
# rd data in s drv: e6784156 , len : 15 , last:0 , valid : 1
#                 1235wlast : 0
# WID: 34571 , AWID : 34571
# m mon rid : 6283
# rd data in s drv: 85a4e53f , len : 15 , last:1 , valid : 1
#                 1245wlast : 0
# WID: 34571 , AWID : 34571
# req kind : READ
# m mon rid : 6283
# UVM_INFO ../env/axi_sb.sv(96) @ 1245: uvm_test_top.env_h.sb_h [after event in sb] aaaa
# UVM_INFO ../env/axi_sb.sv(94) @ 1245: uvm_test_top.env_h.sb_h [before event in sb] aaaa
# rd data in s drv: 9e0e4e42 , len : 1 , last:0 , valid : 1
#                 1255wlast : 0
# WID: 34571 , AWID : 34571
# m mon rid : bb7b
# rd data in s drv: 29347435 , len : 1 , last:1 , valid : 1
# abc : 1
# ref model mem : 171173120
# abc : 2
# ref model mem : 171173128
# abc : 3
# ref model mem : 171173136
# abc : 4
# ref model mem : 171173144
# abc : 5
# ref model mem : 171173152
# abc : 6
# ref model mem : 171173160
# abc : 7
# ref model mem : 171173168
# abc : 8
# ref model mem : 171173176
# abc : 9
# ref model mem : 171173184
# abc : 10
# ref model mem : 171173192
# abc : 11
# ref model mem : 171173200
# abc : 12
# ref model mem : 171173208
# abc : 13
# ref model mem : 171173216
# abc : 14
# ref model mem : 171173224
# abc : 15
# ref model mem : 171173232
# abc : 16
# ref model mem : 171173240
# xyz : 1
# xyz : 2
# xyz : 3
# xyz : 4
# xyz : 5
# xyz : 6
# xyz : 7
# xyz : 8
# xyz : 9
# xyz : 10
# xyz : 11
# xyz : 12
# xyz : 13
# xyz : 14
# xyz : 15
# xyz : 16
#                 1265wlast : 1
# AFFTER W CHANNEL
# WID: 3557 , AWID : 3557
# req kind : READ
# m mon rid : bb7b
# req wid : 0 , bid:0
# UVM_INFO ../env/axi_sb.sv(96) @ 1265: uvm_test_top.env_h.sb_h [after event in sb] aaaa
# UVM_INFO ../env/axi_sb.sv(94) @ 1265: uvm_test_top.env_h.sb_h [before event in sb] aaaa
# match arid : 0 , rid : 0
# UVM_INFO ../env/s_agent/axi_s_drv.sv(31) @ 1265: uvm_test_top.env_h.s_uvc_h.s_agent_h[0].s_drv_h [ID MATCH] aaaaa
# s seqs arid : 51276
# INIDE_SLAVE_SEQ_CTR=16
# match arid : c84c , rid : c84c
# UVM_INFO ../env/s_agent/axi_s_drv.sv(31) @ 1265: uvm_test_top.env_h.s_uvc_h.s_agent_h[0].s_drv_h [ID MATCH] aaaaa
# rd data in s drv: 8fa30135 , len : 15 , last:0 , valid : 1
#                 1275wlast : 0
# WID: 3557 , AWID : 3557
# m mon rid : c84c
# rd data in s drv: 167e33ce , len : 15 , last:0 , valid : 1
# abc : 1
# ref model mem : 3370897808
# abc : 2
# ref model mem : 3370897816
# xyz : 1
# xyz : 2
#                 1285wlast : 1
# AFFTER W CHANNEL
# WID: 13717 , AWID : 13717
# m mon rid : c84c
# req wid : 0 , bid:0
# UVM_INFO ../env/m_agent/axi_base_m_seqs.sv(26) @ 1285: uvm_test_top.env_h.m_uvc_h.m_agent_h[0].m_seqr_h@@vseqs_h.m_wseqs_h [IN V SEQS] Got B-channel response from driver
# match arid : 0 , rid : 0
# UVM_INFO ../env/s_agent/axi_s_drv.sv(31) @ 1285: uvm_test_top.env_h.s_uvc_h.s_agent_h[0].s_drv_h [ID MATCH] aaaaa
# s seqs arid : 44353
# INIDE_SLAVE_SEQ_CTR=17
# match arid : ad41 , rid : ad41
# UVM_INFO ../env/s_agent/axi_s_drv.sv(31) @ 1285: uvm_test_top.env_h.s_uvc_h.s_agent_h[0].s_drv_h [ID MATCH] aaaaa
# rd data in s drv: c98d86f4 , len : 15 , last:0 , valid : 1
#                 1295wlast : 0
# WID: 13717 , AWID : 13717
# m mon rid : c84c
# rd data in s drv: 2e2e080d , len : 15 , last:0 , valid : 1
#                 1305wlast : 0
# WID: 13717 , AWID : 13717
# m mon rid : c84c
# UVM_INFO ../env/m_agent/axi_base_m_seqs.sv(26) @ 1305: uvm_test_top.env_h.m_uvc_h.m_agent_h[0].m_seqr_h@@vseqs_h.m_wseqs_h [IN V SEQS] Got B-channel response from driver
# rd data in s drv: 80b624f6 , len : 15 , last:0 , valid : 1
#                 1315wlast : 0
# WID: 13717 , AWID : 13717
# m mon rid : c84c
# rd data in s drv: 7fa83d3d , len : 15 , last:0 , valid : 1
# abc : 1
# ref model mem : 3105431968
# abc : 2
# ref model mem : 3105431976
# abc : 3
# ref model mem : 3105431984
# abc : 4
# ref model mem : 3105431992
# xyz : 1
# xyz : 2
# xyz : 3
# xyz : 4
#                 1325wlast : 1
# AFFTER W CHANNEL
# WID: 8568 , AWID : 8568
# m mon rid : c84c
# req wid : 0 , bid:0
# match arid : 0 , rid : 0
# UVM_INFO ../env/s_agent/axi_s_drv.sv(31) @ 1325: uvm_test_top.env_h.s_uvc_h.s_agent_h[0].s_drv_h [ID MATCH] aaaaa
# s seqs arid : 34273
# INIDE_SLAVE_SEQ_CTR=18
# match arid : 85e1 , rid : 85e1
# UVM_INFO ../env/s_agent/axi_s_drv.sv(31) @ 1325: uvm_test_top.env_h.s_uvc_h.s_agent_h[0].s_drv_h [ID MATCH] aaaaa
# rd data in s drv: 1f3e4169 , len : 15 , last:0 , valid : 1
#                 1335wlast : 0
# WID: 8568 , AWID : 8568
# m mon rid : c84c
# rd data in s drv: dae8738e , len : 15 , last:0 , valid : 1
#                 1345wlast : 0
# WID: 8568 , AWID : 8568
# m mon rid : c84c
# UVM_INFO ../env/m_agent/axi_base_m_seqs.sv(26) @ 1345: uvm_test_top.env_h.m_uvc_h.m_agent_h[0].m_seqr_h@@vseqs_h.m_wseqs_h [IN V SEQS] Got B-channel response from driver
# rd data in s drv: ff263618 , len : 15 , last:0 , valid : 1
#                 1355wlast : 0
# WID: 8568 , AWID : 8568
# m mon rid : c84c
# rd data in s drv: fae3668 , len : 15 , last:0 , valid : 1
# abc : 1
# ref model mem : 2655890880
# abc : 2
# ref model mem : 2655890888
# abc : 3
# ref model mem : 2655890896
# abc : 4
# ref model mem : 2655890904
# xyz : 1
# xyz : 2
# xyz : 3
# xyz : 4
#                 1365wlast : 1
# AFFTER W CHANNEL
# WID: 44422 , AWID : 44422
# m mon rid : c84c
# req wid : 0 , bid:0
# match arid : 0 , rid : 0
# UVM_INFO ../env/s_agent/axi_s_drv.sv(31) @ 1365: uvm_test_top.env_h.s_uvc_h.s_agent_h[0].s_drv_h [ID MATCH] aaaaa
# s seqs arid : 40878
# INIDE_SLAVE_SEQ_CTR=19
# match arid : 9fae , rid : 9fae
# UVM_INFO ../env/s_agent/axi_s_drv.sv(31) @ 1365: uvm_test_top.env_h.s_uvc_h.s_agent_h[0].s_drv_h [ID MATCH] aaaaa
# rd data in s drv: 25f69d7c , len : 15 , last:0 , valid : 1
#                 1375wlast : 0
# WID: 44422 , AWID : 44422
# m mon rid : c84c
# rd data in s drv: 5788c70f , len : 15 , last:0 , valid : 1
# abc : 1
# ref model mem : 4289324848
# abc : 2
# ref model mem : 4289324856
# xyz : 1
# xyz : 2
#                 1385wlast : 1
# AFFTER W CHANNEL
# WID: 65129 , AWID : 65129
# m mon rid : c84c
# req wid : 0 , bid:0
# UVM_INFO ../env/m_agent/axi_base_m_seqs.sv(26) @ 1385: uvm_test_top.env_h.m_uvc_h.m_agent_h[0].m_seqr_h@@vseqs_h.m_wseqs_h [IN V SEQS] Got B-channel response from driver
# match arid : 0 , rid : 0
# UVM_INFO ../env/s_agent/axi_s_drv.sv(31) @ 1385: uvm_test_top.env_h.s_uvc_h.s_agent_h[0].s_drv_h [ID MATCH] aaaaa
# s seqs arid : 65033
# INIDE_SLAVE_SEQ_CTR=20
# match arid : fe09 , rid : fe09
# UVM_INFO ../env/s_agent/axi_s_drv.sv(31) @ 1385: uvm_test_top.env_h.s_uvc_h.s_agent_h[0].s_drv_h [ID MATCH] aaaaa
# rd data in s drv: a5242300 , len : 15 , last:0 , valid : 1
#                 1395wlast : 0
# WID: 65129 , AWID : 65129
# m mon rid : c84c
# rd data in s drv: 6d889e73 , len : 15 , last:0 , valid : 1
# abc : 1
# ref model mem : 2382766368
# abc : 2
# ref model mem : 2382766376
# xyz : 1
# xyz : 2
#                 1405wlast : 1
# AFFTER W CHANNEL
# WID: 6012 , AWID : 6012
# m mon rid : c84c
# req wid : 0 , bid:0
# UVM_INFO ../env/m_agent/axi_base_m_seqs.sv(26) @ 1405: uvm_test_top.env_h.m_uvc_h.m_agent_h[0].m_seqr_h@@vseqs_h.m_wseqs_h [IN V SEQS] Got B-channel response from driver
# match arid : 0 , rid : 0
# UVM_INFO ../env/s_agent/axi_s_drv.sv(31) @ 1405: uvm_test_top.env_h.s_uvc_h.s_agent_h[0].s_drv_h [ID MATCH] aaaaa
# s seqs arid : 39064
# INIDE_SLAVE_SEQ_CTR=21
# match arid : 9898 , rid : 9898
# UVM_INFO ../env/s_agent/axi_s_drv.sv(31) @ 1405: uvm_test_top.env_h.s_uvc_h.s_agent_h[0].s_drv_h [ID MATCH] aaaaa
# rd data in s drv: 3fe5f47e , len : 15 , last:0 , valid : 1
#                 1415wlast : 0
# WID: 6012 , AWID : 6012
# m mon rid : c84c
# rd data in s drv: b65a1070 , len : 15 , last:1 , valid : 1
# abc : 1
# ref model mem : 730965376
# abc : 2
# ref model mem : 730965384
# xyz : 1
# xyz : 2
#                 1425wlast : 1
# AFFTER W CHANNEL
# WID: 26141 , AWID : 26141
# req kind : READ
# m mon rid : c84c
# req wid : 0 , bid:0
# UVM_INFO ../env/m_agent/axi_base_m_seqs.sv(26) @ 1425: uvm_test_top.env_h.m_uvc_h.m_agent_h[0].m_seqr_h@@vseqs_h.m_wseqs_h [IN V SEQS] Got B-channel response from driver
# UVM_INFO ../env/axi_sb.sv(96) @ 1425: uvm_test_top.env_h.sb_h [after event in sb] aaaa
# UVM_INFO ../env/axi_sb.sv(94) @ 1425: uvm_test_top.env_h.sb_h [before event in sb] aaaa
# match arid : 0 , rid : 0
# UVM_INFO ../env/s_agent/axi_s_drv.sv(31) @ 1425: uvm_test_top.env_h.s_uvc_h.s_agent_h[0].s_drv_h [ID MATCH] aaaaa
# s seqs arid : 62773
# INIDE_SLAVE_SEQ_CTR=22
# match arid : f535 , rid : f535
# UVM_INFO ../env/s_agent/axi_s_drv.sv(31) @ 1425: uvm_test_top.env_h.s_uvc_h.s_agent_h[0].s_drv_h [ID MATCH] aaaaa
# rd data in s drv: f8b4f7dc , len : 1 , last:0 , valid : 1
#                 1435wlast : 0
# WID: 26141 , AWID : 26141
# m mon rid : ad41
# rd data in s drv: c2374bc8 , len : 1 , last:1 , valid : 1
# abc : 1
# ref model mem : 3884647376
# abc : 2
# ref model mem : 3884647384
# xyz : 1
# xyz : 2
#                 1445wlast : 1
# AFFTER W CHANNEL
# WID: 59295 , AWID : 59295
# req kind : READ
# m mon rid : ad41
# req wid : 0 , bid:0
# UVM_INFO ../env/m_agent/axi_base_m_seqs.sv(26) @ 1445: uvm_test_top.env_h.m_uvc_h.m_agent_h[0].m_seqr_h@@vseqs_h.m_wseqs_h [IN V SEQS] Got B-channel response from driver
# UVM_INFO ../env/axi_sb.sv(96) @ 1445: uvm_test_top.env_h.sb_h [after event in sb] aaaa
# UVM_INFO ../env/axi_sb.sv(94) @ 1445: uvm_test_top.env_h.sb_h [before event in sb] aaaa
# match arid : 0 , rid : 0
# UVM_INFO ../env/s_agent/axi_s_drv.sv(31) @ 1445: uvm_test_top.env_h.s_uvc_h.s_agent_h[0].s_drv_h [ID MATCH] aaaaa
# s seqs arid : 60350
# INIDE_SLAVE_SEQ_CTR=23
# match arid : ebbe , rid : ebbe
# UVM_INFO ../env/s_agent/axi_s_drv.sv(31) @ 1445: uvm_test_top.env_h.s_uvc_h.s_agent_h[0].s_drv_h [ID MATCH] aaaaa
# rd data in s drv: 194e5f17 , len : 3 , last:0 , valid : 1
#                 1455wlast : 0
# WID: 59295 , AWID : 59295
# m mon rid : 85e1
# rd data in s drv: 55ae3a3a , len : 3 , last:0 , valid : 1
#                 1465wlast : 0
# WID: 59295 , AWID : 59295
# m mon rid : 85e1
# UVM_INFO ../env/m_agent/axi_base_m_seqs.sv(26) @ 1465: uvm_test_top.env_h.m_uvc_h.m_agent_h[0].m_seqr_h@@vseqs_h.m_wseqs_h [IN V SEQS] Got B-channel response from driver
# rd data in s drv: 98339ceb , len : 3 , last:0 , valid : 1
#                 1475wlast : 0
# WID: 59295 , AWID : 59295
# m mon rid : 85e1
# rd data in s drv: 2bbfbc60 , len : 3 , last:1 , valid : 1
# abc : 1
# ref model mem : 279374496
# abc : 2
# ref model mem : 279374504
# abc : 3
# ref model mem : 279374512
# abc : 4
# ref model mem : 279374520
# xyz : 1
# xyz : 2
# xyz : 3
# xyz : 4
#                 1485wlast : 1
# AFFTER W CHANNEL
# WID: 23954 , AWID : 23954
# req kind : READ
# m mon rid : 85e1
# req wid : 0 , bid:0
# UVM_INFO ../env/axi_sb.sv(96) @ 1485: uvm_test_top.env_h.sb_h [after event in sb] aaaa
# UVM_INFO ../env/axi_sb.sv(94) @ 1485: uvm_test_top.env_h.sb_h [before event in sb] aaaa
# match arid : 0 , rid : 0
# UVM_INFO ../env/s_agent/axi_s_drv.sv(31) @ 1485: uvm_test_top.env_h.s_uvc_h.s_agent_h[0].s_drv_h [ID MATCH] aaaaa
# s seqs arid : 45043
# INIDE_SLAVE_SEQ_CTR=24
# match arid : aff3 , rid : aff3
# UVM_INFO ../env/s_agent/axi_s_drv.sv(31) @ 1485: uvm_test_top.env_h.s_uvc_h.s_agent_h[0].s_drv_h [ID MATCH] aaaaa
# rd data in s drv: efe6ee6e , len : 3 , last:0 , valid : 1
#                 1495wlast : 0
# WID: 23954 , AWID : 23954
# m mon rid : 9fae
# rd data in s drv: 83d11aa2 , len : 3 , last:0 , valid : 1
# abc : 1
# ref model mem : 91073168
# abc : 2
# ref model mem : 91073176
# xyz : 1
# xyz : 2
#                 1505wlast : 1
# AFFTER W CHANNEL
# WID: 29878 , AWID : 29878
# m mon rid : 9fae
# req wid : 0 , bid:0
# UVM_INFO ../env/m_agent/axi_base_m_seqs.sv(26) @ 1505: uvm_test_top.env_h.m_uvc_h.m_agent_h[0].m_seqr_h@@vseqs_h.m_wseqs_h [IN V SEQS] Got B-channel response from driver
# match arid : 0 , rid : 0
# UVM_INFO ../env/s_agent/axi_s_drv.sv(31) @ 1505: uvm_test_top.env_h.s_uvc_h.s_agent_h[0].s_drv_h [ID MATCH] aaaaa
# s seqs arid : 15796
# INIDE_SLAVE_SEQ_CTR=25
# match arid : 3db4 , rid : 3db4
# UVM_INFO ../env/s_agent/axi_s_drv.sv(31) @ 1505: uvm_test_top.env_h.s_uvc_h.s_agent_h[0].s_drv_h [ID MATCH] aaaaa
# rd data in s drv: 489eab56 , len : 3 , last:0 , valid : 1
#                 1515wlast : 0
# WID: 29878 , AWID : 29878
# m mon rid : 9fae
# rd data in s drv: e3dafdae , len : 3 , last:1 , valid : 1
# abc : 1
# ref model mem : 482259376
# abc : 2
# ref model mem : 482259384
# xyz : 1
# xyz : 2
#                 1525wlast : 1
# AFFTER W CHANNEL
# WID: 10880 , AWID : 10880
# req kind : READ
# m mon rid : 9fae
# req wid : 0 , bid:0
# UVM_INFO ../env/m_agent/axi_base_m_seqs.sv(26) @ 1525: uvm_test_top.env_h.m_uvc_h.m_agent_h[0].m_seqr_h@@vseqs_h.m_wseqs_h [IN V SEQS] Got B-channel response from driver
# UVM_INFO ../env/axi_sb.sv(96) @ 1525: uvm_test_top.env_h.sb_h [after event in sb] aaaa
# UVM_INFO ../env/axi_sb.sv(94) @ 1525: uvm_test_top.env_h.sb_h [before event in sb] aaaa
# match arid : 0 , rid : 0
# UVM_INFO ../env/s_agent/axi_s_drv.sv(31) @ 1525: uvm_test_top.env_h.s_uvc_h.s_agent_h[0].s_drv_h [ID MATCH] aaaaa
# s seqs arid : 64427
# INIDE_SLAVE_SEQ_CTR=26
# match arid : fbab , rid : fbab
# UVM_INFO ../env/s_agent/axi_s_drv.sv(31) @ 1525: uvm_test_top.env_h.s_uvc_h.s_agent_h[0].s_drv_h [ID MATCH] aaaaa
# rd data in s drv: e3e41523 , len : 1 , last:0 , valid : 1
#                 1535wlast : 0
# WID: 10880 , AWID : 10880
# m mon rid : fe09
# rd data in s drv: ab5c0d76 , len : 1 , last:1 , valid : 1
#                 1545wlast : 0
# WID: 10880 , AWID : 10880
# req kind : READ
# m mon rid : fe09
# UVM_INFO ../env/m_agent/axi_base_m_seqs.sv(26) @ 1545: uvm_test_top.env_h.m_uvc_h.m_agent_h[0].m_seqr_h@@vseqs_h.m_wseqs_h [IN V SEQS] Got B-channel response from driver
# UVM_INFO ../env/axi_sb.sv(96) @ 1545: uvm_test_top.env_h.sb_h [after event in sb] aaaa
# UVM_INFO ../env/axi_sb.sv(94) @ 1545: uvm_test_top.env_h.sb_h [before event in sb] aaaa
# rd data in s drv: d48e26a7 , len : 1 , last:0 , valid : 1
#                 1555wlast : 0
# WID: 10880 , AWID : 10880
# m mon rid : 9898
# rd data in s drv: 8fdf6496 , len : 1 , last:1 , valid : 1
# abc : 1
# ref model mem : 3706343136
# abc : 2
# ref model mem : 3706343144
# abc : 3
# ref model mem : 3706343152
# abc : 4
# ref model mem : 3706343160
# xyz : 1
# xyz : 2
# xyz : 3
# xyz : 4
#                 1565wlast : 1
# AFFTER W CHANNEL
# WID: 8187 , AWID : 8187
# req kind : READ
# m mon rid : 9898
# req wid : 0 , bid:0
# UVM_INFO ../env/axi_sb.sv(96) @ 1565: uvm_test_top.env_h.sb_h [after event in sb] aaaa
# UVM_INFO ../env/axi_sb.sv(94) @ 1565: uvm_test_top.env_h.sb_h [before event in sb] aaaa
# match arid : 0 , rid : 0
# UVM_INFO ../env/s_agent/axi_s_drv.sv(31) @ 1565: uvm_test_top.env_h.s_uvc_h.s_agent_h[0].s_drv_h [ID MATCH] aaaaa
# s seqs arid : 15132
# INIDE_SLAVE_SEQ_CTR=27
# match arid : 3b1c , rid : 3b1c
# UVM_INFO ../env/s_agent/axi_s_drv.sv(31) @ 1565: uvm_test_top.env_h.s_uvc_h.s_agent_h[0].s_drv_h [ID MATCH] aaaaa
# rd data in s drv: 8e2cc40 , len : 1 , last:0 , valid : 1
#                 1575wlast : 0
# WID: 8187 , AWID : 8187
# m mon rid : f535
# rd data in s drv: e2de1c47 , len : 1 , last:1 , valid : 1
#                 1585wlast : 0
# WID: 8187 , AWID : 8187
# req kind : READ
# m mon rid : f535
# UVM_INFO ../env/m_agent/axi_base_m_seqs.sv(26) @ 1585: uvm_test_top.env_h.m_uvc_h.m_agent_h[0].m_seqr_h@@vseqs_h.m_wseqs_h [IN V SEQS] Got B-channel response from driver
# UVM_INFO ../env/axi_sb.sv(96) @ 1585: uvm_test_top.env_h.sb_h [after event in sb] aaaa
# UVM_INFO ../env/axi_sb.sv(94) @ 1585: uvm_test_top.env_h.sb_h [before event in sb] aaaa
# rd data in s drv: 57e01e0e , len : 1 , last:0 , valid : 1
#                 1595wlast : 0
# WID: 8187 , AWID : 8187
# m mon rid : ebbe
# rd data in s drv: c61a22ea , len : 1 , last:1 , valid : 1
#                 1605wlast : 0
# WID: 8187 , AWID : 8187
# req kind : READ
# m mon rid : ebbe
# UVM_INFO ../env/axi_sb.sv(96) @ 1605: uvm_test_top.env_h.sb_h [after event in sb] aaaa
# UVM_INFO ../env/axi_sb.sv(94) @ 1605: uvm_test_top.env_h.sb_h [before event in sb] aaaa
# rd data in s drv: 9a338bb3 , len : 3 , last:0 , valid : 1
#                 1615wlast : 0
# WID: 8187 , AWID : 8187
# m mon rid : aff3
# rd data in s drv: 86b7504d , len : 3 , last:0 , valid : 1
#                 1625wlast : 0
# WID: 8187 , AWID : 8187
# m mon rid : aff3
# rd data in s drv: a97bcad2 , len : 3 , last:0 , valid : 1
#                 1635wlast : 0
# WID: 8187 , AWID : 8187
# m mon rid : aff3
# rd data in s drv: b365884c , len : 3 , last:1 , valid : 1
#                 1645wlast : 0
# WID: 8187 , AWID : 8187
# req kind : READ
# m mon rid : aff3
# UVM_INFO ../env/axi_sb.sv(96) @ 1645: uvm_test_top.env_h.sb_h [after event in sb] aaaa
# UVM_INFO ../env/axi_sb.sv(94) @ 1645: uvm_test_top.env_h.sb_h [before event in sb] aaaa
# rd data in s drv: db3aea11 , len : 1 , last:0 , valid : 1
#                 1655wlast : 0
# WID: 8187 , AWID : 8187
# m mon rid : 3db4
# rd data in s drv: a5565310 , len : 1 , last:1 , valid : 1
#                 1665wlast : 0
# WID: 8187 , AWID : 8187
# req kind : READ
# m mon rid : 3db4
# UVM_INFO ../env/axi_sb.sv(96) @ 1665: uvm_test_top.env_h.sb_h [after event in sb] aaaa
# UVM_INFO ../env/axi_sb.sv(94) @ 1665: uvm_test_top.env_h.sb_h [before event in sb] aaaa
# rd data in s drv: 962890ae , len : 1 , last:0 , valid : 1
#                 1675wlast : 0
# WID: 8187 , AWID : 8187
# m mon rid : fbab
# rd data in s drv: ce5fb8ab , len : 1 , last:1 , valid : 1
#                 1685wlast : 0
# WID: 8187 , AWID : 8187
# req kind : READ
# m mon rid : fbab
# UVM_INFO ../env/axi_sb.sv(96) @ 1685: uvm_test_top.env_h.sb_h [after event in sb] aaaa
# UVM_INFO ../env/axi_sb.sv(94) @ 1685: uvm_test_top.env_h.sb_h [before event in sb] aaaa
# rd data in s drv: 2c846ba , len : 3 , last:0 , valid : 1
#                 1695wlast : 0
# WID: 8187 , AWID : 8187
# m mon rid : 3b1c
# rd data in s drv: cf1f676d , len : 3 , last:0 , valid : 1
#                 1705wlast : 0
# WID: 8187 , AWID : 8187
# m mon rid : 3b1c
# rd data in s drv: 502dab8a , len : 3 , last:0 , valid : 1
#                 1715wlast : 0
# WID: 8187 , AWID : 8187
# m mon rid : 3b1c
# rd data in s drv: aee101a , len : 3 , last:1 , valid : 1
# abc : 1
# ref model mem : 2412412288
# abc : 2
# ref model mem : 2412412296
# abc : 3
# ref model mem : 2412412304
# abc : 4
# ref model mem : 2412412312
# abc : 5
# ref model mem : 2412412320
# abc : 6
# ref model mem : 2412412328
# abc : 7
# ref model mem : 2412412336
# abc : 8
# ref model mem : 2412412344
# abc : 9
# ref model mem : 2412412352
# abc : 10
# ref model mem : 2412412360
# abc : 11
# ref model mem : 2412412368
# abc : 12
# ref model mem : 2412412376
# abc : 13
# ref model mem : 2412412384
# abc : 14
# ref model mem : 2412412392
# abc : 15
# ref model mem : 2412412400
# abc : 16
# ref model mem : 2412412408
# xyz : 1
# xyz : 2
# xyz : 3
# xyz : 4
# xyz : 5
# xyz : 6
# xyz : 7
# xyz : 8
# xyz : 9
# xyz : 10
# xyz : 11
# xyz : 12
# xyz : 13
# xyz : 14
# xyz : 15
# xyz : 16
#                 1725wlast : 1
# AFFTER W CHANNEL
# WID: 17206 , AWID : 17206
# req kind : READ
# m mon rid : 3b1c
# req wid : 0 , bid:0
# UVM_INFO ../env/axi_sb.sv(96) @ 1725: uvm_test_top.env_h.sb_h [after event in sb] aaaa
# UVM_INFO ../env/axi_sb.sv(94) @ 1725: uvm_test_top.env_h.sb_h [before event in sb] aaaa
# match arid : 0 , rid : 0
# UVM_INFO ../env/s_agent/axi_s_drv.sv(31) @ 1725: uvm_test_top.env_h.s_uvc_h.s_agent_h[0].s_drv_h [ID MATCH] aaaaa
# s seqs arid : 25003
# INIDE_SLAVE_SEQ_CTR=28
# match arid : 61ab , rid : 61ab
# UVM_INFO ../env/s_agent/axi_s_drv.sv(31) @ 1725: uvm_test_top.env_h.s_uvc_h.s_agent_h[0].s_drv_h [ID MATCH] aaaaa
# rd data in s drv: c07ec6fd , len : 15 , last:0 , valid : 1
#                 1735wlast : 0
# WID: 17206 , AWID : 17206
# m mon rid : 61ab
# rd data in s drv: 73a7f155 , len : 15 , last:0 , valid : 1
#                 1745wlast : 0
# WID: 17206 , AWID : 17206
# m mon rid : 61ab
# UVM_INFO ../env/m_agent/axi_base_m_seqs.sv(26) @ 1745: uvm_test_top.env_h.m_uvc_h.m_agent_h[0].m_seqr_h@@vseqs_h.m_wseqs_h [IN V SEQS] Got B-channel response from driver
# rd data in s drv: bf796793 , len : 15 , last:0 , valid : 1
#                 1755wlast : 0
# WID: 17206 , AWID : 17206
# m mon rid : 61ab
# rd data in s drv: 4f00fd62 , len : 15 , last:0 , valid : 1
# abc : 1
# ref model mem : 2186426688
# abc : 2
# ref model mem : 2186426696
# abc : 3
# ref model mem : 2186426704
# abc : 4
# ref model mem : 2186426712
# xyz : 1
# xyz : 2
# xyz : 3
# xyz : 4
#                 1765wlast : 1
# AFFTER W CHANNEL
# WID: 10359 , AWID : 10359
# m mon rid : 61ab
# req wid : 0 , bid:0
# match arid : 0 , rid : 0
# UVM_INFO ../env/s_agent/axi_s_drv.sv(31) @ 1765: uvm_test_top.env_h.s_uvc_h.s_agent_h[0].s_drv_h [ID MATCH] aaaaa
# s seqs arid : 51408
# INIDE_SLAVE_SEQ_CTR=29
# match arid : c8d0 , rid : c8d0
# UVM_INFO ../env/s_agent/axi_s_drv.sv(31) @ 1765: uvm_test_top.env_h.s_uvc_h.s_agent_h[0].s_drv_h [ID MATCH] aaaaa
# rd data in s drv: a83d4d0a , len : 15 , last:0 , valid : 1
#                 1775wlast : 0
# WID: 10359 , AWID : 10359
# m mon rid : 61ab
# rd data in s drv: b48772d7 , len : 15 , last:0 , valid : 1
#                 1785wlast : 0
# WID: 10359 , AWID : 10359
# m mon rid : 61ab
# UVM_INFO ../env/m_agent/axi_base_m_seqs.sv(26) @ 1785: uvm_test_top.env_h.m_uvc_h.m_agent_h[0].m_seqr_h@@vseqs_h.m_wseqs_h [IN V SEQS] Got B-channel response from driver
# rd data in s drv: 5fd39831 , len : 15 , last:0 , valid : 1
#                 1795wlast : 0
# WID: 10359 , AWID : 10359
# m mon rid : 61ab
# rd data in s drv: 40b541a1 , len : 15 , last:0 , valid : 1
#                 1805wlast : 0
# WID: 10359 , AWID : 10359
# m mon rid : 61ab
# rd data in s drv: 582a6dbb , len : 15 , last:0 , valid : 1
#                 1815wlast : 0
# WID: 10359 , AWID : 10359
# m mon rid : 61ab
# rd data in s drv: b6471599 , len : 15 , last:0 , valid : 1
#                 1825wlast : 0
# WID: 10359 , AWID : 10359
# m mon rid : 61ab
# rd data in s drv: 5738d535 , len : 15 , last:0 , valid : 1
#                 1835wlast : 0
# WID: 10359 , AWID : 10359
# m mon rid : 61ab
# rd data in s drv: 13765cc1 , len : 15 , last:0 , valid : 1
#                 1845wlast : 0
# WID: 10359 , AWID : 10359
# m mon rid : 61ab
# rd data in s drv: 49a6289 , len : 15 , last:0 , valid : 1
#                 1855wlast : 0
# WID: 10359 , AWID : 10359
# m mon rid : 61ab
# rd data in s drv: 9449fab9 , len : 15 , last:0 , valid : 1
#                 1865wlast : 0
# WID: 10359 , AWID : 10359
# m mon rid : 61ab
# rd data in s drv: fe3cd904 , len : 15 , last:0 , valid : 1
#                 1875wlast : 0
# WID: 10359 , AWID : 10359
# m mon rid : 61ab
# rd data in s drv: 179a2b7f , len : 15 , last:1 , valid : 1
#                 1885wlast : 0
# WID: 10359 , AWID : 10359
# req kind : READ
# m mon rid : 61ab
# UVM_INFO ../env/axi_sb.sv(96) @ 1885: uvm_test_top.env_h.sb_h [after event in sb] aaaa
# UVM_INFO ../env/axi_sb.sv(94) @ 1885: uvm_test_top.env_h.sb_h [before event in sb] aaaa
# rd data in s drv: efca51b1 , len : 3 , last:0 , valid : 1
#                 1895wlast : 0
# WID: 10359 , AWID : 10359
# m mon rid : c8d0
# rd data in s drv: d90a2ccc , len : 3 , last:0 , valid : 1
#                 1905wlast : 0
# WID: 10359 , AWID : 10359
# m mon rid : c8d0
# rd data in s drv: 3e39828c , len : 3 , last:0 , valid : 1
#                 1915wlast : 0
# WID: 10359 , AWID : 10359
# m mon rid : c8d0
# rd data in s drv: b8949cb7 , len : 3 , last:1 , valid : 1
# abc : 1
# ref model mem : 3939077760
# abc : 2
# ref model mem : 3939077768
# abc : 3
# ref model mem : 3939077776
# abc : 4
# ref model mem : 3939077784
# abc : 5
# ref model mem : 3939077792
# abc : 6
# ref model mem : 3939077800
# abc : 7
# ref model mem : 3939077808
# abc : 8
# ref model mem : 3939077816
# abc : 9
# ref model mem : 3939077824
# abc : 10
# ref model mem : 3939077832
# abc : 11
# ref model mem : 3939077840
# abc : 12
# ref model mem : 3939077848
# abc : 13
# ref model mem : 3939077856
# abc : 14
# ref model mem : 3939077864
# abc : 15
# ref model mem : 3939077872
# abc : 16
# ref model mem : 3939077880
# xyz : 1
# xyz : 2
# xyz : 3
# xyz : 4
# xyz : 5
# xyz : 6
# xyz : 7
# xyz : 8
# xyz : 9
# xyz : 10
# xyz : 11
# xyz : 12
# xyz : 13
# xyz : 14
# xyz : 15
# xyz : 16
#                 1925wlast : 1
# AFFTER W CHANNEL
# WID: 857 , AWID : 857
# req kind : READ
# m mon rid : c8d0
# req wid : 0 , bid:0
# UVM_INFO ../env/axi_sb.sv(96) @ 1925: uvm_test_top.env_h.sb_h [after event in sb] aaaa
# UVM_INFO ../env/axi_sb.sv(94) @ 1925: uvm_test_top.env_h.sb_h [before event in sb] aaaa
# match arid : 0 , rid : 0
# UVM_INFO ../env/s_agent/axi_s_drv.sv(31) @ 1925: uvm_test_top.env_h.s_uvc_h.s_agent_h[0].s_drv_h [ID MATCH] aaaaa
# s seqs arid : 29970
# INIDE_SLAVE_SEQ_CTR=30
# match arid : 7512 , rid : 7512
# UVM_INFO ../env/s_agent/axi_s_drv.sv(31) @ 1925: uvm_test_top.env_h.s_uvc_h.s_agent_h[0].s_drv_h [ID MATCH] aaaaa
# rd data in s drv: bfafdff3 , len : 15 , last:0 , valid : 1
#                 1935wlast : 0
# WID: 857 , AWID : 857
# m mon rid : 7512
# rd data in s drv: 5c22a82a , len : 15 , last:0 , valid : 1
# abc : 1
# ref model mem : 4035377936
# abc : 2
# ref model mem : 4035377944
# xyz : 1
# xyz : 2
#                 1945wlast : 1
# AFFTER W CHANNEL
# WID: 14014 , AWID : 14014
# m mon rid : 7512
# req wid : 0 , bid:0
# UVM_INFO ../env/m_agent/axi_base_m_seqs.sv(26) @ 1945: uvm_test_top.env_h.m_uvc_h.m_agent_h[0].m_seqr_h@@vseqs_h.m_wseqs_h [IN V SEQS] Got B-channel response from driver
# match arid : 0 , rid : 0
# UVM_INFO ../env/s_agent/axi_s_drv.sv(31) @ 1945: uvm_test_top.env_h.s_uvc_h.s_agent_h[0].s_drv_h [ID MATCH] aaaaa
# s seqs arid : 11395
# INIDE_SLAVE_SEQ_CTR=31
# match arid : 2c83 , rid : 2c83
# UVM_INFO ../env/s_agent/axi_s_drv.sv(31) @ 1945: uvm_test_top.env_h.s_uvc_h.s_agent_h[0].s_drv_h [ID MATCH] aaaaa
# rd data in s drv: 17d9543d , len : 15 , last:0 , valid : 1
#                 1955wlast : 0
# WID: 14014 , AWID : 14014
# m mon rid : 7512
# rd data in s drv: 7cb0c74f , len : 15 , last:0 , valid : 1
# abc : 1
# ref model mem : 3201657648
# abc : 2
# ref model mem : 3201657656
# xyz : 1
# xyz : 2
#                 1965wlast : 1
# AFFTER W CHANNEL
# WID: 12583 , AWID : 12583
# m mon rid : 7512
# req wid : 0 , bid:0
# UVM_INFO ../env/m_agent/axi_base_m_seqs.sv(26) @ 1965: uvm_test_top.env_h.m_uvc_h.m_agent_h[0].m_seqr_h@@vseqs_h.m_wseqs_h [IN V SEQS] Got B-channel response from driver
# match arid : 0 , rid : 0
# UVM_INFO ../env/s_agent/axi_s_drv.sv(31) @ 1965: uvm_test_top.env_h.s_uvc_h.s_agent_h[0].s_drv_h [ID MATCH] aaaaa
# s seqs arid : 43166
# INIDE_SLAVE_SEQ_CTR=32
# match arid : a89e , rid : a89e
# UVM_INFO ../env/s_agent/axi_s_drv.sv(31) @ 1965: uvm_test_top.env_h.s_uvc_h.s_agent_h[0].s_drv_h [ID MATCH] aaaaa
# rd data in s drv: 9804af29 , len : 15 , last:0 , valid : 1
#                 1975wlast : 0
# WID: 12583 , AWID : 12583
# m mon rid : 7512
# rd data in s drv: 7c56e524 , len : 15 , last:0 , valid : 1
# abc : 1
# ref model mem : 322142384
# abc : 2
# ref model mem : 322142392
# xyz : 1
# xyz : 2
#                 1985wlast : 1
# AFFTER W CHANNEL
# WID: 21072 , AWID : 21072
# m mon rid : 7512
# req wid : 0 , bid:0
# UVM_INFO ../env/m_agent/axi_base_m_seqs.sv(26) @ 1985: uvm_test_top.env_h.m_uvc_h.m_agent_h[0].m_seqr_h@@vseqs_h.m_wseqs_h [IN V SEQS] Got B-channel response from driver
# match arid : 0 , rid : 0
# UVM_INFO ../env/s_agent/axi_s_drv.sv(31) @ 1985: uvm_test_top.env_h.s_uvc_h.s_agent_h[0].s_drv_h [ID MATCH] aaaaa
# s seqs arid : 11187
# INIDE_SLAVE_SEQ_CTR=33
# match arid : 2bb3 , rid : 2bb3
# UVM_INFO ../env/s_agent/axi_s_drv.sv(31) @ 1985: uvm_test_top.env_h.s_uvc_h.s_agent_h[0].s_drv_h [ID MATCH] aaaaa
# rd data in s drv: 4fc4d161 , len : 15 , last:0 , valid : 1
#                 1995wlast : 0
# WID: 21072 , AWID : 21072
# m mon rid : 7512
# rd data in s drv: 45f212d6 , len : 15 , last:0 , valid : 1
#                 2005wlast : 0
# WID: 21072 , AWID : 21072
# m mon rid : 7512
# UVM_INFO ../env/m_agent/axi_base_m_seqs.sv(26) @ 2005: uvm_test_top.env_h.m_uvc_h.m_agent_h[0].m_seqr_h@@vseqs_h.m_wseqs_h [IN V SEQS] Got B-channel response from driver
# rd data in s drv: 9df471ce , len : 15 , last:0 , valid : 1
#                 2015wlast : 0
# WID: 21072 , AWID : 21072
# m mon rid : 7512
# rd data in s drv: c222fc5c , len : 15 , last:0 , valid : 1
#                 2025wlast : 0
# WID: 21072 , AWID : 21072
# m mon rid : 7512
# rd data in s drv: b93c502f , len : 15 , last:0 , valid : 1
#                 2035wlast : 0
# WID: 21072 , AWID : 21072
# m mon rid : 7512
# rd data in s drv: 4d4df0 , len : 15 , last:0 , valid : 1
#                 2045wlast : 0
# WID: 21072 , AWID : 21072
# m mon rid : 7512
# rd data in s drv: 97d6d6a , len : 15 , last:0 , valid : 1
#                 2055wlast : 0
# WID: 21072 , AWID : 21072
# m mon rid : 7512
# rd data in s drv: 5c8c8c68 , len : 15 , last:0 , valid : 1
# abc : 1
# ref model mem : 115503488
# abc : 2
# ref model mem : 115503496
# abc : 3
# ref model mem : 115503504
# abc : 4
# ref model mem : 115503512
# abc : 5
# ref model mem : 115503520
# abc : 6
# ref model mem : 115503528
# abc : 7
# ref model mem : 115503536
# abc : 8
# ref model mem : 115503544
# xyz : 1
# xyz : 2
# xyz : 3
# xyz : 4
# xyz : 5
# xyz : 6
# xyz : 7
# xyz : 8
#                 2065wlast : 1
# AFFTER W CHANNEL
# WID: 12011 , AWID : 12011
# m mon rid : 7512
# req wid : 0 , bid:0
# match arid : 0 , rid : 0
# UVM_INFO ../env/s_agent/axi_s_drv.sv(31) @ 2065: uvm_test_top.env_h.s_uvc_h.s_agent_h[0].s_drv_h [ID MATCH] aaaaa
# s seqs arid : 5180
# INIDE_SLAVE_SEQ_CTR=34
# match arid : 143c , rid : 143c
# UVM_INFO ../env/s_agent/axi_s_drv.sv(31) @ 2065: uvm_test_top.env_h.s_uvc_h.s_agent_h[0].s_drv_h [ID MATCH] aaaaa
# rd data in s drv: dccab29b , len : 15 , last:0 , valid : 1
#                 2075wlast : 0
# WID: 12011 , AWID : 12011
# m mon rid : 7512
# rd data in s drv: b5b81418 , len : 15 , last:1 , valid : 1
#                 2085wlast : 0
# WID: 12011 , AWID : 12011
# req kind : READ
# m mon rid : 7512
# UVM_INFO ../env/m_agent/axi_base_m_seqs.sv(26) @ 2085: uvm_test_top.env_h.m_uvc_h.m_agent_h[0].m_seqr_h@@vseqs_h.m_wseqs_h [IN V SEQS] Got B-channel response from driver
# UVM_INFO ../env/axi_sb.sv(96) @ 2085: uvm_test_top.env_h.sb_h [after event in sb] aaaa
# UVM_INFO ../env/axi_sb.sv(94) @ 2085: uvm_test_top.env_h.sb_h [before event in sb] aaaa
# rd data in s drv: 79b912e8 , len : 1 , last:0 , valid : 1
#                 2095wlast : 0
# WID: 12011 , AWID : 12011
# m mon rid : 2c83
# rd data in s drv: 28ab3b47 , len : 1 , last:1 , valid : 1
#                 2105wlast : 0
# WID: 12011 , AWID : 12011
# req kind : READ
# m mon rid : 2c83
# UVM_INFO ../env/axi_sb.sv(96) @ 2105: uvm_test_top.env_h.sb_h [after event in sb] aaaa
# UVM_INFO ../env/axi_sb.sv(94) @ 2105: uvm_test_top.env_h.sb_h [before event in sb] aaaa
# rd data in s drv: f31dea54 , len : 1 , last:0 , valid : 1
#                 2115wlast : 0
# WID: 12011 , AWID : 12011
# m mon rid : a89e
# rd data in s drv: 94eb1e7c , len : 1 , last:1 , valid : 1
#                 2125wlast : 0
# WID: 12011 , AWID : 12011
# req kind : READ
# m mon rid : a89e
# UVM_INFO ../env/axi_sb.sv(96) @ 2125: uvm_test_top.env_h.sb_h [after event in sb] aaaa
# UVM_INFO ../env/axi_sb.sv(94) @ 2125: uvm_test_top.env_h.sb_h [before event in sb] aaaa
# rd data in s drv: 495e1385 , len : 1 , last:0 , valid : 1
#                 2135wlast : 0
# WID: 12011 , AWID : 12011
# m mon rid : 2bb3
# rd data in s drv: ec4f5585 , len : 1 , last:1 , valid : 1
# abc : 1
# ref model mem : 2322362944
# abc : 2
# ref model mem : 2322362952
# abc : 3
# ref model mem : 2322362960
# abc : 4
# ref model mem : 2322362968
# abc : 5
# ref model mem : 2322362976
# abc : 6
# ref model mem : 2322362984
# abc : 7
# ref model mem : 2322362992
# abc : 8
# ref model mem : 2322363000
# xyz : 1
# xyz : 2
# xyz : 3
# xyz : 4
# xyz : 5
# xyz : 6
# xyz : 7
# xyz : 8
#                 2145wlast : 1
# AFFTER W CHANNEL
# WID: 11344 , AWID : 11344
# req kind : READ
# m mon rid : 2bb3
# req wid : 0 , bid:0
# UVM_INFO ../env/axi_sb.sv(96) @ 2145: uvm_test_top.env_h.sb_h [after event in sb] aaaa
# UVM_INFO ../env/axi_sb.sv(94) @ 2145: uvm_test_top.env_h.sb_h [before event in sb] aaaa
# match arid : 0 , rid : 0
# UVM_INFO ../env/s_agent/axi_s_drv.sv(31) @ 2145: uvm_test_top.env_h.s_uvc_h.s_agent_h[0].s_drv_h [ID MATCH] aaaaa
# s seqs arid : 33047
# INIDE_SLAVE_SEQ_CTR=35
# match arid : 8117 , rid : 8117
# UVM_INFO ../env/s_agent/axi_s_drv.sv(31) @ 2145: uvm_test_top.env_h.s_uvc_h.s_agent_h[0].s_drv_h [ID MATCH] aaaaa
# rd data in s drv: 8dca5eea , len : 7 , last:0 , valid : 1
#                 2155wlast : 0
# WID: 11344 , AWID : 11344
# m mon rid : 143c
# rd data in s drv: 34abba76 , len : 7 , last:0 , valid : 1
#                 2165wlast : 0
# WID: 11344 , AWID : 11344
# m mon rid : 143c
# UVM_INFO ../env/m_agent/axi_base_m_seqs.sv(26) @ 2165: uvm_test_top.env_h.m_uvc_h.m_agent_h[0].m_seqr_h@@vseqs_h.m_wseqs_h [IN V SEQS] Got B-channel response from driver
# rd data in s drv: e36d973f , len : 7 , last:0 , valid : 1
#                 2175wlast : 0
# WID: 11344 , AWID : 11344
# m mon rid : 143c
# rd data in s drv: 8a0ee082 , len : 7 , last:0 , valid : 1
# abc : 1
# ref model mem : 115374720
# abc : 2
# ref model mem : 115374728
# abc : 3
# ref model mem : 115374736
# abc : 4
# ref model mem : 115374744
# xyz : 1
# xyz : 2
# xyz : 3
# xyz : 4
#                 2185wlast : 1
# AFFTER W CHANNEL
# WID: 33036 , AWID : 33036
# m mon rid : 143c
# req wid : 0 , bid:0
# match arid : 0 , rid : 0
# UVM_INFO ../env/s_agent/axi_s_drv.sv(31) @ 2185: uvm_test_top.env_h.s_uvc_h.s_agent_h[0].s_drv_h [ID MATCH] aaaaa
# s seqs arid : 41870
# INIDE_SLAVE_SEQ_CTR=36
# match arid : a38e , rid : a38e
# UVM_INFO ../env/s_agent/axi_s_drv.sv(31) @ 2185: uvm_test_top.env_h.s_uvc_h.s_agent_h[0].s_drv_h [ID MATCH] aaaaa
# rd data in s drv: b5bb7ba8 , len : 7 , last:0 , valid : 1
#                 2195wlast : 0
# WID: 33036 , AWID : 33036
# m mon rid : 143c
# rd data in s drv: 6d97c6fe , len : 7 , last:0 , valid : 1
# abc : 1
# ref model mem : 1666119392
# abc : 2
# ref model mem : 1666119400
# xyz : 1
# xyz : 2
#                 2205wlast : 1
# AFFTER W CHANNEL
# WID: 52090 , AWID : 52090
# m mon rid : 143c
# req wid : 0 , bid:0
# UVM_INFO ../env/m_agent/axi_base_m_seqs.sv(26) @ 2205: uvm_test_top.env_h.m_uvc_h.m_agent_h[0].m_seqr_h@@vseqs_h.m_wseqs_h [IN V SEQS] Got B-channel response from driver
# match arid : 0 , rid : 0
# UVM_INFO ../env/s_agent/axi_s_drv.sv(31) @ 2205: uvm_test_top.env_h.s_uvc_h.s_agent_h[0].s_drv_h [ID MATCH] aaaaa
# s seqs arid : 14176
# INIDE_SLAVE_SEQ_CTR=37
# match arid : 3760 , rid : 3760
