# vsim -voptargs="+acc" axi_tb_top -c -do "run -all; exit" "+UVM_TESTNAME=axi_fixed_test" 
# Start time: 17:14:26 on May 05,2026
# ** Note: (vsim-3813) Design is being optimized due to module recompilation...
# ** Warning: (vopt-10587) Some optimizations are turned off because the +acc switch is in effect. This will cause your simulation to run slowly. Please use -access/-debug to maintain needed visibility.
# ** Warning: (vopt-13408) Code coverage will be disabled for some DUs/packages/classes and source files.
# ** Note: (vsim-12126) Error and warning message counts have been restored: Errors=0, Warnings=2.
# //  Questa Sim-64
# //  Version 2023.4 linux_x86_64 Oct  9 2023
# //
# //  Copyright 1991-2023 Mentor Graphics Corporation
# //  All Rights Reserved.
# //
# //  QuestaSim and its associated documentation contain trade
# //  secrets and commercial or financial information that are the property of
# //  Mentor Graphics Corporation and are privileged, confidential,
# //  and exempt from disclosure under the Freedom of Information Act,
# //  5 U.S.C. Section 552. Furthermore, this information
# //  is prohibited from disclosure under the Trade Secrets Act,
# //  18 U.S.C. Section 1905.
# //
# Loading sv_std.std
# Loading work.axi_s_inf(fast)
# Loading work.axi_m_inf(fast)
# Loading mtiUvm.uvm_pkg(fast)
# Loading work.axi_s_agent_pkg(fast)
# Loading work.axi_m_agent_pkg(fast)
# Loading work.axi_env_pkg(fast)
# Loading work.axi_test_pkg(fast)
# Loading mtiUvm.questa_uvm_pkg(fast)
# Loading work.axi_tb_top(fast)
# Loading work.axi_m_inf(fast__2)
# Loading work.axi_s_inf(fast__2)
# ** Warning: (vsim-8441) Clocking block output s_vif.s_drv_cb.RDATA is not legal in this
# or another expression.
#    Time: 0 ns  Iteration: 0  Region: /axi_s_agent_pkg::axi_s_drv #(32, 32) File: ../env/s_agent/axi_s_drv.sv Line: 113
# ** Warning: (vsim-8441) Clocking block output s_vif.s_drv_cb.RVALID is not legal in this
# or another expression.
#    Time: 0 ns  Iteration: 0  Region: /axi_s_agent_pkg::axi_s_drv #(32, 32) File: ../env/s_agent/axi_s_drv.sv Line: 115
# ** Warning: (vsim-8441) Clocking block output s_vif.s_drv_cb.RLAST is not legal in this
# or another expression.
#    Time: 0 ns  Iteration: 0  Region: /axi_s_agent_pkg::axi_s_drv #(32, 32) File: ../env/s_agent/axi_s_drv.sv Line: 116
# ** Warning: (vsim-8441) Clocking block output s_vif.s_drv_cb.RDATA is not legal in this
# or another expression.
#    Time: 0 ns  Iteration: 0  Region: /axi_s_agent_pkg::axi_s_drv #(32, 32) File: ../env/s_agent/axi_s_drv.sv Line: 113
# ** Warning: (vsim-8441) Clocking block output s_vif.s_drv_cb.RLAST is not legal in this
# or another expression.
#    Time: 0 ns  Iteration: 0  Region: /axi_s_agent_pkg::axi_s_drv #(32, 32) File: ../env/s_agent/axi_s_drv.sv Line: 116
# ** Warning: (vsim-8441) Clocking block output s_vif.s_drv_cb.RVALID is not legal in this
# or another expression.
#    Time: 0 ns  Iteration: 0  Region: /axi_s_agent_pkg::axi_s_drv #(32, 32) File: ../env/s_agent/axi_s_drv.sv Line: 115
# ** Warning: (vsim-8441) Clocking block output s_vif.s_drv_cb.RVALID is not legal in this
# or another expression.
#    Time: 0 ns  Iteration: 0  Region: /axi_s_agent_pkg::axi_s_drv #(32, 32) File: ../env/s_agent/axi_s_drv.sv Line: 115
# ** Warning: (vsim-8441) Clocking block output s_vif.s_drv_cb.RLAST is not legal in this
# or another expression.
#    Time: 0 ns  Iteration: 0  Region: /axi_s_agent_pkg::axi_s_drv #(32, 32) File: ../env/s_agent/axi_s_drv.sv Line: 116
# ** Warning: (vsim-8441) Clocking block output m_vif.m_drv_cb.WID is not legal in this
# or another expression.
#    Time: 0 ns  Iteration: 0  Region: /axi_m_agent_pkg::axi_m_drv #(32, 32) File: ../env/m_agent/axi_m_drv.sv Line: 95
# ** Warning: (vsim-8441) Clocking block output m_vif.m_drv_cb.WID is not legal in this
# or another expression.
#    Time: 0 ns  Iteration: 0  Region: /axi_m_agent_pkg::axi_m_drv #(32, 32) File: ../env/m_agent/axi_m_drv.sv Line: 95
# ** Warning: (vsim-8441) Clocking block output m_vif.m_drv_cb.WLAST is not legal in this
# or another expression.
#    Time: 0 ns  Iteration: 0  Region: /axi_m_agent_pkg::axi_m_drv #(32, 32) File: ../env/m_agent/axi_m_drv.sv Line: 100
# ** Warning: (vsim-8441) Clocking block output m_vif.m_drv_cb.WLAST is not legal in this
# or another expression.
#    Time: 0 ns  Iteration: 0  Region: /axi_m_agent_pkg::axi_m_drv #(32, 32) File: ../env/m_agent/axi_m_drv.sv Line: 100
# ** Warning: (vsim-8441) Clocking block output m_vif.m_drv_cb.WLAST is not legal in this
# or another expression.
#    Time: 0 ns  Iteration: 0  Region: /axi_m_agent_pkg::axi_m_drv #(32, 32) File: ../env/m_agent/axi_m_drv.sv Line: 100
# ** Warning: (vsim-8441) Clocking block output m_vif.m_drv_cb.WLAST is not legal in this
# or another expression.
#    Time: 0 ns  Iteration: 0  Region: /axi_m_agent_pkg::axi_m_drv #(32, 32) File: ../env/m_agent/axi_m_drv.sv Line: 100
# Loading /tools/mentor/questa/2023.4/questasim/uvm-1.1d/linux_x86_64/uvm_dpi.so
# run -all
# ----------------------------------------------------------------
# UVM-1.1d
# (C) 2007-2013 Mentor Graphics Corporation
# (C) 2007-2013 Cadence Design Systems, Inc.
# (C) 2006-2013 Synopsys, Inc.
# (C) 2011-2013 Cypress Semiconductor Corp.
# ----------------------------------------------------------------
# 
#   ***********       IMPORTANT RELEASE NOTES         ************
# 
#   You are using a version of the UVM library that has been compiled
#   with `UVM_NO_DEPRECATED undefined.
#   See http://www.eda.org/svdb/view.php?id=3313 for more details.
# 
#   You are using a version of the UVM library that has been compiled
#   with `UVM_OBJECT_MUST_HAVE_CONSTRUCTOR undefined.
#   See http://www.eda.org/svdb/view.php?id=3770 for more details.
# 
#       (Specify +UVM_NO_RELNOTES to turn off this notice)
# 
# UVM_INFO verilog_src/questa_uvm_pkg-1.2/src/questa_uvm_pkg.sv(277) @ 0: reporter [Questa UVM] QUESTA_UVM-1.2.3
# UVM_INFO verilog_src/questa_uvm_pkg-1.2/src/questa_uvm_pkg.sv(278) @ 0: reporter [Questa UVM]  questa_uvm::init(+struct)
# UVM_INFO @ 0: reporter [RNTST] Running test axi_fixed_test...
# UVM_INFO ../env/s_agent/axi_s_seqr.sv(25) @ 0: uvm_test_top.env_h.s_uvc_h.s_agent_h[0].s_seqr_h [Data in s seqr] Data got in slave seqr
# UVM_INFO @ 0: reporter [UVMTOP] UVM testbench topology:
# --------------------------------------------------------------------------------
# Name                             Type                                Size  Value
# --------------------------------------------------------------------------------
# uvm_test_top                     axi_fixed_test                      -     @479 
#   env_h                          axi_env                             -     @491 
#     m_uvc_h                      uvm_agent                           -     @513 
#       m_agent_h[0]               uvm_agent                           -     @693 
#         m_drv_h                  uvm_driver #(REQ,RSP)               -     @814 
#           rsp_port               uvm_analysis_port                   -     @829 
#           seq_item_port          uvm_seq_item_pull_port              -     @821 
#         m_mon_h                  axi_m_mon#(ADDR_WIDTH, DATA_WIDTH)  -     @837 
#           s_port                 uvm_analysis_port                   -     @844 
#         m_seqr_h                 uvm_sequencer                       -     @705 
#           rsp_export             uvm_analysis_export                 -     @712 
#           seq_item_export        uvm_seq_item_pull_imp               -     @806 
#           arbitration_queue      array                               0     -    
#           lock_queue             array                               0     -    
#           num_last_reqs          integral                            32    'd1  
#           num_last_rsps          integral                            32    'd1  
#     ref_model_h                  axi_ref_model                       -     @558 
#       mon_imp                    uvm_analysis_imp                    -     @565 
#       sb_imp                     uvm_analysis_port                   -     @573 
#     s_uvc_h                      uvm_agent                           -     @520 
#       s_agent_h[0]               uvm_agent                           -     @860 
#         s_drv_h                  uvm_driver #(REQ,RSP)               -     @1036
#           rsp_port               uvm_analysis_port                   -     @1051
#           seq_item_port          uvm_seq_item_pull_port              -     @1043
#         s_mon_h                  axi_s_mon#(ADDR_WIDTH, DATA_WIDTH)  -     @1059
#           s_port                 uvm_analysis_port                   -     @1066
#         s_seqr_h                 uvm_sequencer                       -     @872 
#           item_collected_export  uvm_analysis_export                 -     @981 
#           item_req_fifo          uvm_tlm_analysis_fifo #(T)          -     @989 
#             analysis_export      uvm_analysis_imp                    -     @1028
#             get_ap               uvm_analysis_port                   -     @1020
#             get_peek_export      uvm_get_peek_imp                    -     @1004
#             put_ap               uvm_analysis_port                   -     @1012
#             put_export           uvm_put_imp                         -     @996 
#           rsp_export             uvm_analysis_export                 -     @879 
#           seq_item_export        uvm_seq_item_pull_imp               -     @973 
#           arbitration_queue      array                               0     -    
#           lock_queue             array                               0     -    
#           num_last_reqs          integral                            32    'd1  
#           num_last_rsps          integral                            32    'd1  
#     sb_h                         axi_sb                              -     @527 
#       anl_imp_m                  uvm_analysis_imp_m                  -     @534 
#       anl_imp_ref                uvm_analysis_imp_ref                -     @542 
#     vseqr_h                      axi_virtual_seqr                    -     @581 
#       rsp_export                 uvm_analysis_export                 -     @588 
#       seq_item_export            uvm_seq_item_pull_imp               -     @682 
#       arbitration_queue          array                               0     -    
#       lock_queue                 array                               0     -    
#       num_last_reqs              integral                            32    'd1  
#       num_last_rsps              integral                            32    'd1  
# --------------------------------------------------------------------------------
# 
# UVM_INFO ../env/axi_sb.sv(59) @ 0: uvm_test_top.env_h.sb_h [before event in sb] aaaa
# UVM_INFO ../env/m_agent/axi_m_mon.sv(29) @ 0: uvm_test_top.env_h.m_uvc_h.m_agent_h[0].m_mon_h [M MON RUN PHASE before] Inside master mon run phase
# UVM_INFO ../env/m_agent/axi_m_mon.sv(36) @ 0: uvm_test_top.env_h.m_uvc_h.m_agent_h[0].m_mon_h [M MON run PHASE after] Inside master mon
# UVM_INFO ../env/m_agent/axi_m_mon.sv(41) @ 0: uvm_test_top.env_h.m_uvc_h.m_agent_h[0].m_mon_h [M MON write addr PHASE before] Inside master mon
# UVM_INFO ../env/m_agent/axi_m_mon.sv(61) @ 0: uvm_test_top.env_h.m_uvc_h.m_agent_h[0].m_mon_h [M MON write data PHASE before] Inside master mon
# UVM_INFO ../env/m_agent/axi_m_mon.sv(86) @ 0: uvm_test_top.env_h.m_uvc_h.m_agent_h[0].m_mon_h [M MON read addr PHASE before] Inside master mon
# UVM_INFO ../env/m_agent/axi_m_mon.sv(108) @ 0: uvm_test_top.env_h.m_uvc_h.m_agent_h[0].m_mon_h [M MON read data PHASE before] Inside master mon
# Before AW CHANNEL
# Before W CHANNEL
# Before AR CHANNEL
# Before R CHANNEL
# cnt : 1
# cnt : 2
# cnt : 3
# cnt : 4
# cnt : 5
# cnt : 6
# cnt : 7
# cnt : 8
# cnt : 9
# cnt : 10
# cnt : 11
# cnt : 12
# cnt : 13
# cnt : 14
# cnt : 15
# cnt : 16
# cnt : 17
# cnt : 18
# cnt : 19
# cnt : 20
# cnt : 21
# cnt : 22
# cnt : 23
# cnt : 24
# cnt : 25
# cnt : 26
# cnt : 27
# cnt : 28
# cnt : 29
# cnt : 30
# cnt : 31
# cnt : 32
# cnt : 33
# cnt : 34
# cnt : 35
# cnt : 36
# cnt : 37
# cnt : 38
# cnt : 39
# cnt : 40
# cnt : 41
# cnt : 42
# cnt : 43
# cnt : 44
# cnt : 45
# cnt : 46
# cnt : 47
# cnt : 48
# cnt : 49
# cnt : 50
# cnt : 51
# cnt : 52
# cnt : 53
# cnt : 54
# cnt : 55
# cnt : 56
# cnt : 57
# cnt : 58
# cnt : 59
# cnt : 60
# cnt : 61
# cnt : 62
# cnt : 63
# cnt : 64
# cnt : 65
# cnt : 66
# cnt : 67
# cnt : 68
# cnt : 69
# cnt : 70
# cnt : 71
# cnt : 72
# cnt : 73
# cnt : 74
# cnt : 75
# cnt : 76
# cnt : 77
# cnt : 78
# cnt : 79
# cnt : 80
# cnt : 81
# cnt : 82
# cnt : 83
# cnt : 84
# cnt : 85
# cnt : 86
# cnt : 87
# cnt : 88
# cnt : 89
# cnt : 90
# cnt : 91
# cnt : 92
# cnt : 93
# cnt : 94
# cnt : 95
# cnt : 96
# cnt : 97
# cnt : 98
# cnt : 99
# cnt : 100
# WID: 48469 , AWID : 48469
# awid in s mon : bd55 , awaddr : 17f
#                   15wlast : 0
# WID: 48469 , AWID : 48469
# awid in s mon : bf1c , awaddr : 2a8
# INIDE_SLAVE_MON_CTR=1
# arid in s mon : 60203
#                   25wlast : 0
# WID: 48469 , AWID : 48469
# m mon ar id : eb2b
# INIDE_SLAVE_MON_CTR=2
# arid in s mon : 59707
# awid in s mon : 2b53 , awaddr : 386
#                   35wlast : 0
# WID: 48469 , AWID : 48469
# m mon ar id : e93b
# abc : 1
# abc : 2
# abc : 3
# abc : 4
# xyz : 1
# xyz : 2
# xyz : 3
# xyz : 4
# awid in s mon : a632 , awaddr : dc
# INIDE_SLAVE_MON_CTR=3
# arid in s mon : 59859
#                   45wlast : 1
# AFFTER W CHANNEL
# WID: 48924 , AWID : 48924
# m mon ar id : e9d3
# match arid : 0 , rid : 0
# UVM_INFO ../env/s_agent/axi_s_drv.sv(31) @ 45: uvm_test_top.env_h.s_uvc_h.s_agent_h[0].s_drv_h [ID MATCH] aaaaa
# s seqs arid : 60203
# INIDE_SLAVE_SEQ_CTR=1
# match arid : eb2b , rid : eb2b
# UVM_INFO ../env/s_agent/axi_s_drv.sv(31) @ 45: uvm_test_top.env_h.s_uvc_h.s_agent_h[0].s_drv_h [ID MATCH] aaaaa
# rd data in s drv: e1000000 , len : 3 , last:0 , valid : 1
# INIDE_SLAVE_MON_CTR=4
# arid in s mon : 10426
# awid in s mon : 8031 , awaddr : ea
#                   55wlast : 0
# WID: 48924 , AWID : 48924
# m mon ar id : 28ba
# m mon rid : eb2b
# rd data in s drv: 5ade4b3 , len : 3 , last:0 , valid : 1
# awid in s mon : fb10 , awaddr : 9d
# INIDE_SLAVE_MON_CTR=5
# arid in s mon : 61524
#                   65wlast : 0
# WID: 48924 , AWID : 48924
# m mon rid : eb2b
# m mon ar id : f054
# UVM_INFO ../env/m_agent/axi_base_m_seqs.sv(26) @ 65: uvm_test_top.env_h.m_uvc_h.m_agent_h[0].m_seqr_h@@vseqs_h.m_wseqs_h [IN V SEQS] Got B-channel response from driver
# rd data in s drv: 55d992b7 , len : 3 , last:0 , valid : 1
# INIDE_SLAVE_MON_CTR=6
# arid in s mon : 26459
# awid in s mon : bbe1 , awaddr : 86
#                   75wlast : 0
# WID: 48924 , AWID : 48924
# m mon ar id : 675b
# m mon rid : eb2b
# rd data in s drv: edb2c52b , len : 3 , last:1 , valid : 1
# abc : 1
# abc : 2
# abc : 3
# abc : 4
# xyz : 1
# xyz : 2
# xyz : 3
# xyz : 4
# awid in s mon : bc15 , awaddr : cb
# INIDE_SLAVE_MON_CTR=7
# arid in s mon : 22357
#                   85wlast : 1
# AFFTER W CHANNEL
# WID: 11091 , AWID : 11091
# m mon rid : eb2b
# m mon ar id : 5755
# UVM_INFO ../env/axi_sb.sv(61) @ 85: uvm_test_top.env_h.sb_h [after event in sb] aaaa
# UVM_INFO ../env/axi_sb.sv(74) @ 85: uvm_test_top.env_h.sb_h [SB MATCH] ARID=60203 RID=60203 MATCH! RDATA=3774873600 95282355 1440322231 3987916075 (Passes: 1)
# UVM_INFO ../env/axi_sb.sv(59) @ 85: uvm_test_top.env_h.sb_h [before event in sb] aaaa
# match arid : 0 , rid : 0
# UVM_INFO ../env/s_agent/axi_s_drv.sv(31) @ 85: uvm_test_top.env_h.s_uvc_h.s_agent_h[0].s_drv_h [ID MATCH] aaaaa
# s seqs arid : 59707
# INIDE_SLAVE_SEQ_CTR=2
# match arid : e93b , rid : e93b
# UVM_INFO ../env/s_agent/axi_s_drv.sv(31) @ 85: uvm_test_top.env_h.s_uvc_h.s_agent_h[0].s_drv_h [ID MATCH] aaaaa
# rd data in s drv: 766d2096 , len : 3 , last:0 , valid : 1
# INIDE_SLAVE_MON_CTR=8
# arid in s mon : 58966
# awid in s mon : 5bc8 , awaddr : 1c7
#                   95wlast : 0
# WID: 11091 , AWID : 11091
# m mon ar id : e656
# m mon rid : e93b
# rd data in s drv: c6d5f5ef , len : 3 , last:0 , valid : 1
# awid in s mon : d167 , awaddr : 82
# INIDE_SLAVE_MON_CTR=9
# arid in s mon : 64759
#                  105wlast : 0
# WID: 11091 , AWID : 11091
# m mon rid : e93b
# m mon ar id : fcf7
# UVM_INFO ../env/m_agent/axi_base_m_seqs.sv(26) @ 105: uvm_test_top.env_h.m_uvc_h.m_agent_h[0].m_seqr_h@@vseqs_h.m_wseqs_h [IN V SEQS] Got B-channel response from driver
# rd data in s drv: b8665e42 , len : 3 , last:0 , valid : 1
# INIDE_SLAVE_MON_CTR=10
# arid in s mon : 43156
# awid in s mon : 43d7 , awaddr : 2ef
#                  115wlast : 0
# WID: 11091 , AWID : 11091
# m mon ar id : a894
# m mon rid : e93b
# rd data in s drv: eaba05fa , len : 3 , last:1 , valid : 1
# abc : 1
# abc : 2
# abc : 3
# abc : 4
# xyz : 1
# xyz : 2
# xyz : 3
# xyz : 4
# awid in s mon : 59e0 , awaddr : 170
# INIDE_SLAVE_MON_CTR=11
# arid in s mon : 52439
#                  125wlast : 1
# AFFTER W CHANNEL
# WID: 42546 , AWID : 42546
# m mon rid : e93b
# m mon ar id : ccd7
# UVM_INFO ../env/axi_sb.sv(61) @ 125: uvm_test_top.env_h.sb_h [after event in sb] aaaa
# UVM_INFO ../env/axi_sb.sv(74) @ 125: uvm_test_top.env_h.sb_h [SB MATCH] ARID=59707 RID=59707 MATCH! RDATA=1986863254 3335910895 3093716546 3938059770 (Passes: 2)
# UVM_INFO ../env/axi_sb.sv(59) @ 125: uvm_test_top.env_h.sb_h [before event in sb] aaaa
# match arid : 0 , rid : 0
# UVM_INFO ../env/s_agent/axi_s_drv.sv(31) @ 125: uvm_test_top.env_h.s_uvc_h.s_agent_h[0].s_drv_h [ID MATCH] aaaaa
# s seqs arid : 59859
# INIDE_SLAVE_SEQ_CTR=3
# match arid : e9d3 , rid : e9d3
# UVM_INFO ../env/s_agent/axi_s_drv.sv(31) @ 125: uvm_test_top.env_h.s_uvc_h.s_agent_h[0].s_drv_h [ID MATCH] aaaaa
# rd data in s drv: 45420000 , len : 3 , last:0 , valid : 1
# INIDE_SLAVE_MON_CTR=12
# arid in s mon : 4905
# awid in s mon : 7d1f , awaddr : 71
#                  135wlast : 0
# WID: 42546 , AWID : 42546
# m mon ar id : 1329
# m mon rid : e9d3
# rd data in s drv: 3b27ee47 , len : 3 , last:0 , valid : 1
# awid in s mon : 3181 , awaddr : 215
# INIDE_SLAVE_MON_CTR=13
# arid in s mon : 35577
#                  145wlast : 0
# WID: 42546 , AWID : 42546
# m mon rid : e9d3
# m mon ar id : 8af9
# UVM_INFO ../env/m_agent/axi_base_m_seqs.sv(26) @ 145: uvm_test_top.env_h.m_uvc_h.m_agent_h[0].m_seqr_h@@vseqs_h.m_wseqs_h [IN V SEQS] Got B-channel response from driver
# rd data in s drv: 549c6744 , len : 3 , last:0 , valid : 1
# INIDE_SLAVE_MON_CTR=14
# arid in s mon : 25219
# awid in s mon : 9de9 , awaddr : 28b
#                  155wlast : 0
# WID: 42546 , AWID : 42546
# m mon ar id : 6283
# m mon rid : e9d3
# rd data in s drv: 1bc5235 , len : 3 , last:1 , valid : 1
# abc : 1
# abc : 2
# abc : 3
# abc : 4
# xyz : 1
# xyz : 2
# xyz : 3
# xyz : 4
# awid in s mon : 870b , awaddr : 302
# INIDE_SLAVE_MON_CTR=15
# arid in s mon : 47995
#                  165wlast : 1
# AFFTER W CHANNEL
# WID: 32817 , AWID : 32817
# m mon rid : e9d3
# m mon ar id : bb7b
# UVM_INFO ../env/axi_sb.sv(61) @ 165: uvm_test_top.env_h.sb_h [after event in sb] aaaa
# UVM_INFO ../env/axi_sb.sv(74) @ 165: uvm_test_top.env_h.sb_h [SB MATCH] ARID=59859 RID=59859 MATCH! RDATA=1161953280 992472647 1419536196 29119029 (Passes: 3)
# UVM_INFO ../env/axi_sb.sv(59) @ 165: uvm_test_top.env_h.sb_h [before event in sb] aaaa
# match arid : 0 , rid : 0
# UVM_INFO ../env/s_agent/axi_s_drv.sv(31) @ 165: uvm_test_top.env_h.s_uvc_h.s_agent_h[0].s_drv_h [ID MATCH] aaaaa
# s seqs arid : 10426
# INIDE_SLAVE_SEQ_CTR=4
# match arid : 28ba , rid : 28ba
# UVM_INFO ../env/s_agent/axi_s_drv.sv(31) @ 165: uvm_test_top.env_h.s_uvc_h.s_agent_h[0].s_drv_h [ID MATCH] aaaaa
# rd data in s drv: 7ef31ad8 , len : 3 , last:0 , valid : 1
# INIDE_SLAVE_MON_CTR=16
# arid in s mon : 51276
# awid in s mon : de5 , awaddr : 1fb
#                  175wlast : 0
# WID: 32817 , AWID : 32817
# m mon ar id : c84c
# m mon rid : 28ba
# rd data in s drv: 400041b1 , len : 3 , last:0 , valid : 1
# awid in s mon : 3595 , awaddr : 1f2
# INIDE_SLAVE_MON_CTR=17
# arid in s mon : 44353
#                  185wlast : 0
# WID: 32817 , AWID : 32817
# m mon rid : 28ba
# m mon ar id : ad41
# UVM_INFO ../env/m_agent/axi_base_m_seqs.sv(26) @ 185: uvm_test_top.env_h.m_uvc_h.m_agent_h[0].m_seqr_h@@vseqs_h.m_wseqs_h [IN V SEQS] Got B-channel response from driver
# rd data in s drv: 6f3347d9 , len : 3 , last:0 , valid : 1
# INIDE_SLAVE_MON_CTR=18
# arid in s mon : 34273
# awid in s mon : 2178 , awaddr : 2c5
#                  195wlast : 0
# WID: 32817 , AWID : 32817
# m mon ar id : 85e1
# m mon rid : 28ba
# rd data in s drv: 761402a3 , len : 3 , last:1 , valid : 1
# abc : 1
# abc : 2
# abc : 3
# abc : 4
# xyz : 1
# xyz : 2
# xyz : 3
# xyz : 4
# awid in s mon : ad86 , awaddr : 170
# INIDE_SLAVE_MON_CTR=19
# arid in s mon : 40878
#                  205wlast : 1
# AFFTER W CHANNEL
# WID: 64272 , AWID : 64272
# m mon rid : 28ba
# m mon ar id : 9fae
# UVM_INFO ../env/axi_sb.sv(61) @ 205: uvm_test_top.env_h.sb_h [after event in sb] aaaa
# UVM_INFO ../env/axi_sb.sv(74) @ 205: uvm_test_top.env_h.sb_h [SB MATCH] ARID=10426 RID=10426 MATCH! RDATA=2129861336 1073758641 1865631705 1981022883 (Passes: 4)
# UVM_INFO ../env/axi_sb.sv(59) @ 205: uvm_test_top.env_h.sb_h [before event in sb] aaaa
# match arid : 0 , rid : 0
# UVM_INFO ../env/s_agent/axi_s_drv.sv(31) @ 205: uvm_test_top.env_h.s_uvc_h.s_agent_h[0].s_drv_h [ID MATCH] aaaaa
# s seqs arid : 61524
# INIDE_SLAVE_SEQ_CTR=5
# match arid : f054 , rid : f054
# UVM_INFO ../env/s_agent/axi_s_drv.sv(31) @ 205: uvm_test_top.env_h.s_uvc_h.s_agent_h[0].s_drv_h [ID MATCH] aaaaa
# rd data in s drv: 90e40000 , len : 3 , last:0 , valid : 1
# INIDE_SLAVE_MON_CTR=20
# arid in s mon : 65033
# awid in s mon : fe69 , awaddr : 15
#                  215wlast : 0
# WID: 64272 , AWID : 64272
# m mon ar id : fe09
# m mon rid : f054
# rd data in s drv: 7c5cf680 , len : 3 , last:0 , valid : 1
# awid in s mon : 177c , awaddr : 56
# INIDE_SLAVE_MON_CTR=21
# arid in s mon : 39064
#                  225wlast : 0
# WID: 64272 , AWID : 64272
# m mon rid : f054
# m mon ar id : 9898
# UVM_INFO ../env/m_agent/axi_base_m_seqs.sv(26) @ 225: uvm_test_top.env_h.m_uvc_h.m_agent_h[0].m_seqr_h@@vseqs_h.m_wseqs_h [IN V SEQS] Got B-channel response from driver
# rd data in s drv: cdcb11b4 , len : 3 , last:0 , valid : 1
# INIDE_SLAVE_MON_CTR=22
# arid in s mon : 62773
# awid in s mon : 661d , awaddr : 128
#                  235wlast : 0
# WID: 64272 , AWID : 64272
# m mon ar id : f535
# m mon rid : f054
# rd data in s drv: e77068cf , len : 3 , last:1 , valid : 1
# abc : 1
# abc : 2
# abc : 3
# abc : 4
# xyz : 1
# xyz : 2
# xyz : 3
# xyz : 4
# awid in s mon : e79f , awaddr : 394
# INIDE_SLAVE_MON_CTR=23
# arid in s mon : 60350
#                  245wlast : 1
# AFFTER W CHANNEL
# WID: 48097 , AWID : 48097
# m mon rid : f054
# m mon ar id : ebbe
# UVM_INFO ../env/axi_sb.sv(61) @ 245: uvm_test_top.env_h.sb_h [after event in sb] aaaa
# UVM_INFO ../env/axi_sb.sv(74) @ 245: uvm_test_top.env_h.sb_h [SB MATCH] ARID=61524 RID=61524 MATCH! RDATA=2430861312 2086467200 3452637620 3882903759 (Passes: 5)
# UVM_INFO ../env/axi_sb.sv(59) @ 245: uvm_test_top.env_h.sb_h [before event in sb] aaaa
# match arid : 0 , rid : 0
# UVM_INFO ../env/s_agent/axi_s_drv.sv(31) @ 245: uvm_test_top.env_h.s_uvc_h.s_agent_h[0].s_drv_h [ID MATCH] aaaaa
# s seqs arid : 26459
# INIDE_SLAVE_SEQ_CTR=6
# match arid : 675b , rid : 675b
# UVM_INFO ../env/s_agent/axi_s_drv.sv(31) @ 245: uvm_test_top.env_h.s_uvc_h.s_agent_h[0].s_drv_h [ID MATCH] aaaaa
# rd data in s drv: e692a900 , len : 3 , last:0 , valid : 1
# INIDE_SLAVE_MON_CTR=24
# arid in s mon : 45043
# awid in s mon : 5d92 , awaddr : 2fb
#                  255wlast : 0
# WID: 48097 , AWID : 48097
# m mon ar id : aff3
# m mon rid : 675b
# rd data in s drv: 5e5d6ae8 , len : 3 , last:0 , valid : 1
# awid in s mon : 74b6 , awaddr : 246
# INIDE_SLAVE_MON_CTR=25
# arid in s mon : 15796
#                  265wlast : 0
# WID: 48097 , AWID : 48097
# m mon rid : 675b
# m mon ar id : 3db4
# UVM_INFO ../env/m_agent/axi_base_m_seqs.sv(26) @ 265: uvm_test_top.env_h.m_uvc_h.m_agent_h[0].m_seqr_h@@vseqs_h.m_wseqs_h [IN V SEQS] Got B-channel response from driver
# rd data in s drv: 2e5cdf84 , len : 3 , last:0 , valid : 1
# INIDE_SLAVE_MON_CTR=26
# arid in s mon : 64427
# awid in s mon : 2a80 , awaddr : 207
#                  275wlast : 0
# WID: 48097 , AWID : 48097
# m mon ar id : fbab
# m mon rid : 675b
# rd data in s drv: 85dca7b4 , len : 3 , last:1 , valid : 1
# abc : 1
# abc : 2
# abc : 3
# abc : 4
# xyz : 1
# xyz : 2
# xyz : 3
# xyz : 4
# awid in s mon : 1ffb , awaddr : 2b
# INIDE_SLAVE_MON_CTR=27
# arid in s mon : 15132
#                  285wlast : 1
# AFFTER W CHANNEL
# WID: 48149 , AWID : 48149
# m mon rid : 675b
# m mon ar id : 3b1c
# UVM_INFO ../env/axi_sb.sv(61) @ 285: uvm_test_top.env_h.sb_h [after event in sb] aaaa
# UVM_INFO ../env/axi_sb.sv(74) @ 285: uvm_test_top.env_h.sb_h [SB MATCH] ARID=26459 RID=26459 MATCH! RDATA=3868371200 1583180520 777838468 2245830580 (Passes: 6)
# UVM_INFO ../env/axi_sb.sv(59) @ 285: uvm_test_top.env_h.sb_h [before event in sb] aaaa
# match arid : 0 , rid : 0
# UVM_INFO ../env/s_agent/axi_s_drv.sv(31) @ 285: uvm_test_top.env_h.s_uvc_h.s_agent_h[0].s_drv_h [ID MATCH] aaaaa
# s seqs arid : 22357
# INIDE_SLAVE_SEQ_CTR=7
# match arid : 5755 , rid : 5755
# UVM_INFO ../env/s_agent/axi_s_drv.sv(31) @ 285: uvm_test_top.env_h.s_uvc_h.s_agent_h[0].s_drv_h [ID MATCH] aaaaa
# rd data in s drv: 2b20000 , len : 3 , last:0 , valid : 1
# INIDE_SLAVE_MON_CTR=28
# arid in s mon : 25003
# awid in s mon : 4336 , awaddr : 226
#                  295wlast : 0
# WID: 48149 , AWID : 48149
# m mon ar id : 61ab
# m mon rid : 5755
# rd data in s drv: 372f0987 , len : 3 , last:0 , valid : 1
# awid in s mon : 2877 , awaddr : 163
# INIDE_SLAVE_MON_CTR=29
# arid in s mon : 51408
#                  305wlast : 0
# WID: 48149 , AWID : 48149
# m mon rid : 5755
# m mon ar id : c8d0
# UVM_INFO ../env/m_agent/axi_base_m_seqs.sv(26) @ 305: uvm_test_top.env_h.m_uvc_h.m_agent_h[0].m_seqr_h@@vseqs_h.m_wseqs_h [IN V SEQS] Got B-channel response from driver
# rd data in s drv: 4ab7d9f9 , len : 3 , last:0 , valid : 1
# INIDE_SLAVE_MON_CTR=30
# arid in s mon : 29970
# awid in s mon : 359 , awaddr : 21b
#                  315wlast : 0
# WID: 48149 , AWID : 48149
# m mon ar id : 7512
# m mon rid : 5755
# rd data in s drv: 293074ef , len : 3 , last:1 , valid : 1
# abc : 1
# abc : 2
# abc : 3
# abc : 4
# xyz : 1
# xyz : 2
# xyz : 3
# xyz : 4
# awid in s mon : 36be , awaddr : 363
# INIDE_SLAVE_MON_CTR=31
# arid in s mon : 11395
#                  325wlast : 1
# AFFTER W CHANNEL
# WID: 23496 , AWID : 23496
# m mon rid : 5755
# m mon ar id : 2c83
# UVM_INFO ../env/axi_sb.sv(61) @ 325: uvm_test_top.env_h.sb_h [after event in sb] aaaa
# UVM_INFO ../env/axi_sb.sv(74) @ 325: uvm_test_top.env_h.sb_h [SB MATCH] ARID=22357 RID=22357 MATCH! RDATA=45219840 925829511 1253562873 691041519 (Passes: 7)
# UVM_INFO ../env/axi_sb.sv(59) @ 325: uvm_test_top.env_h.sb_h [before event in sb] aaaa
# match arid : 0 , rid : 0
# UVM_INFO ../env/s_agent/axi_s_drv.sv(31) @ 325: uvm_test_top.env_h.s_uvc_h.s_agent_h[0].s_drv_h [ID MATCH] aaaaa
# s seqs arid : 58966
# INIDE_SLAVE_SEQ_CTR=8
# match arid : e656 , rid : e656
# UVM_INFO ../env/s_agent/axi_s_drv.sv(31) @ 325: uvm_test_top.env_h.s_uvc_h.s_agent_h[0].s_drv_h [ID MATCH] aaaaa
# rd data in s drv: d7000000 , len : 3 , last:0 , valid : 1
# INIDE_SLAVE_MON_CTR=32
# arid in s mon : 43166
# awid in s mon : 3127 , awaddr : 3b2
#                  335wlast : 0
# WID: 23496 , AWID : 23496
# m mon ar id : a89e
# m mon rid : e656
# rd data in s drv: baee7d8 , len : 3 , last:0 , valid : 1
# awid in s mon : 5250 , awaddr : 1b3
# INIDE_SLAVE_MON_CTR=33
# arid in s mon : 11187
#                  345wlast : 0
# WID: 23496 , AWID : 23496
# m mon rid : e656
# m mon ar id : 2bb3
# UVM_INFO ../env/m_agent/axi_base_m_seqs.sv(26) @ 345: uvm_test_top.env_h.m_uvc_h.m_agent_h[0].m_seqr_h@@vseqs_h.m_wseqs_h [IN V SEQS] Got B-channel response from driver
# rd data in s drv: e174315a , len : 3 , last:0 , valid : 1
# INIDE_SLAVE_MON_CTR=34
# arid in s mon : 5180
# awid in s mon : 2eeb , awaddr : 1da
#                  355wlast : 0
# WID: 23496 , AWID : 23496
# m mon ar id : 143c
# m mon rid : e656
# rd data in s drv: 502c68b6 , len : 3 , last:1 , valid : 1
# abc : 1
# abc : 2
# abc : 3
# abc : 4
# xyz : 1
# xyz : 2
# xyz : 3
# xyz : 4
# awid in s mon : 2c50 , awaddr : 147
# INIDE_SLAVE_MON_CTR=35
# arid in s mon : 33047
#                  365wlast : 1
# AFFTER W CHANNEL
# WID: 53607 , AWID : 53607
# m mon rid : e656
# m mon ar id : 8117
# UVM_INFO ../env/axi_sb.sv(61) @ 365: uvm_test_top.env_h.sb_h [after event in sb] aaaa
# UVM_INFO ../env/axi_sb.sv(74) @ 365: uvm_test_top.env_h.sb_h [SB MATCH] ARID=58966 RID=58966 MATCH! RDATA=3607101440 196011992 3782488410 1345087670 (Passes: 8)
# UVM_INFO ../env/axi_sb.sv(59) @ 365: uvm_test_top.env_h.sb_h [before event in sb] aaaa
# match arid : 0 , rid : 0
# UVM_INFO ../env/s_agent/axi_s_drv.sv(31) @ 365: uvm_test_top.env_h.s_uvc_h.s_agent_h[0].s_drv_h [ID MATCH] aaaaa
# s seqs arid : 64759
# INIDE_SLAVE_SEQ_CTR=9
# match arid : fcf7 , rid : fcf7
# UVM_INFO ../env/s_agent/axi_s_drv.sv(31) @ 365: uvm_test_top.env_h.s_uvc_h.s_agent_h[0].s_drv_h [ID MATCH] aaaaa
# rd data in s drv: 8a000000 , len : 3 , last:0 , valid : 1
# INIDE_SLAVE_MON_CTR=36
# arid in s mon : 41870
# awid in s mon : 810c , awaddr : 304
#                  375wlast : 0
# WID: 53607 , AWID : 53607
# m mon ar id : a38e
# m mon rid : fcf7
# rd data in s drv: 316470ff , len : 3 , last:0 , valid : 1
# awid in s mon : cb7a , awaddr : cc
# INIDE_SLAVE_MON_CTR=37
# arid in s mon : 14176
#                  385wlast : 0
# WID: 53607 , AWID : 53607
# m mon rid : fcf7
# m mon ar id : 3760
# UVM_INFO ../env/m_agent/axi_base_m_seqs.sv(26) @ 385: uvm_test_top.env_h.m_uvc_h.m_agent_h[0].m_seqr_h@@vseqs_h.m_wseqs_h [IN V SEQS] Got B-channel response from driver
# rd data in s drv: 28dd5745 , len : 3 , last:0 , valid : 1
# INIDE_SLAVE_MON_CTR=38
# arid in s mon : 15499
# xyz : 1
# xyz : 2
# xyz : 3
# ** Warning: (vsim-3829) Non-existent associative array entry. Returning default value.
#    Time: 395 ns  Iteration: 2  Process: /axi_s_agent_pkg::axi_s_mon #(32, 32)::monitor/#FORK#35_7fefec40d44 File: ../env/axi_ref_model.sv Line: 78
# xyz : 4
# awid in s mon : 2afe , awaddr : 23a
#                  395wlast : 0
# WID: 53607 , AWID : 53607
# m mon ar id : 3c8b
# m mon rid : fcf7
# ** Warning: (vsim-3829) Non-existent associative array entry. Returning default value.
#    Time: 395 ns  Iteration: 3  Process: /uvm_pkg::uvm_sequence_base::start/#FORK#294_7fefec40a75 File: ../env/s_agent/axi_base_s_seqs.sv Line: 103
# s seqs arid : 15499
# INIDE_SLAVE_SEQ_CTR=10
# match arid : 3c8b , rid : 3c8b
# UVM_INFO ../env/s_agent/axi_s_drv.sv(31) @ 395: uvm_test_top.env_h.s_uvc_h.s_agent_h[0].s_drv_h [ID MATCH] aaaaa
# rd data in s drv: 8092a68c , len : 3 , last:1 , valid : 1
# abc : 1
# abc : 2
# abc : 3
# abc : 4
# xyz : 1
# xyz : 2
# xyz : 3
# xyz : 4
# awid in s mon : 90ac , awaddr : 2a5
# INIDE_SLAVE_MON_CTR=39
# arid in s mon : 29379
#                  405wlast : 1
# AFFTER W CHANNEL
# WID: 17367 , AWID : 17367
# m mon rid : fcf7
# m mon ar id : 72c3
# UVM_INFO ../env/axi_sb.sv(61) @ 405: uvm_test_top.env_h.sb_h [after event in sb] aaaa
# UVM_INFO ../env/axi_sb.sv(74) @ 405: uvm_test_top.env_h.sb_h [SB MATCH] ARID=64759 RID=64759 MATCH! RDATA=2315255808 828666111 685594437 2157094540 (Passes: 9)
# UVM_INFO ../env/axi_sb.sv(59) @ 405: uvm_test_top.env_h.sb_h [before event in sb] aaaa
# match arid : 0 , rid : 0
# UVM_INFO ../env/s_agent/axi_s_drv.sv(31) @ 405: uvm_test_top.env_h.s_uvc_h.s_agent_h[0].s_drv_h [ID MATCH] aaaaa
# s seqs arid : 43156
# INIDE_SLAVE_SEQ_CTR=11
# match arid : a894 , rid : a894
# UVM_INFO ../env/s_agent/axi_s_drv.sv(31) @ 405: uvm_test_top.env_h.s_uvc_h.s_agent_h[0].s_drv_h [ID MATCH] aaaaa
# rd data in s drv: baee7d8 , len : 3 , last:0 , valid : 1
# INIDE_SLAVE_MON_CTR=40
# arid in s mon : 11568
# awid in s mon : b6ce , awaddr : 9
#                  415wlast : 0
# WID: 17367 , AWID : 17367
# m mon ar id : 2d30
# m mon rid : 3c8b
# rd data in s drv: e174315a , len : 3 , last:0 , valid : 1
# awid in s mon : 6ad5 , awaddr : ac
# INIDE_SLAVE_MON_CTR=41
# arid in s mon : 16179
#                  425wlast : 0
# WID: 17367 , AWID : 17367
# m mon rid : 3c8b
# m mon ar id : 3f33
# UVM_INFO ../env/m_agent/axi_base_m_seqs.sv(26) @ 425: uvm_test_top.env_h.m_uvc_h.m_agent_h[0].m_seqr_h@@vseqs_h.m_wseqs_h [IN V SEQS] Got B-channel response from driver
# rd data in s drv: 502c68b6 , len : 3 , last:0 , valid : 1
# INIDE_SLAVE_MON_CTR=42
# arid in s mon : 60092
# awid in s mon : c8cc , awaddr : 181
#                  435wlast : 0
# WID: 17367 , AWID : 17367
# m mon ar id : eabc
# m mon rid : 3c8b
# rd data in s drv: 0 , len : 3 , last:1 , valid : 1
# abc : 1
# abc : 2
# abc : 3
# abc : 4
# xyz : 1
# xyz : 2
# xyz : 3
# xyz : 4
# awid in s mon : 13d6 , awaddr : 195
# INIDE_SLAVE_MON_CTR=43
# arid in s mon : 36315
# xyz : 1
# xyz : 2
# ** Warning: (vsim-3829) Non-existent associative array entry. Returning default value.
#    Time: 445 ns  Iteration: 2  Process: /axi_s_agent_pkg::axi_s_mon #(32, 32)::monitor/#FORK#35_7fefec40d44 File: ../env/axi_ref_model.sv Line: 78
# xyz : 3
# ** Warning: (vsim-3829) Non-existent associative array entry. Returning default value.
#    Time: 445 ns  Iteration: 2  Process: /axi_s_agent_pkg::axi_s_mon #(32, 32)::monitor/#FORK#35_7fefec40d44 File: ../env/axi_ref_model.sv Line: 78
# xyz : 4
#                  445wlast : 1
# AFFTER W CHANNEL
# WID: 23008 , AWID : 23008
# m mon rid : 3c8b
# m mon ar id : 8ddb
# UVM_INFO ../env/axi_sb.sv(61) @ 445: uvm_test_top.env_h.sb_h [after event in sb] aaaa
# UVM_INFO ../env/axi_sb.sv(74) @ 445: uvm_test_top.env_h.sb_h [SB MATCH] ARID=15499 RID=15499 MATCH! RDATA=196011992 3782488410 1345087670 0 (Passes: 10)
# UVM_INFO ../env/axi_sb.sv(59) @ 445: uvm_test_top.env_h.sb_h [before event in sb] aaaa
# match arid : 0 , rid : 0
# UVM_INFO ../env/s_agent/axi_s_drv.sv(31) @ 445: uvm_test_top.env_h.s_uvc_h.s_agent_h[0].s_drv_h [ID MATCH] aaaaa
# s seqs arid : 52439
# INIDE_SLAVE_SEQ_CTR=12
# match arid : ccd7 , rid : ccd7
# UVM_INFO ../env/s_agent/axi_s_drv.sv(31) @ 445: uvm_test_top.env_h.s_uvc_h.s_agent_h[0].s_drv_h [ID MATCH] aaaaa
# ** Warning: (vsim-3829) Non-existent associative array entry. Returning default value.
#    Time: 445 ns  Iteration: 12  Process: /uvm_pkg::uvm_sequence_base::start/#FORK#294_7fefec40a75 File: ../env/s_agent/axi_base_s_seqs.sv Line: 103
# ** Warning: (vsim-3829) Non-existent associative array entry. Returning default value.
#    Time: 445 ns  Iteration: 12  Process: /uvm_pkg::uvm_sequence_base::start/#FORK#294_7fefec40a75 File: ../env/s_agent/axi_base_s_seqs.sv Line: 103
# s seqs arid : 36315
# INIDE_SLAVE_SEQ_CTR=13
# match arid : 8ddb , rid : 8ddb
# UVM_INFO ../env/s_agent/axi_s_drv.sv(31) @ 445: uvm_test_top.env_h.s_uvc_h.s_agent_h[0].s_drv_h [ID MATCH] aaaaa
# rd data in s drv: b3f50000 , len : 3 , last:0 , valid : 1
# INIDE_SLAVE_MON_CTR=44
# arid in s mon : 5087
# awid in s mon : 6a29 , awaddr : 28
#                  455wlast : 0
# WID: 23008 , AWID : 23008
# m mon ar id : 13df
# m mon rid : a894
# rd data in s drv: b5c5d03b , len : 3 , last:0 , valid : 1
# awid in s mon : a989 , awaddr : 273
# INIDE_SLAVE_MON_CTR=45
# arid in s mon : 47476
#                  465wlast : 0
# WID: 23008 , AWID : 23008
# m mon rid : a894
# m mon ar id : b974
# UVM_INFO ../env/m_agent/axi_base_m_seqs.sv(26) @ 465: uvm_test_top.env_h.m_uvc_h.m_agent_h[0].m_seqr_h@@vseqs_h.m_wseqs_h [IN V SEQS] Got B-channel response from driver
# rd data in s drv: 869f0c8e , len : 3 , last:0 , valid : 1
# INIDE_SLAVE_MON_CTR=46
# arid in s mon : 36504
# awid in s mon : 98df , awaddr : 2c0
#                  475wlast : 0
# WID: 23008 , AWID : 23008
# m mon ar id : 8e98
# m mon rid : a894
# rd data in s drv: af45646f , len : 3 , last:1 , valid : 1
# abc : 1
# abc : 2
# abc : 3
# abc : 4
# xyz : 1
# xyz : 2
# xyz : 3
# xyz : 4
# xyz : 5
# xyz : 6
# xyz : 7
# xyz : 8
# awid in s mon : 4b94 , awaddr : 6a
# INIDE_SLAVE_MON_CTR=47
# arid in s mon : 22723
#                  485wlast : 1
# AFFTER W CHANNEL
# WID: 32031 , AWID : 32031
# m mon rid : a894
# m mon ar id : 58c3
# UVM_INFO ../env/axi_sb.sv(61) @ 485: uvm_test_top.env_h.sb_h [after event in sb] aaaa
# UVM_INFO ../env/axi_sb.sv(74) @ 485: uvm_test_top.env_h.sb_h [SB MATCH] ARID=43156 RID=43156 MATCH! RDATA=3019177984 3049639995 2258570382 2940560495 (Passes: 11)
# UVM_INFO ../env/axi_sb.sv(59) @ 485: uvm_test_top.env_h.sb_h [before event in sb] aaaa
# match arid : 0 , rid : 0
# UVM_INFO ../env/s_agent/axi_s_drv.sv(31) @ 485: uvm_test_top.env_h.s_uvc_h.s_agent_h[0].s_drv_h [ID MATCH] aaaaa
# s seqs arid : 4905
# INIDE_SLAVE_SEQ_CTR=14
# match arid : 1329 , rid : 1329
# UVM_INFO ../env/s_agent/axi_s_drv.sv(31) @ 485: uvm_test_top.env_h.s_uvc_h.s_agent_h[0].s_drv_h [ID MATCH] aaaaa
# s seqs arid : 65033
# INIDE_SLAVE_SEQ_CTR=15
# match arid : fe09 , rid : fe09
# UVM_INFO ../env/s_agent/axi_s_drv.sv(31) @ 485: uvm_test_top.env_h.s_uvc_h.s_agent_h[0].s_drv_h [ID MATCH] aaaaa
# rd data in s drv: a1000000 , len : 3 , last:0 , valid : 1
# INIDE_SLAVE_MON_CTR=48
# arid in s mon : 50465
# awid in s mon : 4518 , awaddr : 3b3
#                  495wlast : 0
# WID: 32031 , AWID : 32031
# m mon ar id : c521
# m mon rid : ccd7
# rd data in s drv: 9bd541f3 , len : 3 , last:0 , valid : 1
# awid in s mon : 4e73 , awaddr : 364
# INIDE_SLAVE_MON_CTR=49
# arid in s mon : 9563
#                  505wlast : 0
# WID: 32031 , AWID : 32031
# m mon rid : ccd7
# m mon ar id : 255b
# UVM_INFO ../env/m_agent/axi_base_m_seqs.sv(26) @ 505: uvm_test_top.env_h.m_uvc_h.m_agent_h[0].m_seqr_h@@vseqs_h.m_wseqs_h [IN V SEQS] Got B-channel response from driver
# rd data in s drv: eb2a1de0 , len : 3 , last:0 , valid : 1
# INIDE_SLAVE_MON_CTR=50
# arid in s mon : 12754
#                  515wlast : 0
# WID: 32031 , AWID : 32031
# m mon ar id : 31d2
# m mon rid : ccd7
# rd data in s drv: b51a296e , len : 3 , last:1 , valid : 1
# abc : 1
# abc : 2
# abc : 3
# abc : 4
# xyz : 1
# xyz : 2
# xyz : 3
# xyz : 4
#                  525wlast : 1
# AFFTER W CHANNEL
# WID: 12673 , AWID : 12673
# m mon rid : ccd7
# UVM_INFO ../env/axi_sb.sv(61) @ 525: uvm_test_top.env_h.sb_h [after event in sb] aaaa
# UVM_INFO ../env/axi_sb.sv(74) @ 525: uvm_test_top.env_h.sb_h [SB MATCH] ARID=52439 RID=52439 MATCH! RDATA=2701131776 2614444531 3945405920 3038390638 (Passes: 12)
# UVM_INFO ../env/axi_sb.sv(59) @ 525: uvm_test_top.env_h.sb_h [before event in sb] aaaa
# match arid : 0 , rid : 0
# UVM_INFO ../env/s_agent/axi_s_drv.sv(31) @ 525: uvm_test_top.env_h.s_uvc_h.s_agent_h[0].s_drv_h [ID MATCH] aaaaa
# s seqs arid : 35577
# INIDE_SLAVE_SEQ_CTR=16
# match arid : 8af9 , rid : 8af9
# UVM_INFO ../env/s_agent/axi_s_drv.sv(31) @ 525: uvm_test_top.env_h.s_uvc_h.s_agent_h[0].s_drv_h [ID MATCH] aaaaa
# rd data in s drv: 55d992b7 , len : 3 , last:0 , valid : 1
#                  535wlast : 0
# WID: 12673 , AWID : 12673
# m mon rid : 8ddb
# rd data in s drv: edb2c52b , len : 3 , last:0 , valid : 1
#                  545wlast : 0
# WID: 12673 , AWID : 12673
# m mon rid : 8ddb
# UVM_INFO ../env/m_agent/axi_base_m_seqs.sv(26) @ 545: uvm_test_top.env_h.m_uvc_h.m_agent_h[0].m_seqr_h@@vseqs_h.m_wseqs_h [IN V SEQS] Got B-channel response from driver
# rd data in s drv: 0 , len : 3 , last:0 , valid : 1
#                  555wlast : 0
# WID: 12673 , AWID : 12673
# m mon rid : 8ddb
# rd data in s drv: 0 , len : 3 , last:1 , valid : 1
# abc : 1
# abc : 2
# abc : 3
# abc : 4
# xyz : 1
# xyz : 2
# xyz : 3
# xyz : 4
#                  565wlast : 1
# AFFTER W CHANNEL
# WID: 40425 , AWID : 40425
# m mon rid : 8ddb
# UVM_INFO ../env/axi_sb.sv(61) @ 565: uvm_test_top.env_h.sb_h [after event in sb] aaaa
# UVM_INFO ../env/axi_sb.sv(74) @ 565: uvm_test_top.env_h.sb_h [SB MATCH] ARID=36315 RID=36315 MATCH! RDATA=1440322231 3987916075 0 0 (Passes: 13)
# UVM_INFO ../env/axi_sb.sv(59) @ 565: uvm_test_top.env_h.sb_h [before event in sb] aaaa
# match arid : 0 , rid : 0
# UVM_INFO ../env/s_agent/axi_s_drv.sv(31) @ 565: uvm_test_top.env_h.s_uvc_h.s_agent_h[0].s_drv_h [ID MATCH] aaaaa
# s seqs arid : 25219
# INIDE_SLAVE_SEQ_CTR=17
# match arid : 6283 , rid : 6283
# UVM_INFO ../env/s_agent/axi_s_drv.sv(31) @ 565: uvm_test_top.env_h.s_uvc_h.s_agent_h[0].s_drv_h [ID MATCH] aaaaa
# rd data in s drv: a93a1366 , len : 3 , last:0 , valid : 1
#                  575wlast : 0
# WID: 40425 , AWID : 40425
# m mon rid : 1329
# rd data in s drv: f1c9ee1 , len : 3 , last:0 , valid : 1
#                  585wlast : 0
# WID: 40425 , AWID : 40425
# m mon rid : 1329
# UVM_INFO ../env/m_agent/axi_base_m_seqs.sv(26) @ 585: uvm_test_top.env_h.m_uvc_h.m_agent_h[0].m_seqr_h@@vseqs_h.m_wseqs_h [IN V SEQS] Got B-channel response from driver
# rd data in s drv: b95e5aa2 , len : 3 , last:0 , valid : 1
#                  595wlast : 0
# WID: 40425 , AWID : 40425
# m mon rid : 1329
# rd data in s drv: 27a31541 , len : 3 , last:1 , valid : 1
# abc : 1
# abc : 2
# abc : 3
# abc : 4
# xyz : 1
# xyz : 2
# xyz : 3
# xyz : 4
#                  605wlast : 1
# AFFTER W CHANNEL
# WID: 34571 , AWID : 34571
# m mon rid : 1329
# UVM_INFO ../env/axi_sb.sv(61) @ 605: uvm_test_top.env_h.sb_h [after event in sb] aaaa
# UVM_INFO ../env/axi_sb.sv(74) @ 605: uvm_test_top.env_h.sb_h [SB MATCH] ARID=4905 RID=4905 MATCH! RDATA=2839155558 253533921 3109968546 664999233 (Passes: 14)
# UVM_INFO ../env/axi_sb.sv(59) @ 605: uvm_test_top.env_h.sb_h [before event in sb] aaaa
# match arid : 0 , rid : 0
# UVM_INFO ../env/s_agent/axi_s_drv.sv(31) @ 605: uvm_test_top.env_h.s_uvc_h.s_agent_h[0].s_drv_h [ID MATCH] aaaaa
# s seqs arid : 47995
# INIDE_SLAVE_SEQ_CTR=18
# match arid : bb7b , rid : bb7b
# UVM_INFO ../env/s_agent/axi_s_drv.sv(31) @ 605: uvm_test_top.env_h.s_uvc_h.s_agent_h[0].s_drv_h [ID MATCH] aaaaa
# rd data in s drv: a93a1366 , len : 3 , last:0 , valid : 1
#                  615wlast : 0
# WID: 34571 , AWID : 34571
# m mon rid : fe09
# rd data in s drv: f1c9ee1 , len : 3 , last:0 , valid : 1
#                  625wlast : 0
# WID: 34571 , AWID : 34571
# m mon rid : fe09
# UVM_INFO ../env/m_agent/axi_base_m_seqs.sv(26) @ 625: uvm_test_top.env_h.m_uvc_h.m_agent_h[0].m_seqr_h@@vseqs_h.m_wseqs_h [IN V SEQS] Got B-channel response from driver
# rd data in s drv: b95e5aa2 , len : 3 , last:0 , valid : 1
#                  635wlast : 0
# WID: 34571 , AWID : 34571
# m mon rid : fe09
# rd data in s drv: 27a31541 , len : 3 , last:1 , valid : 1
# abc : 1
# abc : 2
# abc : 3
# abc : 4
# xyz : 1
# xyz : 2
# xyz : 3
# xyz : 4
# xyz : 5
# xyz : 6
# ** Warning: (vsim-3829) Non-existent associative array entry. Returning default value.
#    Time: 645 ns  Iteration: 2  Process: /axi_s_agent_pkg::axi_s_mon #(32, 32)::monitor/#FORK#34_7fefec40d21 File: ../env/axi_ref_model.sv Line: 78
# xyz : 7
# ** Warning: (vsim-3829) Non-existent associative array entry. Returning default value.
#    Time: 645 ns  Iteration: 2  Process: /axi_s_agent_pkg::axi_s_mon #(32, 32)::monitor/#FORK#34_7fefec40d21 File: ../env/axi_ref_model.sv Line: 78
# xyz : 8
#                  645wlast : 1
# AFFTER W CHANNEL
# WID: 3557 , AWID : 3557
# m mon rid : fe09
# UVM_INFO ../env/axi_sb.sv(61) @ 645: uvm_test_top.env_h.sb_h [after event in sb] aaaa
# UVM_INFO ../env/axi_sb.sv(74) @ 645: uvm_test_top.env_h.sb_h [SB MATCH] ARID=65033 RID=65033 MATCH! RDATA=2839155558 253533921 3109968546 664999233 (Passes: 15)
# UVM_INFO ../env/axi_sb.sv(59) @ 645: uvm_test_top.env_h.sb_h [before event in sb] aaaa
# match arid : 0 , rid : 0
# UVM_INFO ../env/s_agent/axi_s_drv.sv(31) @ 645: uvm_test_top.env_h.s_uvc_h.s_agent_h[0].s_drv_h [ID MATCH] aaaaa
# s seqs arid : 51276
# INIDE_SLAVE_SEQ_CTR=19
# match arid : c84c , rid : c84c
# UVM_INFO ../env/s_agent/axi_s_drv.sv(31) @ 645: uvm_test_top.env_h.s_uvc_h.s_agent_h[0].s_drv_h [ID MATCH] aaaaa
# ** Warning: (vsim-3829) Non-existent associative array entry. Returning default value.
#    Time: 645 ns  Iteration: 12  Process: /uvm_pkg::uvm_sequence_base::start/#FORK#294_7fefec40a75 File: ../env/s_agent/axi_base_s_seqs.sv Line: 103
# ** Warning: (vsim-3829) Non-existent associative array entry. Returning default value.
#    Time: 645 ns  Iteration: 12  Process: /uvm_pkg::uvm_sequence_base::start/#FORK#294_7fefec40a75 File: ../env/s_agent/axi_base_s_seqs.sv Line: 103
# s seqs arid : 14176
# INIDE_SLAVE_SEQ_CTR=20
# match arid : 3760 , rid : 3760
# UVM_INFO ../env/s_agent/axi_s_drv.sv(31) @ 645: uvm_test_top.env_h.s_uvc_h.s_agent_h[0].s_drv_h [ID MATCH] aaaaa
# rd data in s drv: 67135d00 , len : 3 , last:0 , valid : 1
#                  655wlast : 0
# WID: 3557 , AWID : 3557
# m mon rid : 8af9
# rd data in s drv: 63ae97a9 , len : 3 , last:0 , valid : 1
#                  665wlast : 0
# WID: 3557 , AWID : 3557
# m mon rid : 8af9
# UVM_INFO ../env/m_agent/axi_base_m_seqs.sv(26) @ 665: uvm_test_top.env_h.m_uvc_h.m_agent_h[0].m_seqr_h@@vseqs_h.m_wseqs_h [IN V SEQS] Got B-channel response from driver
# rd data in s drv: 1bda4650 , len : 3 , last:0 , valid : 1
#                  675wlast : 0
# WID: 3557 , AWID : 3557
# m mon rid : 8af9
# rd data in s drv: 22dc21c3 , len : 3 , last:1 , valid : 1
# abc : 1
# abc : 2
# abc : 3
# abc : 4
# xyz : 1
# xyz : 2
# xyz : 3
# xyz : 4
#                  685wlast : 1
# AFFTER W CHANNEL
# WID: 13717 , AWID : 13717
# m mon rid : 8af9
# UVM_INFO ../env/axi_sb.sv(61) @ 685: uvm_test_top.env_h.sb_h [after event in sb] aaaa
# UVM_INFO ../env/axi_sb.sv(74) @ 685: uvm_test_top.env_h.sb_h [SB MATCH] ARID=35577 RID=35577 MATCH! RDATA=1729322240 1672386473 467289680 584851907 (Passes: 16)
# UVM_INFO ../env/axi_sb.sv(59) @ 685: uvm_test_top.env_h.sb_h [before event in sb] aaaa
# match arid : 0 , rid : 0
# UVM_INFO ../env/s_agent/axi_s_drv.sv(31) @ 685: uvm_test_top.env_h.s_uvc_h.s_agent_h[0].s_drv_h [ID MATCH] aaaaa
# s seqs arid : 44353
# INIDE_SLAVE_SEQ_CTR=21
# match arid : ad41 , rid : ad41
# UVM_INFO ../env/s_agent/axi_s_drv.sv(31) @ 685: uvm_test_top.env_h.s_uvc_h.s_agent_h[0].s_drv_h [ID MATCH] aaaaa
# rd data in s drv: 1caf3200 , len : 3 , last:0 , valid : 1
#                  695wlast : 0
# WID: 13717 , AWID : 13717
# m mon rid : 6283
# rd data in s drv: 62b68558 , len : 3 , last:0 , valid : 1
#                  705wlast : 0
# WID: 13717 , AWID : 13717
# m mon rid : 6283
# UVM_INFO ../env/m_agent/axi_base_m_seqs.sv(26) @ 705: uvm_test_top.env_h.m_uvc_h.m_agent_h[0].m_seqr_h@@vseqs_h.m_wseqs_h [IN V SEQS] Got B-channel response from driver
# rd data in s drv: 346f872e , len : 3 , last:0 , valid : 1
#                  715wlast : 0
# WID: 13717 , AWID : 13717
# m mon rid : 6283
# rd data in s drv: 5172b9cc , len : 3 , last:1 , valid : 1
# abc : 1
# abc : 2
# abc : 3
# abc : 4
# xyz : 1
# xyz : 2
# xyz : 3
# xyz : 4
#                  725wlast : 1
# AFFTER W CHANNEL
# WID: 8568 , AWID : 8568
# m mon rid : 6283
# UVM_INFO ../env/axi_sb.sv(61) @ 725: uvm_test_top.env_h.sb_h [after event in sb] aaaa
# UVM_INFO ../env/axi_sb.sv(74) @ 725: uvm_test_top.env_h.sb_h [SB MATCH] ARID=25219 RID=25219 MATCH! RDATA=481243648 1656128856 879724334 1366473164 (Passes: 17)
# UVM_INFO ../env/axi_sb.sv(59) @ 725: uvm_test_top.env_h.sb_h [before event in sb] aaaa
# match arid : 0 , rid : 0
# UVM_INFO ../env/s_agent/axi_s_drv.sv(31) @ 725: uvm_test_top.env_h.s_uvc_h.s_agent_h[0].s_drv_h [ID MATCH] aaaaa
# s seqs arid : 34273
# INIDE_SLAVE_SEQ_CTR=22
# match arid : 85e1 , rid : 85e1
# UVM_INFO ../env/s_agent/axi_s_drv.sv(31) @ 725: uvm_test_top.env_h.s_uvc_h.s_agent_h[0].s_drv_h [ID MATCH] aaaaa
# rd data in s drv: 9e000000 , len : 3 , last:0 , valid : 1
#                  735wlast : 0
# WID: 8568 , AWID : 8568
# m mon rid : bb7b
# rd data in s drv: 29347435 , len : 3 , last:0 , valid : 1
#                  745wlast : 0
# WID: 8568 , AWID : 8568
# m mon rid : bb7b
# UVM_INFO ../env/m_agent/axi_base_m_seqs.sv(26) @ 745: uvm_test_top.env_h.m_uvc_h.m_agent_h[0].m_seqr_h@@vseqs_h.m_wseqs_h [IN V SEQS] Got B-channel response from driver
# rd data in s drv: 43b9fe37 , len : 3 , last:0 , valid : 1
#                  755wlast : 0
# WID: 8568 , AWID : 8568
# m mon rid : bb7b
# rd data in s drv: 3be473 , len : 3 , last:1 , valid : 1
# abc : 1
# abc : 2
# abc : 3
# abc : 4
# xyz : 1
# xyz : 2
# xyz : 3
# xyz : 4
#                  765wlast : 1
# AFFTER W CHANNEL
# WID: 44422 , AWID : 44422
# m mon rid : bb7b
# UVM_INFO ../env/axi_sb.sv(61) @ 765: uvm_test_top.env_h.sb_h [after event in sb] aaaa
# UVM_INFO ../env/axi_sb.sv(74) @ 765: uvm_test_top.env_h.sb_h [SB MATCH] ARID=47995 RID=47995 MATCH! RDATA=2650800128 691303477 1136262711 3925107 (Passes: 18)
# UVM_INFO ../env/axi_sb.sv(59) @ 765: uvm_test_top.env_h.sb_h [before event in sb] aaaa
# match arid : 0 , rid : 0
# UVM_INFO ../env/s_agent/axi_s_drv.sv(31) @ 765: uvm_test_top.env_h.s_uvc_h.s_agent_h[0].s_drv_h [ID MATCH] aaaaa
# s seqs arid : 40878
# INIDE_SLAVE_SEQ_CTR=23
# match arid : 9fae , rid : 9fae
# UVM_INFO ../env/s_agent/axi_s_drv.sv(31) @ 765: uvm_test_top.env_h.s_uvc_h.s_agent_h[0].s_drv_h [ID MATCH] aaaaa
# rd data in s drv: 8fa30000 , len : 3 , last:0 , valid : 1
#                  775wlast : 0
# WID: 44422 , AWID : 44422
# m mon rid : c84c
# rd data in s drv: 167e33ce , len : 3 , last:0 , valid : 1
#                  785wlast : 0
# WID: 44422 , AWID : 44422
# m mon rid : c84c
# UVM_INFO ../env/m_agent/axi_base_m_seqs.sv(26) @ 785: uvm_test_top.env_h.m_uvc_h.m_agent_h[0].m_seqr_h@@vseqs_h.m_wseqs_h [IN V SEQS] Got B-channel response from driver
# rd data in s drv: c98d86f4 , len : 3 , last:0 , valid : 1
#                  795wlast : 0
# WID: 44422 , AWID : 44422
# m mon rid : c84c
# rd data in s drv: 2e2e080d , len : 3 , last:1 , valid : 1
# abc : 1
# abc : 2
# abc : 3
# abc : 4
#                  805wlast : 1
# AFFTER W CHANNEL
# WID: 65129 , AWID : 65129
# m mon rid : c84c
# UVM_INFO ../env/axi_sb.sv(61) @ 805: uvm_test_top.env_h.sb_h [after event in sb] aaaa
# UVM_INFO ../env/axi_sb.sv(74) @ 805: uvm_test_top.env_h.sb_h [SB MATCH] ARID=51276 RID=51276 MATCH! RDATA=2409824256 377369550 3381495540 774768653 (Passes: 19)
# UVM_INFO ../env/axi_sb.sv(59) @ 805: uvm_test_top.env_h.sb_h [before event in sb] aaaa
# match arid : 0 , rid : 0
# UVM_INFO ../env/s_agent/axi_s_drv.sv(31) @ 805: uvm_test_top.env_h.s_uvc_h.s_agent_h[0].s_drv_h [ID MATCH] aaaaa
# rd data in s drv: c98d86f4 , len : 3 , last:0 , valid : 1
#                  815wlast : 0
# WID: 65129 , AWID : 65129
# m mon rid : 3760
# rd data in s drv: 2e2e080d , len : 3 , last:0 , valid : 1
#                  825wlast : 0
# WID: 65129 , AWID : 65129
# m mon rid : 3760
# UVM_INFO ../env/m_agent/axi_base_m_seqs.sv(26) @ 825: uvm_test_top.env_h.m_uvc_h.m_agent_h[0].m_seqr_h@@vseqs_h.m_wseqs_h [IN V SEQS] Got B-channel response from driver
# rd data in s drv: 0 , len : 3 , last:0 , valid : 1
#                  835wlast : 0
# WID: 65129 , AWID : 65129
# m mon rid : 3760
# rd data in s drv: 0 , len : 3 , last:1 , valid : 1
# abc : 1
# abc : 2
# abc : 3
# abc : 4
# xyz : 1
# xyz : 2
# xyz : 3
# xyz : 4
#                  845wlast : 1
# AFFTER W CHANNEL
# WID: 6012 , AWID : 6012
# m mon rid : 3760
# UVM_INFO ../env/axi_sb.sv(61) @ 845: uvm_test_top.env_h.sb_h [after event in sb] aaaa
# UVM_INFO ../env/axi_sb.sv(74) @ 845: uvm_test_top.env_h.sb_h [SB MATCH] ARID=14176 RID=14176 MATCH! RDATA=3381495540 774768653 0 0 (Passes: 20)
# UVM_INFO ../env/axi_sb.sv(59) @ 845: uvm_test_top.env_h.sb_h [before event in sb] aaaa
# match arid : 0 , rid : 0
# UVM_INFO ../env/s_agent/axi_s_drv.sv(31) @ 845: uvm_test_top.env_h.s_uvc_h.s_agent_h[0].s_drv_h [ID MATCH] aaaaa
# s seqs arid : 39064
# INIDE_SLAVE_SEQ_CTR=24
# match arid : 9898 , rid : 9898
# UVM_INFO ../env/s_agent/axi_s_drv.sv(31) @ 845: uvm_test_top.env_h.s_uvc_h.s_agent_h[0].s_drv_h [ID MATCH] aaaaa
# rd data in s drv: f8000000 , len : 3 , last:0 , valid : 1
#                  855wlast : 0
# WID: 6012 , AWID : 6012
# m mon rid : ad41
# rd data in s drv: c2374bc8 , len : 3 , last:0 , valid : 1
#                  865wlast : 0
# WID: 6012 , AWID : 6012
# m mon rid : ad41
# UVM_INFO ../env/m_agent/axi_base_m_seqs.sv(26) @ 865: uvm_test_top.env_h.m_uvc_h.m_agent_h[0].m_seqr_h@@vseqs_h.m_wseqs_h [IN V SEQS] Got B-channel response from driver
# rd data in s drv: 38d4c252 , len : 3 , last:0 , valid : 1
#                  875wlast : 0
# WID: 6012 , AWID : 6012
# m mon rid : ad41
# rd data in s drv: d10bfa61 , len : 3 , last:1 , valid : 1
# abc : 1
# abc : 2
# abc : 3
# abc : 4
# xyz : 1
# xyz : 2
# xyz : 3
# xyz : 4
#                  885wlast : 1
# AFFTER W CHANNEL
# WID: 26141 , AWID : 26141
# m mon rid : ad41
# UVM_INFO ../env/axi_sb.sv(61) @ 885: uvm_test_top.env_h.sb_h [after event in sb] aaaa
# UVM_INFO ../env/axi_sb.sv(74) @ 885: uvm_test_top.env_h.sb_h [SB MATCH] ARID=44353 RID=44353 MATCH! RDATA=4160749568 3258403784 953467474 3507223137 (Passes: 21)
# UVM_INFO ../env/axi_sb.sv(59) @ 885: uvm_test_top.env_h.sb_h [before event in sb] aaaa
# match arid : 0 , rid : 0
# UVM_INFO ../env/s_agent/axi_s_drv.sv(31) @ 885: uvm_test_top.env_h.s_uvc_h.s_agent_h[0].s_drv_h [ID MATCH] aaaaa
# s seqs arid : 62773
# INIDE_SLAVE_SEQ_CTR=25
# match arid : f535 , rid : f535
# UVM_INFO ../env/s_agent/axi_s_drv.sv(31) @ 885: uvm_test_top.env_h.s_uvc_h.s_agent_h[0].s_drv_h [ID MATCH] aaaaa
# rd data in s drv: 194e0000 , len : 3 , last:0 , valid : 1
#                  895wlast : 0
# WID: 26141 , AWID : 26141
# m mon rid : 85e1
# rd data in s drv: 55ae3a3a , len : 3 , last:0 , valid : 1
#                  905wlast : 0
# WID: 26141 , AWID : 26141
# m mon rid : 85e1
# UVM_INFO ../env/m_agent/axi_base_m_seqs.sv(26) @ 905: uvm_test_top.env_h.m_uvc_h.m_agent_h[0].m_seqr_h@@vseqs_h.m_wseqs_h [IN V SEQS] Got B-channel response from driver
# rd data in s drv: 98339ceb , len : 3 , last:0 , valid : 1
#                  915wlast : 0
# WID: 26141 , AWID : 26141
# m mon rid : 85e1
# rd data in s drv: 2bbfbc60 , len : 3 , last:1 , valid : 1
# abc : 1
# abc : 2
# abc : 3
# abc : 4
# xyz : 1
# xyz : 2
# xyz : 3
# xyz : 4
#                  925wlast : 1
# AFFTER W CHANNEL
# WID: 59295 , AWID : 59295
# m mon rid : 85e1
# UVM_INFO ../env/axi_sb.sv(61) @ 925: uvm_test_top.env_h.sb_h [after event in sb] aaaa
# UVM_INFO ../env/axi_sb.sv(74) @ 925: uvm_test_top.env_h.sb_h [SB MATCH] ARID=34273 RID=34273 MATCH! RDATA=424542208 1437481530 2553519339 733985888 (Passes: 22)
# UVM_INFO ../env/axi_sb.sv(59) @ 925: uvm_test_top.env_h.sb_h [before event in sb] aaaa
# match arid : 0 , rid : 0
# UVM_INFO ../env/s_agent/axi_s_drv.sv(31) @ 925: uvm_test_top.env_h.s_uvc_h.s_agent_h[0].s_drv_h [ID MATCH] aaaaa
# s seqs arid : 60350
# INIDE_SLAVE_SEQ_CTR=26
# match arid : ebbe , rid : ebbe
# UVM_INFO ../env/s_agent/axi_s_drv.sv(31) @ 925: uvm_test_top.env_h.s_uvc_h.s_agent_h[0].s_drv_h [ID MATCH] aaaaa
# rd data in s drv: efe6ee00 , len : 3 , last:0 , valid : 1
#                  935wlast : 0
# WID: 59295 , AWID : 59295
# m mon rid : 9fae
# rd data in s drv: 83d11aa2 , len : 3 , last:0 , valid : 1
#                  945wlast : 0
# WID: 59295 , AWID : 59295
# m mon rid : 9fae
# UVM_INFO ../env/m_agent/axi_base_m_seqs.sv(26) @ 945: uvm_test_top.env_h.m_uvc_h.m_agent_h[0].m_seqr_h@@vseqs_h.m_wseqs_h [IN V SEQS] Got B-channel response from driver
# rd data in s drv: 489eab56 , len : 3 , last:0 , valid : 1
#                  955wlast : 0
# WID: 59295 , AWID : 59295
# m mon rid : 9fae
# rd data in s drv: e3dafdae , len : 3 , last:1 , valid : 1
# abc : 1
# abc : 2
# abc : 3
# abc : 4
# xyz : 1
# xyz : 2
# xyz : 3
# xyz : 4
#                  965wlast : 1
# AFFTER W CHANNEL
# WID: 23954 , AWID : 23954
# m mon rid : 9fae
# UVM_INFO ../env/axi_sb.sv(61) @ 965: uvm_test_top.env_h.sb_h [after event in sb] aaaa
# UVM_INFO ../env/axi_sb.sv(74) @ 965: uvm_test_top.env_h.sb_h [SB MATCH] ARID=40878 RID=40878 MATCH! RDATA=4024888832 2211519138 1218358102 3822779822 (Passes: 23)
# UVM_INFO ../env/axi_sb.sv(59) @ 965: uvm_test_top.env_h.sb_h [before event in sb] aaaa
# match arid : 0 , rid : 0
# UVM_INFO ../env/s_agent/axi_s_drv.sv(31) @ 965: uvm_test_top.env_h.s_uvc_h.s_agent_h[0].s_drv_h [ID MATCH] aaaaa
# s seqs arid : 45043
# INIDE_SLAVE_SEQ_CTR=27
# match arid : aff3 , rid : aff3
# UVM_INFO ../env/s_agent/axi_s_drv.sv(31) @ 965: uvm_test_top.env_h.s_uvc_h.s_agent_h[0].s_drv_h [ID MATCH] aaaaa
# rd data in s drv: d48e2600 , len : 3 , last:0 , valid : 1
#                  975wlast : 0
# WID: 23954 , AWID : 23954
# m mon rid : 9898
# rd data in s drv: 8fdf6496 , len : 3 , last:0 , valid : 1
#                  985wlast : 0
# WID: 23954 , AWID : 23954
# m mon rid : 9898
# UVM_INFO ../env/m_agent/axi_base_m_seqs.sv(26) @ 985: uvm_test_top.env_h.m_uvc_h.m_agent_h[0].m_seqr_h@@vseqs_h.m_wseqs_h [IN V SEQS] Got B-channel response from driver
# rd data in s drv: 948f84bc , len : 3 , last:0 , valid : 1
#                  995wlast : 0
# WID: 23954 , AWID : 23954
# m mon rid : 9898
# rd data in s drv: d1fa8698 , len : 3 , last:1 , valid : 1
# abc : 1
# abc : 2
# abc : 3
# abc : 4
# xyz : 1
# xyz : 2
# xyz : 3
# xyz : 4
#                 1005wlast : 1
# AFFTER W CHANNEL
# WID: 29878 , AWID : 29878
# m mon rid : 9898
# UVM_INFO ../env/axi_sb.sv(61) @ 1005: uvm_test_top.env_h.sb_h [after event in sb] aaaa
# UVM_INFO ../env/axi_sb.sv(74) @ 1005: uvm_test_top.env_h.sb_h [SB MATCH] ARID=39064 RID=39064 MATCH! RDATA=3566085632 2413782166 2492433596 3522856600 (Passes: 24)
# UVM_INFO ../env/axi_sb.sv(59) @ 1005: uvm_test_top.env_h.sb_h [before event in sb] aaaa
# match arid : 0 , rid : 0
# UVM_INFO ../env/s_agent/axi_s_drv.sv(31) @ 1005: uvm_test_top.env_h.s_uvc_h.s_agent_h[0].s_drv_h [ID MATCH] aaaaa
# s seqs arid : 15796
# INIDE_SLAVE_SEQ_CTR=28
# match arid : 3db4 , rid : 3db4
# UVM_INFO ../env/s_agent/axi_s_drv.sv(31) @ 1005: uvm_test_top.env_h.s_uvc_h.s_agent_h[0].s_drv_h [ID MATCH] aaaaa
# rd data in s drv: 8e20000 , len : 3 , last:0 , valid : 1
#                 1015wlast : 0
# WID: 29878 , AWID : 29878
# m mon rid : f535
# rd data in s drv: e2de1c47 , len : 3 , last:0 , valid : 1
#                 1025wlast : 0
# WID: 29878 , AWID : 29878
# m mon rid : f535
# UVM_INFO ../env/m_agent/axi_base_m_seqs.sv(26) @ 1025: uvm_test_top.env_h.m_uvc_h.m_agent_h[0].m_seqr_h@@vseqs_h.m_wseqs_h [IN V SEQS] Got B-channel response from driver
# rd data in s drv: db900cc0 , len : 3 , last:0 , valid : 1
#                 1035wlast : 0
# WID: 29878 , AWID : 29878
# m mon rid : f535
# rd data in s drv: 50435ffc , len : 3 , last:1 , valid : 1
# abc : 1
# abc : 2
# abc : 3
# abc : 4
# xyz : 1
# xyz : 2
# xyz : 3
# xyz : 4
#                 1045wlast : 1
# AFFTER W CHANNEL
# WID: 10880 , AWID : 10880
# m mon rid : f535
# UVM_INFO ../env/axi_sb.sv(61) @ 1045: uvm_test_top.env_h.sb_h [after event in sb] aaaa
# UVM_INFO ../env/axi_sb.sv(74) @ 1045: uvm_test_top.env_h.sb_h [SB MATCH] ARID=62773 RID=62773 MATCH! RDATA=149028864 3806207047 3683650752 1346592764 (Passes: 25)
# UVM_INFO ../env/axi_sb.sv(59) @ 1045: uvm_test_top.env_h.sb_h [before event in sb] aaaa
# match arid : 0 , rid : 0
# UVM_INFO ../env/s_agent/axi_s_drv.sv(31) @ 1045: uvm_test_top.env_h.s_uvc_h.s_agent_h[0].s_drv_h [ID MATCH] aaaaa
# s seqs arid : 64427
# INIDE_SLAVE_SEQ_CTR=29
# match arid : fbab , rid : fbab
# UVM_INFO ../env/s_agent/axi_s_drv.sv(31) @ 1045: uvm_test_top.env_h.s_uvc_h.s_agent_h[0].s_drv_h [ID MATCH] aaaaa
# rd data in s drv: 57e01e0e , len : 3 , last:0 , valid : 1
#                 1055wlast : 0
# WID: 10880 , AWID : 10880
# m mon rid : ebbe
# rd data in s drv: c61a22ea , len : 3 , last:0 , valid : 1
#                 1065wlast : 0
# WID: 10880 , AWID : 10880
# m mon rid : ebbe
# UVM_INFO ../env/m_agent/axi_base_m_seqs.sv(26) @ 1065: uvm_test_top.env_h.m_uvc_h.m_agent_h[0].m_seqr_h@@vseqs_h.m_wseqs_h [IN V SEQS] Got B-channel response from driver
# rd data in s drv: f6be4664 , len : 3 , last:0 , valid : 1
#                 1075wlast : 0
# WID: 10880 , AWID : 10880
# m mon rid : ebbe
# rd data in s drv: 437ddebe , len : 3 , last:1 , valid : 1
# abc : 1
# abc : 2
# abc : 3
# abc : 4
# xyz : 1
# xyz : 2
# xyz : 3
# xyz : 4
#                 1085wlast : 1
# AFFTER W CHANNEL
# WID: 8187 , AWID : 8187
# m mon rid : ebbe
# UVM_INFO ../env/axi_sb.sv(61) @ 1085: uvm_test_top.env_h.sb_h [after event in sb] aaaa
# UVM_INFO ../env/axi_sb.sv(74) @ 1085: uvm_test_top.env_h.sb_h [SB MATCH] ARID=60350 RID=60350 MATCH! RDATA=1474305550 3323601642 4139664996 1132322494 (Passes: 26)
# UVM_INFO ../env/axi_sb.sv(59) @ 1085: uvm_test_top.env_h.sb_h [before event in sb] aaaa
# match arid : 0 , rid : 0
# UVM_INFO ../env/s_agent/axi_s_drv.sv(31) @ 1085: uvm_test_top.env_h.s_uvc_h.s_agent_h[0].s_drv_h [ID MATCH] aaaaa
# s seqs arid : 15132
# INIDE_SLAVE_SEQ_CTR=30
# match arid : 3b1c , rid : 3b1c
# UVM_INFO ../env/s_agent/axi_s_drv.sv(31) @ 1085: uvm_test_top.env_h.s_uvc_h.s_agent_h[0].s_drv_h [ID MATCH] aaaaa
# rd data in s drv: 9a338bb3 , len : 3 , last:0 , valid : 1
#                 1095wlast : 0
# WID: 8187 , AWID : 8187
# m mon rid : aff3
# rd data in s drv: 86b7504d , len : 3 , last:0 , valid : 1
#                 1105wlast : 0
# WID: 8187 , AWID : 8187
# m mon rid : aff3
# UVM_INFO ../env/m_agent/axi_base_m_seqs.sv(26) @ 1105: uvm_test_top.env_h.m_uvc_h.m_agent_h[0].m_seqr_h@@vseqs_h.m_wseqs_h [IN V SEQS] Got B-channel response from driver
# rd data in s drv: a97bcad2 , len : 3 , last:0 , valid : 1
#                 1115wlast : 0
# WID: 8187 , AWID : 8187
# m mon rid : aff3
# rd data in s drv: b365884c , len : 3 , last:1 , valid : 1
# abc : 1
# abc : 2
# abc : 3
# abc : 4
# xyz : 1
# xyz : 2
# xyz : 3
# xyz : 4
#                 1125wlast : 1
# AFFTER W CHANNEL
# WID: 17206 , AWID : 17206
# m mon rid : aff3
# UVM_INFO ../env/axi_sb.sv(61) @ 1125: uvm_test_top.env_h.sb_h [after event in sb] aaaa
# UVM_INFO ../env/axi_sb.sv(74) @ 1125: uvm_test_top.env_h.sb_h [SB MATCH] ARID=45043 RID=45043 MATCH! RDATA=2587069363 2260160589 2843462354 3009775692 (Passes: 27)
# UVM_INFO ../env/axi_sb.sv(59) @ 1125: uvm_test_top.env_h.sb_h [before event in sb] aaaa
# match arid : 0 , rid : 0
# UVM_INFO ../env/s_agent/axi_s_drv.sv(31) @ 1125: uvm_test_top.env_h.s_uvc_h.s_agent_h[0].s_drv_h [ID MATCH] aaaaa
# s seqs arid : 25003
# INIDE_SLAVE_SEQ_CTR=31
# match arid : 61ab , rid : 61ab
# UVM_INFO ../env/s_agent/axi_s_drv.sv(31) @ 1125: uvm_test_top.env_h.s_uvc_h.s_agent_h[0].s_drv_h [ID MATCH] aaaaa
# rd data in s drv: db000000 , len : 3 , last:0 , valid : 1
#                 1135wlast : 0
# WID: 17206 , AWID : 17206
# m mon rid : 3db4
# rd data in s drv: a5565310 , len : 3 , last:0 , valid : 1
#                 1145wlast : 0
# WID: 17206 , AWID : 17206
# m mon rid : 3db4
# UVM_INFO ../env/m_agent/axi_base_m_seqs.sv(26) @ 1145: uvm_test_top.env_h.m_uvc_h.m_agent_h[0].m_seqr_h@@vseqs_h.m_wseqs_h [IN V SEQS] Got B-channel response from driver
# rd data in s drv: affeddb5 , len : 3 , last:0 , valid : 1
#                 1155wlast : 0
# WID: 17206 , AWID : 17206
# m mon rid : 3db4
# rd data in s drv: 7f9f11df , len : 3 , last:1 , valid : 1
# abc : 1
# abc : 2
# abc : 3
# abc : 4
# xyz : 1
# xyz : 2
# xyz : 3
# xyz : 4
#                 1165wlast : 1
# AFFTER W CHANNEL
# WID: 10359 , AWID : 10359
# m mon rid : 3db4
# UVM_INFO ../env/axi_sb.sv(61) @ 1165: uvm_test_top.env_h.sb_h [after event in sb] aaaa
# UVM_INFO ../env/axi_sb.sv(74) @ 1165: uvm_test_top.env_h.sb_h [SB MATCH] ARID=15796 RID=15796 MATCH! RDATA=3674210304 2773898000 2952715701 2141131231 (Passes: 28)
# UVM_INFO ../env/axi_sb.sv(59) @ 1165: uvm_test_top.env_h.sb_h [before event in sb] aaaa
# match arid : 0 , rid : 0
# UVM_INFO ../env/s_agent/axi_s_drv.sv(31) @ 1165: uvm_test_top.env_h.s_uvc_h.s_agent_h[0].s_drv_h [ID MATCH] aaaaa
# s seqs arid : 51408
# INIDE_SLAVE_SEQ_CTR=32
# match arid : c8d0 , rid : c8d0
# UVM_INFO ../env/s_agent/axi_s_drv.sv(31) @ 1165: uvm_test_top.env_h.s_uvc_h.s_agent_h[0].s_drv_h [ID MATCH] aaaaa
# rd data in s drv: 96280000 , len : 3 , last:0 , valid : 1
#                 1175wlast : 0
# WID: 10359 , AWID : 10359
# m mon rid : fbab
# rd data in s drv: ce5fb8ab , len : 3 , last:0 , valid : 1
#                 1185wlast : 0
# WID: 10359 , AWID : 10359
# m mon rid : fbab
# UVM_INFO ../env/m_agent/axi_base_m_seqs.sv(26) @ 1185: uvm_test_top.env_h.m_uvc_h.m_agent_h[0].m_seqr_h@@vseqs_h.m_wseqs_h [IN V SEQS] Got B-channel response from driver
# rd data in s drv: 476e8e07 , len : 3 , last:0 , valid : 1
#                 1195wlast : 0
# WID: 10359 , AWID : 10359
# m mon rid : fbab
# rd data in s drv: c87e607f , len : 3 , last:1 , valid : 1
# abc : 1
# abc : 2
# abc : 3
# abc : 4
# xyz : 1
# xyz : 2
# xyz : 3
# xyz : 4
#                 1205wlast : 1
# AFFTER W CHANNEL
# WID: 857 , AWID : 857
# m mon rid : fbab
# UVM_INFO ../env/axi_sb.sv(61) @ 1205: uvm_test_top.env_h.sb_h [after event in sb] aaaa
# UVM_INFO ../env/axi_sb.sv(74) @ 1205: uvm_test_top.env_h.sb_h [SB MATCH] ARID=64427 RID=64427 MATCH! RDATA=2519203840 3462379691 1198427655 3363725439 (Passes: 29)
# UVM_INFO ../env/axi_sb.sv(59) @ 1205: uvm_test_top.env_h.sb_h [before event in sb] aaaa
# match arid : 0 , rid : 0
# UVM_INFO ../env/s_agent/axi_s_drv.sv(31) @ 1205: uvm_test_top.env_h.s_uvc_h.s_agent_h[0].s_drv_h [ID MATCH] aaaaa
# s seqs arid : 29970
# INIDE_SLAVE_SEQ_CTR=33
# match arid : 7512 , rid : 7512
# UVM_INFO ../env/s_agent/axi_s_drv.sv(31) @ 1205: uvm_test_top.env_h.s_uvc_h.s_agent_h[0].s_drv_h [ID MATCH] aaaaa
# rd data in s drv: 2000000 , len : 3 , last:0 , valid : 1
#                 1215wlast : 0
# WID: 857 , AWID : 857
# m mon rid : 3b1c
# rd data in s drv: cf1f676d , len : 3 , last:0 , valid : 1
#                 1225wlast : 0
# WID: 857 , AWID : 857
# m mon rid : 3b1c
# UVM_INFO ../env/m_agent/axi_base_m_seqs.sv(26) @ 1225: uvm_test_top.env_h.m_uvc_h.m_agent_h[0].m_seqr_h@@vseqs_h.m_wseqs_h [IN V SEQS] Got B-channel response from driver
# rd data in s drv: 502dab8a , len : 3 , last:0 , valid : 1
#                 1235wlast : 0
# WID: 857 , AWID : 857
# m mon rid : 3b1c
# rd data in s drv: aee101a , len : 3 , last:1 , valid : 1
# abc : 1
# abc : 2
# abc : 3
# abc : 4
# xyz : 1
# xyz : 2
# xyz : 3
# xyz : 4
#                 1245wlast : 1
# AFFTER W CHANNEL
# WID: 14014 , AWID : 14014
# m mon rid : 3b1c
# UVM_INFO ../env/axi_sb.sv(61) @ 1245: uvm_test_top.env_h.sb_h [after event in sb] aaaa
# UVM_INFO ../env/axi_sb.sv(74) @ 1245: uvm_test_top.env_h.sb_h [SB MATCH] ARID=15132 RID=15132 MATCH! RDATA=33554432 3474941805 1345170314 183373850 (Passes: 30)
# UVM_INFO ../env/axi_sb.sv(59) @ 1245: uvm_test_top.env_h.sb_h [before event in sb] aaaa
# match arid : 0 , rid : 0
# UVM_INFO ../env/s_agent/axi_s_drv.sv(31) @ 1245: uvm_test_top.env_h.s_uvc_h.s_agent_h[0].s_drv_h [ID MATCH] aaaaa
# s seqs arid : 11395
# INIDE_SLAVE_SEQ_CTR=34
# match arid : 2c83 , rid : 2c83
# UVM_INFO ../env/s_agent/axi_s_drv.sv(31) @ 1245: uvm_test_top.env_h.s_uvc_h.s_agent_h[0].s_drv_h [ID MATCH] aaaaa
# rd data in s drv: c0000000 , len : 3 , last:0 , valid : 1
#                 1255wlast : 0
# WID: 14014 , AWID : 14014
# m mon rid : 61ab
# rd data in s drv: 73a7f155 , len : 3 , last:0 , valid : 1
#                 1265wlast : 0
# WID: 14014 , AWID : 14014
# m mon rid : 61ab
# UVM_INFO ../env/m_agent/axi_base_m_seqs.sv(26) @ 1265: uvm_test_top.env_h.m_uvc_h.m_agent_h[0].m_seqr_h@@vseqs_h.m_wseqs_h [IN V SEQS] Got B-channel response from driver
# rd data in s drv: bf796793 , len : 3 , last:0 , valid : 1
#                 1275wlast : 0
# WID: 14014 , AWID : 14014
# m mon rid : 61ab
# rd data in s drv: 4f00fd62 , len : 3 , last:1 , valid : 1
# abc : 1
# abc : 2
# abc : 3
# abc : 4
# xyz : 1
# xyz : 2
# xyz : 3
# xyz : 4
# xyz : 5
# xyz : 6
# xyz : 7
# ** Warning: (vsim-3829) Non-existent associative array entry. Returning default value.
#    Time: 1285 ns  Iteration: 2  Process: /axi_s_agent_pkg::axi_s_mon #(32, 32)::monitor/#FORK#34_7fefec40d21 File: ../env/axi_ref_model.sv Line: 78
# xyz : 8
#                 1285wlast : 1
# AFFTER W CHANNEL
# WID: 12583 , AWID : 12583
# m mon rid : 61ab
# UVM_INFO ../env/axi_sb.sv(61) @ 1285: uvm_test_top.env_h.sb_h [after event in sb] aaaa
# UVM_INFO ../env/axi_sb.sv(74) @ 1285: uvm_test_top.env_h.sb_h [SB MATCH] ARID=25003 RID=25003 MATCH! RDATA=3221225472 1940386133 3212404627 1325464930 (Passes: 31)
# UVM_INFO ../env/axi_sb.sv(59) @ 1285: uvm_test_top.env_h.sb_h [before event in sb] aaaa
# match arid : 0 , rid : 0
# UVM_INFO ../env/s_agent/axi_s_drv.sv(31) @ 1285: uvm_test_top.env_h.s_uvc_h.s_agent_h[0].s_drv_h [ID MATCH] aaaaa
# s seqs arid : 43166
# INIDE_SLAVE_SEQ_CTR=35
# match arid : a89e , rid : a89e
# UVM_INFO ../env/s_agent/axi_s_drv.sv(31) @ 1285: uvm_test_top.env_h.s_uvc_h.s_agent_h[0].s_drv_h [ID MATCH] aaaaa
# ** Warning: (vsim-3829) Non-existent associative array entry. Returning default value.
#    Time: 1285 ns  Iteration: 12  Process: /uvm_pkg::uvm_sequence_base::start/#FORK#294_7fefec40a75 File: ../env/s_agent/axi_base_s_seqs.sv Line: 103
# s seqs arid : 12754
# INIDE_SLAVE_SEQ_CTR=36
# match arid : 31d2 , rid : 31d2
# UVM_INFO ../env/s_agent/axi_s_drv.sv(31) @ 1285: uvm_test_top.env_h.s_uvc_h.s_agent_h[0].s_drv_h [ID MATCH] aaaaa
# rd data in s drv: efca0000 , len : 3 , last:0 , valid : 1
#                 1295wlast : 0
# WID: 12583 , AWID : 12583
# m mon rid : c8d0
# rd data in s drv: d90a2ccc , len : 3 , last:0 , valid : 1
#                 1305wlast : 0
# WID: 12583 , AWID : 12583
# m mon rid : c8d0
# UVM_INFO ../env/m_agent/axi_base_m_seqs.sv(26) @ 1305: uvm_test_top.env_h.m_uvc_h.m_agent_h[0].m_seqr_h@@vseqs_h.m_wseqs_h [IN V SEQS] Got B-channel response from driver
# rd data in s drv: 3e39828c , len : 3 , last:0 , valid : 1
#                 1315wlast : 0
# WID: 12583 , AWID : 12583
# m mon rid : c8d0
# rd data in s drv: b8949cb7 , len : 3 , last:1 , valid : 1
# abc : 1
# abc : 2
# abc : 3
# abc : 4
# xyz : 1
# xyz : 2
# xyz : 3
# xyz : 4
# xyz : 5
# xyz : 6
# xyz : 7
# ** Warning: (vsim-3829) Non-existent associative array entry. Returning default value.
#    Time: 1325 ns  Iteration: 2  Process: /axi_s_agent_pkg::axi_s_mon #(32, 32)::monitor/#FORK#34_7fefec40d21 File: ../env/axi_ref_model.sv Line: 78
# xyz : 8
#                 1325wlast : 1
# AFFTER W CHANNEL
# WID: 21072 , AWID : 21072
# m mon rid : c8d0
# UVM_INFO ../env/axi_sb.sv(61) @ 1325: uvm_test_top.env_h.sb_h [after event in sb] aaaa
# UVM_INFO ../env/axi_sb.sv(74) @ 1325: uvm_test_top.env_h.sb_h [SB MATCH] ARID=51408 RID=51408 MATCH! RDATA=4022992896 3641322700 1043956364 3096747191 (Passes: 32)
# UVM_INFO ../env/axi_sb.sv(59) @ 1325: uvm_test_top.env_h.sb_h [before event in sb] aaaa
# match arid : 0 , rid : 0
# UVM_INFO ../env/s_agent/axi_s_drv.sv(31) @ 1325: uvm_test_top.env_h.s_uvc_h.s_agent_h[0].s_drv_h [ID MATCH] aaaaa
# s seqs arid : 11187
# INIDE_SLAVE_SEQ_CTR=37
# match arid : 2bb3 , rid : 2bb3
# UVM_INFO ../env/s_agent/axi_s_drv.sv(31) @ 1325: uvm_test_top.env_h.s_uvc_h.s_agent_h[0].s_drv_h [ID MATCH] aaaaa
# ** Warning: (vsim-3829) Non-existent associative array entry. Returning default value.
#    Time: 1325 ns  Iteration: 12  Process: /uvm_pkg::uvm_sequence_base::start/#FORK#294_7fefec40a75 File: ../env/s_agent/axi_base_s_seqs.sv Line: 103
# s seqs arid : 9563
# INIDE_SLAVE_SEQ_CTR=38
# match arid : 255b , rid : 255b
# UVM_INFO ../env/s_agent/axi_s_drv.sv(31) @ 1325: uvm_test_top.env_h.s_uvc_h.s_agent_h[0].s_drv_h [ID MATCH] aaaaa
# rd data in s drv: bf000000 , len : 3 , last:0 , valid : 1
#                 1335wlast : 0
# WID: 21072 , AWID : 21072
# m mon rid : 7512
# rd data in s drv: 5c22a82a , len : 3 , last:0 , valid : 1
#                 1345wlast : 0
# WID: 21072 , AWID : 21072
# m mon rid : 7512
# UVM_INFO ../env/m_agent/axi_base_m_seqs.sv(26) @ 1345: uvm_test_top.env_h.m_uvc_h.m_agent_h[0].m_seqr_h@@vseqs_h.m_wseqs_h [IN V SEQS] Got B-channel response from driver
# rd data in s drv: 17d9543d , len : 3 , last:0 , valid : 1
#                 1355wlast : 0
# WID: 21072 , AWID : 21072
# m mon rid : 7512
# rd data in s drv: 7cb0c74f , len : 3 , last:1 , valid : 1
# abc : 1
# abc : 2
# abc : 3
# abc : 4
# xyz : 1
# xyz : 2
# xyz : 3
# xyz : 4
#                 1365wlast : 1
# AFFTER W CHANNEL
# WID: 12011 , AWID : 12011
# m mon rid : 7512
# UVM_INFO ../env/axi_sb.sv(61) @ 1365: uvm_test_top.env_h.sb_h [after event in sb] aaaa
# UVM_INFO ../env/axi_sb.sv(74) @ 1365: uvm_test_top.env_h.sb_h [SB MATCH] ARID=29970 RID=29970 MATCH! RDATA=3204448256 1545775146 400118845 2091960143 (Passes: 33)
# UVM_INFO ../env/axi_sb.sv(59) @ 1365: uvm_test_top.env_h.sb_h [before event in sb] aaaa
# match arid : 0 , rid : 0
# UVM_INFO ../env/s_agent/axi_s_drv.sv(31) @ 1365: uvm_test_top.env_h.s_uvc_h.s_agent_h[0].s_drv_h [ID MATCH] aaaaa
# s seqs arid : 5180
# INIDE_SLAVE_SEQ_CTR=39
# match arid : 143c , rid : 143c
# UVM_INFO ../env/s_agent/axi_s_drv.sv(31) @ 1365: uvm_test_top.env_h.s_uvc_h.s_agent_h[0].s_drv_h [ID MATCH] aaaaa
# rd data in s drv: 79000000 , len : 3 , last:0 , valid : 1
#                 1375wlast : 0
# WID: 12011 , AWID : 12011
# m mon rid : 2c83
# rd data in s drv: 28ab3b47 , len : 3 , last:0 , valid : 1
#                 1385wlast : 0
# WID: 12011 , AWID : 12011
# m mon rid : 2c83
# UVM_INFO ../env/m_agent/axi_base_m_seqs.sv(26) @ 1385: uvm_test_top.env_h.m_uvc_h.m_agent_h[0].m_seqr_h@@vseqs_h.m_wseqs_h [IN V SEQS] Got B-channel response from driver
# rd data in s drv: 1734046b , len : 3 , last:0 , valid : 1
#                 1395wlast : 0
# WID: 12011 , AWID : 12011
# m mon rid : 2c83
# rd data in s drv: dd4d13b4 , len : 3 , last:1 , valid : 1
# abc : 1
# abc : 2
# abc : 3
# abc : 4
# xyz : 1
# xyz : 2
# xyz : 3
# xyz : 4
#                 1405wlast : 1
# AFFTER W CHANNEL
# WID: 11344 , AWID : 11344
# m mon rid : 2c83
# UVM_INFO ../env/axi_sb.sv(61) @ 1405: uvm_test_top.env_h.sb_h [after event in sb] aaaa
# UVM_INFO ../env/axi_sb.sv(74) @ 1405: uvm_test_top.env_h.sb_h [SB MATCH] ARID=11395 RID=11395 MATCH! RDATA=2030043136 682310471 389284971 3712816052 (Passes: 34)
# UVM_INFO ../env/axi_sb.sv(59) @ 1405: uvm_test_top.env_h.sb_h [before event in sb] aaaa
# match arid : 0 , rid : 0
# UVM_INFO ../env/s_agent/axi_s_drv.sv(31) @ 1405: uvm_test_top.env_h.s_uvc_h.s_agent_h[0].s_drv_h [ID MATCH] aaaaa
# s seqs arid : 33047
# INIDE_SLAVE_SEQ_CTR=40
# match arid : 8117 , rid : 8117
# UVM_INFO ../env/s_agent/axi_s_drv.sv(31) @ 1405: uvm_test_top.env_h.s_uvc_h.s_agent_h[0].s_drv_h [ID MATCH] aaaaa
# rd data in s drv: f3000000 , len : 3 , last:0 , valid : 1
#                 1415wlast : 0
# WID: 11344 , AWID : 11344
# m mon rid : a89e
# rd data in s drv: 94eb1e7c , len : 3 , last:0 , valid : 1
#                 1425wlast : 0
# WID: 11344 , AWID : 11344
# m mon rid : a89e
# UVM_INFO ../env/m_agent/axi_base_m_seqs.sv(26) @ 1425: uvm_test_top.env_h.m_uvc_h.m_agent_h[0].m_seqr_h@@vseqs_h.m_wseqs_h [IN V SEQS] Got B-channel response from driver
# rd data in s drv: 57bb5f55 , len : 3 , last:0 , valid : 1
#                 1435wlast : 0
# WID: 11344 , AWID : 11344
# m mon rid : a89e
# rd data in s drv: cdaaffbf , len : 3 , last:1 , valid : 1
# abc : 1
# abc : 2
# abc : 3
# abc : 4
# xyz : 1
# xyz : 2
# xyz : 3
# xyz : 4
#                 1445wlast : 1
# AFFTER W CHANNEL
# WID: 33036 , AWID : 33036
# m mon rid : a89e
# UVM_INFO ../env/axi_sb.sv(61) @ 1445: uvm_test_top.env_h.sb_h [after event in sb] aaaa
# UVM_INFO ../env/axi_sb.sv(74) @ 1445: uvm_test_top.env_h.sb_h [SB MATCH] ARID=43166 RID=43166 MATCH! RDATA=4076863488 2498436732 1471897429 3450535871 (Passes: 35)
# UVM_INFO ../env/axi_sb.sv(59) @ 1445: uvm_test_top.env_h.sb_h [before event in sb] aaaa
# match arid : 0 , rid : 0
# UVM_INFO ../env/s_agent/axi_s_drv.sv(31) @ 1445: uvm_test_top.env_h.s_uvc_h.s_agent_h[0].s_drv_h [ID MATCH] aaaaa
# s seqs arid : 41870
# INIDE_SLAVE_SEQ_CTR=41
# match arid : a38e , rid : a38e
# UVM_INFO ../env/s_agent/axi_s_drv.sv(31) @ 1445: uvm_test_top.env_h.s_uvc_h.s_agent_h[0].s_drv_h [ID MATCH] aaaaa
# rd data in s drv: 94eb1e7c , len : 3 , last:0 , valid : 1
#                 1455wlast : 0
# WID: 33036 , AWID : 33036
# m mon rid : 31d2
# rd data in s drv: 57bb5f55 , len : 3 , last:0 , valid : 1
#                 1465wlast : 0
# WID: 33036 , AWID : 33036
# m mon rid : 31d2
# UVM_INFO ../env/m_agent/axi_base_m_seqs.sv(26) @ 1465: uvm_test_top.env_h.m_uvc_h.m_agent_h[0].m_seqr_h@@vseqs_h.m_wseqs_h [IN V SEQS] Got B-channel response from driver
# rd data in s drv: cdaaffbf , len : 3 , last:0 , valid : 1
#                 1475wlast : 0
# WID: 33036 , AWID : 33036
# m mon rid : 31d2
# rd data in s drv: 0 , len : 3 , last:1 , valid : 1
# abc : 1
# abc : 2
# abc : 3
# abc : 4
#                 1485wlast : 1
# AFFTER W CHANNEL
# WID: 52090 , AWID : 52090
# m mon rid : 31d2
# UVM_INFO ../env/axi_sb.sv(61) @ 1485: uvm_test_top.env_h.sb_h [after event in sb] aaaa
# UVM_INFO ../env/axi_sb.sv(74) @ 1485: uvm_test_top.env_h.sb_h [SB MATCH] ARID=12754 RID=12754 MATCH! RDATA=2498436732 1471897429 3450535871 0 (Passes: 36)
# UVM_INFO ../env/axi_sb.sv(59) @ 1485: uvm_test_top.env_h.sb_h [before event in sb] aaaa
# match arid : 0 , rid : 0
# UVM_INFO ../env/s_agent/axi_s_drv.sv(31) @ 1485: uvm_test_top.env_h.s_uvc_h.s_agent_h[0].s_drv_h [ID MATCH] aaaaa
# rd data in s drv: 495e0000 , len : 3 , last:0 , valid : 1
#                 1495wlast : 0
# WID: 52090 , AWID : 52090
# m mon rid : 2bb3
# rd data in s drv: ec4f5585 , len : 3 , last:0 , valid : 1
#                 1505wlast : 0
# WID: 52090 , AWID : 52090
# m mon rid : 2bb3
# UVM_INFO ../env/m_agent/axi_base_m_seqs.sv(26) @ 1505: uvm_test_top.env_h.m_uvc_h.m_agent_h[0].m_seqr_h@@vseqs_h.m_wseqs_h [IN V SEQS] Got B-channel response from driver
# rd data in s drv: c8fa413b , len : 3 , last:0 , valid : 1
#                 1515wlast : 0
# WID: 52090 , AWID : 52090
# m mon rid : 2bb3
# rd data in s drv: 9bf6d0bf , len : 3 , last:1 , valid : 1
# abc : 1
# abc : 2
# abc : 3
# abc : 4
#                 1525wlast : 1
# AFFTER W CHANNEL
# WID: 11006 , AWID : 11006
# m mon rid : 2bb3
# UVM_INFO ../env/axi_sb.sv(61) @ 1525: uvm_test_top.env_h.sb_h [after event in sb] aaaa
# UVM_INFO ../env/axi_sb.sv(74) @ 1525: uvm_test_top.env_h.sb_h [SB MATCH] ARID=11187 RID=11187 MATCH! RDATA=1230897152 3964622213 3371843899 2616643775 (Passes: 37)
# UVM_INFO ../env/axi_sb.sv(59) @ 1525: uvm_test_top.env_h.sb_h [before event in sb] aaaa
# match arid : 0 , rid : 0
# UVM_INFO ../env/s_agent/axi_s_drv.sv(31) @ 1525: uvm_test_top.env_h.s_uvc_h.s_agent_h[0].s_drv_h [ID MATCH] aaaaa
# rd data in s drv: ec4f5585 , len : 3 , last:0 , valid : 1
#                 1535wlast : 0
# WID: 11006 , AWID : 11006
# m mon rid : 255b
# rd data in s drv: c8fa413b , len : 3 , last:0 , valid : 1
#                 1545wlast : 0
# WID: 11006 , AWID : 11006
# m mon rid : 255b
# UVM_INFO ../env/m_agent/axi_base_m_seqs.sv(26) @ 1545: uvm_test_top.env_h.m_uvc_h.m_agent_h[0].m_seqr_h@@vseqs_h.m_wseqs_h [IN V SEQS] Got B-channel response from driver
# rd data in s drv: 9bf6d0bf , len : 3 , last:0 , valid : 1
#                 1555wlast : 0
# WID: 11006 , AWID : 11006
# m mon rid : 255b
# rd data in s drv: 0 , len : 3 , last:1 , valid : 1
# abc : 1
# abc : 2
# abc : 3
# abc : 4
# xyz : 1
# xyz : 2
# xyz : 3
# xyz : 4
#                 1565wlast : 1
# AFFTER W CHANNEL
# WID: 37036 , AWID : 37036
# m mon rid : 255b
# UVM_INFO ../env/axi_sb.sv(61) @ 1565: uvm_test_top.env_h.sb_h [after event in sb] aaaa
# UVM_INFO ../env/axi_sb.sv(74) @ 1565: uvm_test_top.env_h.sb_h [SB MATCH] ARID=9563 RID=9563 MATCH! RDATA=3964622213 3371843899 2616643775 0 (Passes: 38)
# UVM_INFO ../env/axi_sb.sv(59) @ 1565: uvm_test_top.env_h.sb_h [before event in sb] aaaa
# match arid : 0 , rid : 0
# UVM_INFO ../env/s_agent/axi_s_drv.sv(31) @ 1565: uvm_test_top.env_h.s_uvc_h.s_agent_h[0].s_drv_h [ID MATCH] aaaaa
# s seqs arid : 29379
# INIDE_SLAVE_SEQ_CTR=42
# match arid : 72c3 , rid : 72c3
# UVM_INFO ../env/s_agent/axi_s_drv.sv(31) @ 1565: uvm_test_top.env_h.s_uvc_h.s_agent_h[0].s_drv_h [ID MATCH] aaaaa
# rd data in s drv: 8d000000 , len : 3 , last:0 , valid : 1
#                 1575wlast : 0
# WID: 37036 , AWID : 37036
# m mon rid : 143c
# rd data in s drv: 34abba76 , len : 3 , last:0 , valid : 1
#                 1585wlast : 0
# WID: 37036 , AWID : 37036
# m mon rid : 143c
# UVM_INFO ../env/m_agent/axi_base_m_seqs.sv(26) @ 1585: uvm_test_top.env_h.m_uvc_h.m_agent_h[0].m_seqr_h@@vseqs_h.m_wseqs_h [IN V SEQS] Got B-channel response from driver
# rd data in s drv: e36d973f , len : 3 , last:0 , valid : 1
#                 1595wlast : 0
# WID: 37036 , AWID : 37036
# m mon rid : 143c
# rd data in s drv: 8a0ee082 , len : 3 , last:1 , valid : 1
# abc : 1
# abc : 2
# abc : 3
# abc : 4
# xyz : 1
# xyz : 2
# xyz : 3
# xyz : 4
#                 1605wlast : 1
# AFFTER W CHANNEL
# WID: 46798 , AWID : 46798
# m mon rid : 143c
# UVM_INFO ../env/axi_sb.sv(61) @ 1605: uvm_test_top.env_h.sb_h [after event in sb] aaaa
# UVM_INFO ../env/axi_sb.sv(74) @ 1605: uvm_test_top.env_h.sb_h [SB MATCH] ARID=5180 RID=5180 MATCH! RDATA=2365587456 883669622 3815610175 2316230786 (Passes: 39)
# UVM_INFO ../env/axi_sb.sv(59) @ 1605: uvm_test_top.env_h.sb_h [before event in sb] aaaa
# match arid : 0 , rid : 0
# UVM_INFO ../env/s_agent/axi_s_drv.sv(31) @ 1605: uvm_test_top.env_h.s_uvc_h.s_agent_h[0].s_drv_h [ID MATCH] aaaaa
# s seqs arid : 11568
# INIDE_SLAVE_SEQ_CTR=43
# match arid : 2d30 , rid : 2d30
# UVM_INFO ../env/s_agent/axi_s_drv.sv(31) @ 1605: uvm_test_top.env_h.s_uvc_h.s_agent_h[0].s_drv_h [ID MATCH] aaaaa
# rd data in s drv: 60ff0000 , len : 3 , last:0 , valid : 1
#                 1615wlast : 0
# WID: 46798 , AWID : 46798
# m mon rid : 8117
# rd data in s drv: 74412a88 , len : 3 , last:0 , valid : 1
#                 1625wlast : 0
# WID: 46798 , AWID : 46798
# m mon rid : 8117
# UVM_INFO ../env/m_agent/axi_base_m_seqs.sv(26) @ 1625: uvm_test_top.env_h.m_uvc_h.m_agent_h[0].m_seqr_h@@vseqs_h.m_wseqs_h [IN V SEQS] Got B-channel response from driver
# rd data in s drv: 39d9ac53 , len : 3 , last:0 , valid : 1
#                 1635wlast : 0
# WID: 46798 , AWID : 46798
# m mon rid : 8117
# rd data in s drv: 55319476 , len : 3 , last:1 , valid : 1
# abc : 1
# abc : 2
# abc : 3
# abc : 4
# xyz : 1
# xyz : 2
# xyz : 3
# xyz : 4
#                 1645wlast : 1
# AFFTER W CHANNEL
# WID: 27349 , AWID : 27349
# m mon rid : 8117
# UVM_INFO ../env/axi_sb.sv(61) @ 1645: uvm_test_top.env_h.sb_h [after event in sb] aaaa
# UVM_INFO ../env/axi_sb.sv(74) @ 1645: uvm_test_top.env_h.sb_h [SB MATCH] ARID=33047 RID=33047 MATCH! RDATA=1627324416 1950427784 970566739 1429312630 (Passes: 40)
# UVM_INFO ../env/axi_sb.sv(59) @ 1645: uvm_test_top.env_h.sb_h [before event in sb] aaaa
# match arid : 0 , rid : 0
# UVM_INFO ../env/s_agent/axi_s_drv.sv(31) @ 1645: uvm_test_top.env_h.s_uvc_h.s_agent_h[0].s_drv_h [ID MATCH] aaaaa
# s seqs arid : 16179
# INIDE_SLAVE_SEQ_CTR=44
# match arid : 3f33 , rid : 3f33
# UVM_INFO ../env/s_agent/axi_s_drv.sv(31) @ 1645: uvm_test_top.env_h.s_uvc_h.s_agent_h[0].s_drv_h [ID MATCH] aaaaa
# rd data in s drv: 70000000 , len : 3 , last:0 , valid : 1
#                 1655wlast : 0
# WID: 27349 , AWID : 27349
# m mon rid : a38e
# rd data in s drv: 75d86acf , len : 3 , last:0 , valid : 1
#                 1665wlast : 0
# WID: 27349 , AWID : 27349
# m mon rid : a38e
# UVM_INFO ../env/m_agent/axi_base_m_seqs.sv(26) @ 1665: uvm_test_top.env_h.m_uvc_h.m_agent_h[0].m_seqr_h@@vseqs_h.m_wseqs_h [IN V SEQS] Got B-channel response from driver
# rd data in s drv: 9ff15101 , len : 3 , last:0 , valid : 1
#                 1675wlast : 0
# WID: 27349 , AWID : 27349
# m mon rid : a38e
# rd data in s drv: b3704f99 , len : 3 , last:1 , valid : 1
# abc : 1
# abc : 2
# abc : 3
# abc : 4
# xyz : 1
# xyz : 2
# xyz : 3
# xyz : 4
#                 1685wlast : 1
# AFFTER W CHANNEL
# WID: 51404 , AWID : 51404
# m mon rid : a38e
# UVM_INFO ../env/axi_sb.sv(61) @ 1685: uvm_test_top.env_h.sb_h [after event in sb] aaaa
# UVM_INFO ../env/axi_sb.sv(74) @ 1685: uvm_test_top.env_h.sb_h [SB MATCH] ARID=41870 RID=41870 MATCH! RDATA=1879048192 1977117391 2683392257 3010482073 (Passes: 41)
# UVM_INFO ../env/axi_sb.sv(59) @ 1685: uvm_test_top.env_h.sb_h [before event in sb] aaaa
# match arid : 0 , rid : 0
# UVM_INFO ../env/s_agent/axi_s_drv.sv(31) @ 1685: uvm_test_top.env_h.s_uvc_h.s_agent_h[0].s_drv_h [ID MATCH] aaaaa
# s seqs arid : 60092
# INIDE_SLAVE_SEQ_CTR=45
# match arid : eabc , rid : eabc
# UVM_INFO ../env/s_agent/axi_s_drv.sv(31) @ 1685: uvm_test_top.env_h.s_uvc_h.s_agent_h[0].s_drv_h [ID MATCH] aaaaa
# rd data in s drv: b97c0000 , len : 3 , last:0 , valid : 1
#                 1695wlast : 0
# WID: 51404 , AWID : 51404
# m mon rid : 72c3
# rd data in s drv: 4dfeb572 , len : 3 , last:0 , valid : 1
#                 1705wlast : 0
# WID: 51404 , AWID : 51404
# m mon rid : 72c3
# UVM_INFO ../env/m_agent/axi_base_m_seqs.sv(26) @ 1705: uvm_test_top.env_h.m_uvc_h.m_agent_h[0].m_seqr_h@@vseqs_h.m_wseqs_h [IN V SEQS] Got B-channel response from driver
# rd data in s drv: f680952f , len : 3 , last:0 , valid : 1
#                 1715wlast : 0
# WID: 51404 , AWID : 51404
# m mon rid : 72c3
# rd data in s drv: cb908a76 , len : 3 , last:1 , valid : 1
# abc : 1
# abc : 2
# abc : 3
# abc : 4
#                 1725wlast : 1
# AFFTER W CHANNEL
# WID: 5078 , AWID : 5078
# m mon rid : 72c3
# UVM_INFO ../env/axi_sb.sv(61) @ 1725: uvm_test_top.env_h.sb_h [after event in sb] aaaa
# UVM_INFO ../env/axi_sb.sv(74) @ 1725: uvm_test_top.env_h.sb_h [SB MATCH] ARID=29379 RID=29379 MATCH! RDATA=3111911424 1308538226 4135621935 3415247478 (Passes: 42)
# UVM_INFO ../env/axi_sb.sv(59) @ 1725: uvm_test_top.env_h.sb_h [before event in sb] aaaa
# match arid : 0 , rid : 0
# UVM_INFO ../env/s_agent/axi_s_drv.sv(31) @ 1725: uvm_test_top.env_h.s_uvc_h.s_agent_h[0].s_drv_h [ID MATCH] aaaaa
# rd data in s drv: 1193e100 , len : 3 , last:0 , valid : 1
#                 1735wlast : 0
# WID: 5078 , AWID : 5078
# m mon rid : 2d30
# rd data in s drv: 5b02d89c , len : 3 , last:0 , valid : 1
#                 1745wlast : 0
# WID: 5078 , AWID : 5078
# m mon rid : 2d30
# UVM_INFO ../env/m_agent/axi_base_m_seqs.sv(26) @ 1745: uvm_test_top.env_h.m_uvc_h.m_agent_h[0].m_seqr_h@@vseqs_h.m_wseqs_h [IN V SEQS] Got B-channel response from driver
# rd data in s drv: a6d0e2b8 , len : 3 , last:0 , valid : 1
#                 1755wlast : 0
# WID: 5078 , AWID : 5078
# m mon rid : 2d30
# rd data in s drv: 5f69d455 , len : 3 , last:1 , valid : 1
# abc : 1
# abc : 2
# abc : 3
# abc : 4
# xyz : 1
# xyz : 2
# xyz : 3
# xyz : 4
#                 1765wlast : 1
# AFFTER W CHANNEL
# WID: 27177 , AWID : 27177
# m mon rid : 2d30
# UVM_INFO ../env/axi_sb.sv(61) @ 1765: uvm_test_top.env_h.sb_h [after event in sb] aaaa
# UVM_INFO ../env/axi_sb.sv(74) @ 1765: uvm_test_top.env_h.sb_h [SB MATCH] ARID=11568 RID=11568 MATCH! RDATA=294904064 1526913180 2798707384 1600771157 (Passes: 43)
# UVM_INFO ../env/axi_sb.sv(59) @ 1765: uvm_test_top.env_h.sb_h [before event in sb] aaaa
# match arid : 0 , rid : 0
# UVM_INFO ../env/s_agent/axi_s_drv.sv(31) @ 1765: uvm_test_top.env_h.s_uvc_h.s_agent_h[0].s_drv_h [ID MATCH] aaaaa
# s seqs arid : 5087
# INIDE_SLAVE_SEQ_CTR=46
# match arid : 13df , rid : 13df
# UVM_INFO ../env/s_agent/axi_s_drv.sv(31) @ 1765: uvm_test_top.env_h.s_uvc_h.s_agent_h[0].s_drv_h [ID MATCH] aaaaa
# rd data in s drv: bd60eb00 , len : 3 , last:0 , valid : 1
#                 1775wlast : 0
# WID: 27177 , AWID : 27177
# m mon rid : 3f33
# rd data in s drv: e5c2eba5 , len : 3 , last:0 , valid : 1
#                 1785wlast : 0
# WID: 27177 , AWID : 27177
# m mon rid : 3f33
# UVM_INFO ../env/m_agent/axi_base_m_seqs.sv(26) @ 1785: uvm_test_top.env_h.m_uvc_h.m_agent_h[0].m_seqr_h@@vseqs_h.m_wseqs_h [IN V SEQS] Got B-channel response from driver
# rd data in s drv: db72182 , len : 3 , last:0 , valid : 1
#                 1795wlast : 0
# WID: 27177 , AWID : 27177
# m mon rid : 3f33
# rd data in s drv: df4c9f38 , len : 3 , last:1 , valid : 1
# abc : 1
# abc : 2
# abc : 3
# abc : 4
# xyz : 1
# xyz : 2
# xyz : 3
# xyz : 4
#                 1805wlast : 1
# AFFTER W CHANNEL
# WID: 43401 , AWID : 43401
# m mon rid : 3f33
# UVM_INFO ../env/axi_sb.sv(61) @ 1805: uvm_test_top.env_h.sb_h [after event in sb] aaaa
# UVM_INFO ../env/axi_sb.sv(74) @ 1805: uvm_test_top.env_h.sb_h [SB MATCH] ARID=16179 RID=16179 MATCH! RDATA=3177245440 3854756773 230105474 3746340664 (Passes: 44)
# UVM_INFO ../env/axi_sb.sv(59) @ 1805: uvm_test_top.env_h.sb_h [before event in sb] aaaa
# match arid : 0 , rid : 0
# UVM_INFO ../env/s_agent/axi_s_drv.sv(31) @ 1805: uvm_test_top.env_h.s_uvc_h.s_agent_h[0].s_drv_h [ID MATCH] aaaaa
# s seqs arid : 47476
# INIDE_SLAVE_SEQ_CTR=47
# match arid : b974 , rid : b974
# UVM_INFO ../env/s_agent/axi_s_drv.sv(31) @ 1805: uvm_test_top.env_h.s_uvc_h.s_agent_h[0].s_drv_h [ID MATCH] aaaaa
# rd data in s drv: 13ef0fdb , len : 3 , last:0 , valid : 1
#                 1815wlast : 0
# WID: 43401 , AWID : 43401
# m mon rid : eabc
# rd data in s drv: a5f1a70b , len : 3 , last:0 , valid : 1
#                 1825wlast : 0
# WID: 43401 , AWID : 43401
# m mon rid : eabc
# UVM_INFO ../env/m_agent/axi_base_m_seqs.sv(26) @ 1825: uvm_test_top.env_h.m_uvc_h.m_agent_h[0].m_seqr_h@@vseqs_h.m_wseqs_h [IN V SEQS] Got B-channel response from driver
# rd data in s drv: 366bb992 , len : 3 , last:0 , valid : 1
#                 1835wlast : 0
# WID: 43401 , AWID : 43401
# m mon rid : eabc
# rd data in s drv: 182f69bd , len : 3 , last:1 , valid : 1
# abc : 1
# abc : 2
# abc : 3
# abc : 4
# xyz : 1
# xyz : 2
# xyz : 3
# xyz : 4
#                 1845wlast : 1
# AFFTER W CHANNEL
# WID: 39135 , AWID : 39135
# m mon rid : eabc
# UVM_INFO ../env/axi_sb.sv(61) @ 1845: uvm_test_top.env_h.sb_h [after event in sb] aaaa
# UVM_INFO ../env/axi_sb.sv(74) @ 1845: uvm_test_top.env_h.sb_h [SB MATCH] ARID=60092 RID=60092 MATCH! RDATA=334434267 2784077579 913029522 405760445 (Passes: 45)
# UVM_INFO ../env/axi_sb.sv(59) @ 1845: uvm_test_top.env_h.sb_h [before event in sb] aaaa
# match arid : 0 , rid : 0
# UVM_INFO ../env/s_agent/axi_s_drv.sv(31) @ 1845: uvm_test_top.env_h.s_uvc_h.s_agent_h[0].s_drv_h [ID MATCH] aaaaa
# s seqs arid : 36504
# INIDE_SLAVE_SEQ_CTR=48
# match arid : 8e98 , rid : 8e98
# UVM_INFO ../env/s_agent/axi_s_drv.sv(31) @ 1845: uvm_test_top.env_h.s_uvc_h.s_agent_h[0].s_drv_h [ID MATCH] aaaaa
# rd data in s drv: 59cd4b00 , len : 3 , last:0 , valid : 1
#                 1855wlast : 0
# WID: 39135 , AWID : 39135
# m mon rid : 13df
# rd data in s drv: 4b5c4803 , len : 3 , last:0 , valid : 1
#                 1865wlast : 0
# WID: 39135 , AWID : 39135
# m mon rid : 13df
# UVM_INFO ../env/m_agent/axi_base_m_seqs.sv(26) @ 1865: uvm_test_top.env_h.m_uvc_h.m_agent_h[0].m_seqr_h@@vseqs_h.m_wseqs_h [IN V SEQS] Got B-channel response from driver
# rd data in s drv: 222e96fe , len : 3 , last:0 , valid : 1
#                 1875wlast : 0
# WID: 39135 , AWID : 39135
# m mon rid : 13df
# rd data in s drv: aabaa67 , len : 3 , last:1 , valid : 1
# abc : 1
# abc : 2
# abc : 3
# abc : 4
# xyz : 1
# xyz : 2
# xyz : 3
# xyz : 4
#                 1885wlast : 1
# AFFTER W CHANNEL
# WID: 19348 , AWID : 19348
# m mon rid : 13df
# UVM_INFO ../env/axi_sb.sv(61) @ 1885: uvm_test_top.env_h.sb_h [after event in sb] aaaa
# UVM_INFO ../env/axi_sb.sv(74) @ 1885: uvm_test_top.env_h.sb_h [SB MATCH] ARID=5087 RID=5087 MATCH! RDATA=1506626304 1264338947 573478654 179022439 (Passes: 46)
# UVM_INFO ../env/axi_sb.sv(59) @ 1885: uvm_test_top.env_h.sb_h [before event in sb] aaaa
# match arid : 0 , rid : 0
# UVM_INFO ../env/s_agent/axi_s_drv.sv(31) @ 1885: uvm_test_top.env_h.s_uvc_h.s_agent_h[0].s_drv_h [ID MATCH] aaaaa
# s seqs arid : 22723
# INIDE_SLAVE_SEQ_CTR=49
# match arid : 58c3 , rid : 58c3
# UVM_INFO ../env/s_agent/axi_s_drv.sv(31) @ 1885: uvm_test_top.env_h.s_uvc_h.s_agent_h[0].s_drv_h [ID MATCH] aaaaa
# rd data in s drv: 83e45107 , len : 3 , last:0 , valid : 1
#                 1895wlast : 0
# WID: 19348 , AWID : 19348
# m mon rid : b974
# rd data in s drv: 594f1084 , len : 3 , last:0 , valid : 1
#                 1905wlast : 0
# WID: 19348 , AWID : 19348
# m mon rid : b974
# UVM_INFO ../env/m_agent/axi_base_m_seqs.sv(26) @ 1905: uvm_test_top.env_h.m_uvc_h.m_agent_h[0].m_seqr_h@@vseqs_h.m_wseqs_h [IN V SEQS] Got B-channel response from driver
# rd data in s drv: 74343217 , len : 3 , last:0 , valid : 1
#                 1915wlast : 0
# WID: 19348 , AWID : 19348
# m mon rid : b974
# rd data in s drv: cc0fbbaa , len : 3 , last:1 , valid : 1
# abc : 1
# abc : 2
# abc : 3
# abc : 4
# xyz : 1
# xyz : 2
# xyz : 3
# xyz : 4
#                 1925wlast : 1
# AFFTER W CHANNEL
# WID: 17688 , AWID : 17688
# m mon rid : b974
# UVM_INFO ../env/axi_sb.sv(61) @ 1925: uvm_test_top.env_h.sb_h [after event in sb] aaaa
# UVM_INFO ../env/axi_sb.sv(74) @ 1925: uvm_test_top.env_h.sb_h [SB MATCH] ARID=47476 RID=47476 MATCH! RDATA=2212778247 1498353796 1949577751 3423583146 (Passes: 47)
# UVM_INFO ../env/axi_sb.sv(59) @ 1925: uvm_test_top.env_h.sb_h [before event in sb] aaaa
# match arid : 0 , rid : 0
# UVM_INFO ../env/s_agent/axi_s_drv.sv(31) @ 1925: uvm_test_top.env_h.s_uvc_h.s_agent_h[0].s_drv_h [ID MATCH] aaaaa
# s seqs arid : 50465
# INIDE_SLAVE_SEQ_CTR=50
# match arid : c521 , rid : c521
# UVM_INFO ../env/s_agent/axi_s_drv.sv(31) @ 1925: uvm_test_top.env_h.s_uvc_h.s_agent_h[0].s_drv_h [ID MATCH] aaaaa
# rd data in s drv: f9000000 , len : 3 , last:0 , valid : 1
#                 1935wlast : 0
# WID: 17688 , AWID : 17688
# m mon rid : 8e98
# rd data in s drv: 83eb57c5 , len : 3 , last:0 , valid : 1
#                 1945wlast : 0
# WID: 17688 , AWID : 17688
# m mon rid : 8e98
# UVM_INFO ../env/m_agent/axi_base_m_seqs.sv(26) @ 1945: uvm_test_top.env_h.m_uvc_h.m_agent_h[0].m_seqr_h@@vseqs_h.m_wseqs_h [IN V SEQS] Got B-channel response from driver
# rd data in s drv: 6437108 , len : 3 , last:0 , valid : 1
#                 1955wlast : 0
# WID: 17688 , AWID : 17688
# m mon rid : 8e98
# rd data in s drv: 43e90fda , len : 3 , last:1 , valid : 1
# abc : 1
# abc : 2
# abc : 3
# abc : 4
#                 1965wlast : 1
# AFFTER W CHANNEL
# WID: 20083 , AWID : 20083
# m mon rid : 8e98
# UVM_INFO ../env/axi_sb.sv(61) @ 1965: uvm_test_top.env_h.sb_h [after event in sb] aaaa
# UVM_INFO ../env/axi_sb.sv(74) @ 1965: uvm_test_top.env_h.sb_h [SB MATCH] ARID=36504 RID=36504 MATCH! RDATA=4177526784 2213238725 105083144 1139347418 (Passes: 48)
# UVM_INFO ../env/axi_sb.sv(59) @ 1965: uvm_test_top.env_h.sb_h [before event in sb] aaaa
# match arid : 0 , rid : 0
# UVM_INFO ../env/s_agent/axi_s_drv.sv(31) @ 1965: uvm_test_top.env_h.s_uvc_h.s_agent_h[0].s_drv_h [ID MATCH] aaaaa
# rd data in s drv: 315d7cc8 , len : 3 , last:0 , valid : 1
#                 1975wlast : 0
# WID: 20083 , AWID : 20083
# m mon rid : 58c3
# rd data in s drv: 905956d9 , len : 3 , last:0 , valid : 1
#                 1985wlast : 0
# WID: 20083 , AWID : 20083
# m mon rid : 58c3
# UVM_INFO ../env/m_agent/axi_base_m_seqs.sv(26) @ 1985: uvm_test_top.env_h.m_uvc_h.m_agent_h[0].m_seqr_h@@vseqs_h.m_wseqs_h [IN V SEQS] Got B-channel response from driver
# rd data in s drv: 9247fba1 , len : 3 , last:0 , valid : 1
#                 1995wlast : 0
# WID: 20083 , AWID : 20083
# m mon rid : 58c3
# rd data in s drv: 9bb246ed , len : 3 , last:1 , valid : 1
# abc : 1
# abc : 2
# abc : 3
# abc : 4
#                 2005wlast : 1
#                 2005later wlast : 1
# AFFTER W CHANNEL
# m mon rid : 58c3
# UVM_INFO ../env/axi_sb.sv(61) @ 2005: uvm_test_top.env_h.sb_h [after event in sb] aaaa
# UVM_INFO ../env/axi_sb.sv(74) @ 2005: uvm_test_top.env_h.sb_h [SB MATCH] ARID=22723 RID=22723 MATCH! RDATA=828210376 2421774041 2454191009 2612152045 (Passes: 49)
# UVM_INFO ../env/axi_sb.sv(59) @ 2005: uvm_test_top.env_h.sb_h [before event in sb] aaaa
# match arid : 0 , rid : 0
# UVM_INFO ../env/s_agent/axi_s_drv.sv(31) @ 2005: uvm_test_top.env_h.s_uvc_h.s_agent_h[0].s_drv_h [ID MATCH] aaaaa
# rd data in s drv: 81e00000 , len : 3 , last:0 , valid : 1
# m mon rid : c521
# rd data in s drv: 4229cd7c , len : 3 , last:0 , valid : 1
# m mon rid : c521
# UVM_INFO ../env/m_agent/axi_base_m_seqs.sv(26) @ 2025: uvm_test_top.env_h.m_uvc_h.m_agent_h[0].m_seqr_h@@vseqs_h.m_wseqs_h [IN V SEQS] Got B-channel response from driver
# rd data in s drv: c09e8c95 , len : 3 , last:0 , valid : 1
# m mon rid : c521
# rd data in s drv: 11fc48fc , len : 3 , last:1 , valid : 1
# m mon rid : c521
# UVM_INFO ../env/axi_sb.sv(61) @ 2045: uvm_test_top.env_h.sb_h [after event in sb] aaaa
# UVM_INFO ../env/axi_sb.sv(74) @ 2045: uvm_test_top.env_h.sb_h [SB MATCH] ARID=50465 RID=50465 MATCH! RDATA=2178940928 1110035836 3231616149 301746428 (Passes: 50)
# UVM_INFO ../env/axi_sb.sv(59) @ 2045: uvm_test_top.env_h.sb_h [before event in sb] aaaa
# UVM_INFO verilog_src/uvm-1.1d/src/base/uvm_objection.svh(1267) @ 5025: reporter [TEST_DONE] 'run' phase is ready to proceed to the 'extract' phase
# 
##############################################################
#                                                            #
#   PPPPPPPP    AAA     SSSSSS    SSSSSS                     #
#   PP     PP  A   A   SS        SS                          #
#   PPPPPPPP   AAAAA    SSSSS     SSSSS                      #
#   PP         A   A        SS         SS                    #
#   PP         A   A   SSSSSS    SSSSSS                      #
#                                                            #
##############################################################
# 
# UVM_INFO ../env/axi_sb.sv(105) @ 5025: uvm_test_top.env_h.sb_h [
# SCOREBOARD_SUMMARY] 
# === FINAL RESULTS ===
# Total Pass = 50
# Total Fail = 0
# 
# --- UVM Report Summary ---
# 
# ** Report counts by severity
# UVM_INFO :  314
# UVM_WARNING :    0
# UVM_ERROR :    0
# UVM_FATAL :    0
# ** Report counts by id
# [
# SCOREBOARD_SUMMARY]     1
# [Data in s seqr]     1
# [ID MATCH]   100
# [IN V SEQS]    50
# [M MON RUN PHASE before]     1
# [M MON read addr PHASE before]     1
# [M MON read data PHASE before]     1
# [M MON run PHASE after]     1
# [M MON write addr PHASE before]     1
# [M MON write data PHASE before]     1
# [Questa UVM]     2
# [RNTST]     1
# [SB MATCH]    50
# [TEST_DONE]     1
# [UVMTOP]     1
# [after event in sb]    50
# [before event in sb]    51
# ** Note: $finish    : /tools/mentor/questa/2023.4/questasim/linux_x86_64/../verilog_src/uvm-1.1d/src/base/uvm_root.svh(430)
#    Time: 5025 ns  Iteration: 53  Instance: /axi_tb_top
# End time: 17:14:31 on May 05,2026, Elapsed time: 0:00:05
# Errors: 0, Warnings: 30
